Time Stamp,ID,Extended,Dir,Bus,LEN,D1,D2,D3,D4,D5,D6,D7,D8
118752033,00000135,false,Rx,0,8,A2,00,00,00,10,00,14,99,
118752035,00000110,false,Rx,0,8,00,00,00,00,13,00,0D,2B,
118753017,00000135,false,Rx,0,8,A2,00,00,00,20,00,00,99,
118753019,00000110,false,Rx,0,8,00,00,00,00,23,00,19,2B,
118754175,00000130,false,Rx,0,8,18,00,00,00,10,00,0E,03,
118754176,00000100,false,Rx,0,8,88,00,00,00,10,00,13,53,
118755175,00000120,false,Rx,0,8,00,00,00,00,13,00,0D,2B,
118755177,00000110,false,Rx,0,8,62,00,00,00,30,00,1C,59,
118755178,00000050,false,Rx,0,6,41,54,FF,E9,57,FF,00,00,
118756144,00000130,false,Rx,0,8,2C,BA,F5,FF,23,80,C5,00,
118756145,00000100,false,Rx,0,8,71,00,00,00,20,00,13,3A,
118757155,00000120,false,Rx,0,8,20,00,00,00,20,00,1E,BB,
118757157,00000110,false,Rx,0,8,62,00,00,00,40,00,39,99,
118757157,00000210,false,Rx,0,8,75,69,00,05,06,5F,01,03,
118758164,00000130,false,Rx,0,8,95,00,00,00,30,00,09,1E,
118758166,00000100,false,Rx,0,8,5A,00,00,00,30,00,18,E1,
118759299,00000120,false,Rx,0,8,20,00,00,00,30,00,13,7B,
118759300,00000110,false,Rx,0,8,79,00,00,00,50,00,37,B2,
118760298,00000130,false,Rx,0,8,F8,FF,FF,FF,40,00,30,53,
118760300,00000100,false,Rx,0,8,5A,00,00,00,40,00,3D,21,
118761272,00000120,false,Rx,0,8,04,00,00,00,40,00,30,5F,
118761273,00000110,false,Rx,0,8,79,00,00,00,60,00,23,B2,
118762265,00000130,false,Rx,0,8,18,00,00,00,50,00,3F,C3,
118762266,00000100,false,Rx,0,8,5A,00,00,00,50,00,30,E1,
118763422,00000120,false,Rx,0,8,04,00,00,00,50,00,3D,9F,
118763423,00000110,false,Rx,0,8,79,00,00,00,70,00,2E,72,
118764423,00000130,false,Rx,0,8,D9,FF,FF,FF,60,00,2F,22,
118764424,00000100,false,Rx,0,8,5A,00,00,00,60,00,24,E1,
118765393,00000120,false,Rx,0,8,04,00,00,00,60,00,29,9F,
118765394,00000110,false,Rx,0,8,79,00,00,00,80,00,6A,72,
118766400,00000130,false,Rx,0,8,F8,FF,FF,FF,70,00,24,53,
118766401,00000100,false,Rx,0,8,71,00,00,00,70,00,2F,3A,
118767389,00000120,false,Rx,0,8,04,00,00,00,70,00,24,5F,
118767391,00000110,false,Rx,0,8,62,00,00,00,90,00,64,59,
118768525,00000130,false,Rx,0,8,18,00,00,00,80,00,62,03,
118768527,00000100,false,Rx,0,8,88,00,00,00,80,00,7F,53,
118769549,00000120,false,Rx,0,8,E7,FF,FF,FF,80,00,62,3C,
118769551,00000110,false,Rx,0,8,62,00,00,00,A0,00,70,59,
118770526,00000130,false,Rx,0,8,18,00,00,00,90,00,6F,C3,
118770528,00000100,false,Rx,0,8,88,00,00,00,90,00,72,93,
118770528,00000140,false,Rx,0,8,00,00,00,00,11,11,CC,47,
118771515,00000120,false,Rx,0,8,E7,FF,FF,FF,90,00,6F,FC,
118771517,00000110,false,Rx,0,8,4B,00,00,00,B0,00,7A,60,
118772645,00000130,false,Rx,0,8,F8,FF,FF,FF,A0,00,79,93,
118772646,00000100,false,Rx,0,8,71,00,00,00,A0,00,72,FA,
118773625,00000120,false,Rx,0,8,04,00,00,00,A0,00,79,9F,
118773627,00000110,false,Rx,0,8,4B,00,00,00,C0,00,5F,A0,
118774648,00000130,false,Rx,0,8,18,00,00,00,B0,00,76,03,
118774649,00000100,false,Rx,0,8,71,00,00,00,B0,00,7F,3A,
118775623,00000120,false,Rx,0,8,04,00,00,00,B0,00,74,5F,
118775624,00000110,false,Rx,0,8,90,00,00,00,D0,00,40,8B,
118775625,00000050,false,Rx,0,6,41,5C,FF,EB,5F,FF,00,00,
118776642,00000130,false,Rx,0,8,6C,21,00,00,C3,80,E4,20,
118776643,00000100,false,Rx,0,8,5A,00,00,00,C0,00,5C,E1,
118777795,00000120,false,Rx,0,8,20,00,00,00,C0,00,57,7B,
118777797,00000110,false,Rx,0,8,90,00,00,00,E0,00,54,8B,
118778772,00000130,false,Rx,0,8,F8,FF,FF,FF,D0,00,5C,53,
118778774,00000100,false,Rx,0,8,5A,00,00,00,D0,00,51,21,
118779768,00000120,false,Rx,0,8,20,00,00,00,D0,00,5A,BB,
118779770,00000110,false,Rx,0,8,79,00,00,00,F0,00,4F,B2,
118780920,00000130,false,Rx,0,8,F8,FF,FF,FF,E0,00,48,53,
118780922,00000100,false,Rx,0,8,5A,00,00,00,E0,00,45,21,
118781921,00000120,false,Rx,0,8,04,00,00,00,E0,00,48,5F,
118781922,00000110,false,Rx,0,8,79,00,00,00,00,00,0B,B2,
118782899,00000130,false,Rx,0,8,D9,FF,FF,FF,F0,00,43,22,
118782900,00000100,false,Rx,0,8,5A,00,00,00,F0,00,48,E1,
118783913,00000120,false,Rx,0,8,04,00,00,00,F0,00,45,9F,
118783914,00000110,false,Rx,0,8,62,00,00,00,10,00,05,99,
118785018,00000130,false,Rx,0,8,D9,FF,FF,FF,00,00,07,22,
118785019,00000100,false,Rx,0,8,5A,00,00,00,00,00,0C,E1,
118786020,00000120,false,Rx,0,8,04,00,00,00,00,00,01,9F,
118786022,00000110,false,Rx,0,8,62,00,00,00,20,00,11,99,
118787015,00000130,false,Rx,0,8,F8,FF,FF,FF,10,00,0C,53,
118787016,00000100,false,Rx,0,8,71,00,00,00,10,00,07,3A,
118788019,00000120,false,Rx,0,8,04,00,00,00,10,00,0C,5F,
118788021,00000110,false,Rx,0,8,34,00,00,00,30,00,10,6F,
118789142,00000130,false,Rx,0,8,F8,FF,FF,FF,20,00,18,53,
118789143,00000100,false,Rx,0,8,88,00,00,00,20,00,07,53,
118790144,00000120,false,Rx,0,8,E7,FF,FF,FF,20,00,1A,3C,
118790145,00000110,false,Rx,0,8,34,00,00,00,40,00,35,AF,
118791144,00000130,false,Rx,0,8,F8,FF,FF,FF,30,00,15,93,
118791146,00000100,false,Rx,0,8,88,00,00,00,30,00,0A,93,
118791147,00000140,false,Rx,0,8,01,00,FF,FF,20,00,18,2E,
118792141,00000120,false,Rx,0,8,E7,FF,FF,FF,30,00,17,FC,
118792143,00000110,false,Rx,0,8,4B,00,00,00,50,00,33,A0,
118793145,00000130,false,Rx,0,8,F8,FF,FF,FF,40,00,30,53,
118793147,00000100,false,Rx,0,8,71,00,00,00,40,00,3B,3A,
118794264,00000120,false,Rx,0,8,E7,FF,FF,FF,40,00,32,3C,
118794266,00000110,false,Rx,0,8,4B,00,00,00,60,00,27,A0,
118795269,00000130,false,Rx,0,8,18,00,00,00,50,00,3F,C3,
118795271,00000100,false,Rx,0,8,5A,00,00,00,50,00,30,E1,
118795271,00000120,false,Rx,0,8,E7,FF,FF,FF,50,00,3F,FC,
118796517,00000110,false,Rx,0,8,90,00,00,00,70,00,38,8B,
118796518,00000050,false,Rx,0,6,41,5C,FF,EB,5F,FF,00,00,
118796519,00000130,false,Rx,0,8,D8,34,03,00,63,80,8A,13,
118797524,00000100,false,Rx,0,8,5A,00,00,00,60,00,24,E1,
118797526,00000120,false,Rx,0,8,04,00,00,00,60,00,29,9F,
118798517,00000110,false,Rx,0,8,90,00,00,00,80,00,7C,8B,
118798518,00000130,false,Rx,0,8,B9,FF,FF,FF,70,00,2B,42,
118799642,00000100,false,Rx,0,8,5A,00,00,00,70,00,29,21,
118799644,00000120,false,Rx,0,8,04,00,00,00,70,00,24,5F,
118800643,00000110,false,Rx,0,8,79,00,00,00,90,00,67,B2,
118800645,00000130,false,Rx,0,8,18,00,00,00,80,00,62,03,
118801640,00000100,false,Rx,0,8,5A,00,00,00,80,00,6D,21,
118801641,00000120,false,Rx,0,8,20,00,00,00,80,00,66,BB,
118802647,00000110,false,Rx,0,8,79,00,00,00,A0,00,73,B2,
118802648,00000130,false,Rx,0,8,F8,FF,FF,FF,90,00,6D,93,
118803769,00000100,false,Rx,0,8,5A,00,00,00,90,00,60,E1,
118803771,00000120,false,Rx,0,8,20,00,00,00,90,00,6B,7B,
118804766,00000110,false,Rx,0,8,79,00,00,00,B0,00,7E,72,
118804768,00000130,false,Rx,0,8,F8,FF,FF,FF,A0,00,79,93,
118805766,00000100,false,Rx,0,8,71,00,00,00,A0,00,72,FA,
118805768,00000120,false,Rx,0,8,E7,FF,FF,FF,A0,00,7B,FC,
118806769,00000110,false,Rx,0,8,79,00,00,00,C0,00,5B,B2,
118806770,00000130,false,Rx,0,8,D9,FF,FF,FF,B0,00,72,E2,
118807767,00000100,false,Rx,0,8,9F,00,00,00,B0,00,68,74,
118807768,00000120,false,Rx,0,8,E7,FF,FF,FF,B0,00,76,3C,
118808893,00000110,false,Rx,0,8,4B,00,00,00,D0,00,52,60,
118808895,00000130,false,Rx,0,8,D9,FF,FF,FF,C0,00,57,22,
118809894,00000100,false,Rx,0,8,88,00,00,00,C0,00,4E,93,
118809895,00000120,false,Rx,0,8,CB,FF,FF,FF,C0,00,54,50,
118810892,00000110,false,Rx,0,8,4B,00,00,00,E0,00,46,60,
118810894,00000130,false,Rx,0,8,18,00,00,00,D0,00,5E,03,
118811891,00000100,false,Rx,0,8,88,00,00,00,D0,00,43,53,
118811892,00000140,false,Rx,0,8,01,00,FF,FF,30,00,15,EE,
118811893,00000120,false,Rx,0,8,CB,FF,FF,FF,D0,00,59,90,
118813015,00000110,false,Rx,0,8,4B,00,00,00,F0,00,4B,A0,
118813017,00000130,false,Rx,0,8,F8,FF,FF,FF,E0,00,48,53,
118814016,00000100,false,Rx,0,8,71,00,00,00,E0,00,43,3A,
118814017,00000120,false,Rx,0,8,04,00,00,00,E0,00,48,5F,
118815017,00000110,false,Rx,0,8,4B,00,00,00,00,00,0F,A0,
118815019,00000130,false,Rx,0,8,F8,FF,FF,FF,F0,00,45,93,
118816017,00000100,false,Rx,0,8,5A,00,00,00,F0,00,48,E1,
118816018,00000120,false,Rx,0,8,04,00,00,00,F0,00,45,9F,
118816018,00000110,false,Rx,0,8,62,00,00,00,10,00,05,99,
118817265,00000050,false,Rx,0,6,41,5C,FF,EB,5F,FF,00,00,
118817266,00000130,false,Rx,0,8,EB,95,FF,FF,03,80,1A,69,
118817267,00000100,false,Rx,0,8,5A,00,00,00,00,00,0C,E1,
118818892,00000120,false,Rx,0,8,04,00,00,00,00,00,01,9F,
118818894,00000110,false,Rx,0,8,62,00,00,00,20,00,11,99,
118819889,00000130,false,Rx,0,8,B5,00,00,00,10,00,17,BE,
118819890,00000100,false,Rx,0,8,5A,00,00,00,10,00,01,21,
118821016,00000120,false,Rx,0,8,04,00,00,00,10,00,0C,5F,
118821018,00000110,false,Rx,0,8,79,00,00,00,30,00,1F,B2,
118822017,00000130,false,Rx,0,8,F8,FF,FF,FF,20,00,18,53,
118822018,00000100,false,Rx,0,8,5A,00,00,00,20,00,15,21,
118823017,00000120,false,Rx,0,8,20,00,00,00,20,00,1E,BB,
118823018,00000110,false,Rx,0,8,79,00,00,00,40,00,3A,72,
118824015,00000130,false,Rx,0,8,D9,FF,FF,FF,30,00,13,22,
118824017,00000100,false,Rx,0,8,5A,00,00,00,30,00,18,E1,
118825016,00000120,false,Rx,0,8,20,00,00,00,30,00,13,7B,
118825017,00000110,false,Rx,0,8,62,00,00,00,50,00,34,59,
118826116,00000130,false,Rx,0,8,D9,FF,FF,FF,40,00,36,E2,
118826117,00000100,false,Rx,0,8,71,00,00,00,40,00,3B,3A,
118827115,00000120,false,Rx,0,8,04,00,00,00,40,00,30,5F,
118827117,00000110,false,Rx,0,8,62,00,00,00,60,00,20,59,
118828113,00000130,false,Rx,0,8,F8,FF,FF,FF,50,00,3D,93,
118828114,00000100,false,Rx,0,8,88,00,00,00,50,00,22,93,
118829112,00000120,false,Rx,0,8,04,00,00,00,50,00,3D,9F,
118829113,00000110,false,Rx,0,8,4B,00,00,00,70,00,2A,60,
118830238,00000130,false,Rx,0,8,F8,FF,FF,FF,60,00,29,93,
118830239,00000100,false,Rx,0,8,71,00,00,00,60,00,22,FA,
118831237,00000120,false,Rx,0,8,E7,FF,FF,FF,60,00,2B,FC,
118831238,00000110,false,Rx,0,8,4B,00,00,00,80,00,6E,60,
118832267,00000130,false,Rx,0,8,18,00,00,00,70,00,26,03,
118832268,00000100,false,Rx,0,8,88,00,00,00,70,00,3B,53,
118832269,00000140,false,Rx,0,8,01,00,FF,FF,40,00,30,2E,
118833266,00000120,false,Rx,0,8,E7,FF,FF,FF,70,00,26,3C,
118833268,00000110,false,Rx,0,8,4B,00,00,00,90,00,63,A0,
118834267,00000130,false,Rx,0,8,D9,FF,FF,FF,80,00,66,E2,
118834269,00000100,false,Rx,0,8,88,00,00,00,80,00,7F,53,
118835393,00000120,false,Rx,0,8,04,00,00,00,80,00,60,5F,
118835395,00000110,false,Rx,0,8,4B,00,00,00,A0,00,77,A0,
118836382,00000130,false,Rx,0,8,18,00,00,00,90,00,6F,C3,
118836383,00000100,false,Rx,0,8,5A,00,00,00,90,00,60,E1,
118836384,00000120,false,Rx,0,8,04,00,00,00,90,00,6D,9F,
118837621,00000110,false,Rx,0,8,79,00,00,00,B0,00,7E,72,
118837623,00000050,false,Rx,0,6,41,5C,FF,FB,5F,FF,00,00,
118837624,00000130,false,Rx,0,8,6B,BA,F5,FF,A3,80,AB,B7,
118838645,00000100,false,Rx,0,8,5A,00,00,00,A0,00,74,E1,
118838646,00000120,false,Rx,0,8,20,00,00,00,A0,00,7F,7B,
118839634,00000110,false,Rx,0,8,79,00,00,00,C0,00,5B,B2,
118839636,00000130,false,Rx,0,8,95,00,00,00,B0,00,68,DE,
118840768,00000100,false,Rx,0,8,5A,00,00,00,B0,00,79,21,
118840769,00000120,false,Rx,0,8,20,00,00,00,B0,00,72,BB,
118841767,00000110,false,Rx,0,8,90,00,00,00,D0,00,40,8B,
118841768,00000130,false,Rx,0,8,18,00,00,00,C0,00,53,C3,
118842765,00000100,false,Rx,0,8,5A,00,00,00,C0,00,5C,E1,
118842766,00000120,false,Rx,0,8,04,00,00,00,C0,00,51,9F,
118843751,00000110,false,Rx,0,8,90,00,00,00,E0,00,54,8B,
118843752,00000130,false,Rx,0,8,18,00,00,00,D0,00,5E,03,
118844877,00000100,false,Rx,0,8,71,00,00,00,D0,00,57,3A,
118844877,00000120,false,Rx,0,8,04,00,00,00,D0,00,5C,5F,
118845872,00000110,false,Rx,0,8,62,00,00,00,F0,00,4C,59,
118845873,00000130,false,Rx,0,8,18,00,00,00,E0,00,4A,03,
118846873,00000100,false,Rx,0,8,71,00,00,00,E0,00,43,3A,
118846874,00000120,false,Rx,0,8,CB,FF,FF,FF,E0,00,4D,90,
118847876,00000110,false,Rx,0,8,62,00,00,00,00,00,08,59,
118847876,00000130,false,Rx,0,8,D9,FF,FF,FF,F0,00,43,22,
118849000,00000100,false,Rx,0,8,88,00,00,00,F0,00,5A,93,
118849001,00000120,false,Rx,0,8,CB,FF,FF,FF,F0,00,40,50,
118849999,00000110,false,Rx,0,8,4B,00,00,00,10,00,02,60,
118850000,00000130,false,Rx,0,8,D9,FF,FF,FF,00,00,07,22,
118850999,00000100,false,Rx,0,8,88,00,00,00,00,00,1E,93,
118851000,00000120,false,Rx,0,8,E7,FF,FF,FF,00,00,03,FC,
118851997,00000110,false,Rx,0,8,4B,00,00,00,20,00,16,60,
118851998,00000130,false,Rx,0,8,F8,FF,FF,FF,10,00,0C,53,
118852997,00000100,false,Rx,0,8,71,00,00,00,10,00,07,3A,
118852998,00000140,false,Rx,0,8,01,00,FF,FF,50,00,3D,EE,
118852998,00000120,false,Rx,0,8,E7,FF,FF,FF,10,00,0E,3C,
118854124,00000110,false,Rx,0,8,62,00,00,00,30,00,1C,59,
118854125,00000130,false,Rx,0,8,F8,FF,FF,FF,20,00,18,53,
118855123,00000100,false,Rx,0,8,71,00,00,00,20,00,13,3A,
118855124,00000120,false,Rx,0,8,04,00,00,00,20,00,18,5F,
118856130,00000110,false,Rx,0,8,62,00,00,00,40,00,39,99,
118856131,00000130,false,Rx,0,8,F8,FF,FF,FF,30,00,15,93,
118857112,00000100,false,Rx,0,8,5A,00,00,00,30,00,18,E1,
118857113,00000120,false,Rx,0,8,04,00,00,00,30,00,15,9F,
118857114,00000110,false,Rx,0,8,90,00,00,00,50,00,21,4B,
118858373,00000050,false,Rx,0,6,41,5C,FF,FB,5F,FF,00,00,
118858374,00000130,false,Rx,0,8,4D,21,00,00,43,80,83,51,
118858375,00000100,false,Rx,0,8,5A,00,00,00,40,00,3D,21,
118859997,00000120,false,Rx,0,8,04,00,00,00,40,00,30,5F,
118859998,00000110,false,Rx,0,8,90,00,00,00,60,00,35,4B,
118860997,00000130,false,Rx,0,8,F8,FF,FF,FF,50,00,3D,93,
118860998,00000100,false,Rx,0,8,43,00,00,00,50,00,32,E8,
118862123,00000120,false,Rx,0,8,04,00,00,00,50,00,3D,9F,
118862124,00000110,false,Rx,0,8,62,00,00,00,70,00,2D,99,
118863124,00000130,false,Rx,0,8,F8,FF,FF,FF,60,00,29,93,
118863124,00000100,false,Rx,0,8,5A,00,00,00,60,00,24,E1,
118864123,00000120,false,Rx,0,8,04,00,00,00,60,00,29,9F,
118864124,00000110,false,Rx,0,8,62,00,00,00,80,00,69,99,
118865124,00000130,false,Rx,0,8,18,00,00,00,70,00,26,03,
118865124,00000100,false,Rx,0,8,71,00,00,00,70,00,2F,3A,
118866248,00000120,false,Rx,0,8,04,00,00,00,70,00,24,5F,
118866248,00000110,false,Rx,0,8,62,00,00,00,90,00,64,59,
118867248,00000130,false,Rx,0,8,B9,FF,FF,FF,80,00,6F,42,
118867249,00000100,false,Rx,0,8,71,00,00,00,80,00,6B,3A,
118868248,00000120,false,Rx,0,8,E7,FF,FF,FF,80,00,62,3C,
118868249,00000110,false,Rx,0,8,62,00,00,00,A0,00,70,59,
118869248,00000130,false,Rx,0,8,F8,FF,FF,FF,90,00,6D,93,
118869249,00000100,false,Rx,0,8,9F,00,00,00,90,00,71,B4,
118870249,00000120,false,Rx,0,8,E7,FF,FF,FF,90,00,6F,FC,
118870249,00000110,false,Rx,0,8,4B,00,00,00,B0,00,7A,60,
118871371,00000130,false,Rx,0,8,F8,FF,FF,FF,A0,00,79,93,
118871372,00000100,false,Rx,0,8,88,00,00,00,A0,00,66,93,
118872358,00000120,false,Rx,0,8,E7,FF,FF,FF,A0,00,7B,FC,
118872358,00000110,false,Rx,0,8,4B,00,00,00,C0,00,5F,A0,
118873358,00000130,false,Rx,0,8,F8,FF,FF,FF,B0,00,74,53,
118873359,00000100,false,Rx,0,8,71,00,00,00,B0,00,7F,3A,
118873360,00000140,false,Rx,0,8,01,00,FF,FF,60,00,29,EE,
118874360,00000120,false,Rx,0,8,E7,FF,FF,FF,B0,00,76,3C,
118874361,00000110,false,Rx,0,8,62,00,00,00,D0,00,55,99,
118875484,00000130,false,Rx,0,8,D9,FF,FF,FF,C0,00,57,22,
118875484,00000100,false,Rx,0,8,71,00,00,00,C0,00,5A,FA,
118876482,00000120,false,Rx,0,8,04,00,00,00,C0,00,51,9F,
118876482,00000110,false,Rx,0,8,62,00,00,00,E0,00,41,99,
118877531,00000130,false,Rx,0,8,18,00,00,00,D0,00,5E,03,
118877532,00000100,false,Rx,0,8,5A,00,00,00,D0,00,51,21,
118877533,00000120,false,Rx,0,8,04,00,00,00,D0,00,5C,5F,
118878748,00000110,false,Rx,0,8,A7,00,00,00,F0,00,5D,0C,
118878748,00000050,false,Rx,0,6,41,5C,FF,FB,5F,FF,00,00,
118878749,00000130,false,Rx,0,8,B8,34,03,00,E3,80,E2,73,
118879749,00000100,false,Rx,0,8,5A,00,00,00,E0,00,45,21,
118879749,00000120,false,Rx,0,8,20,00,00,00,E0,00,4E,BB,
118880736,00000110,false,Rx,0,8,A7,00,00,00,00,00,19,0C,
118880737,00000130,false,Rx,0,8,D9,FF,FF,FF,F0,00,43,22,
118881872,00000100,false,Rx,0,8,5A,00,00,00,F0,00,48,E1,
118881872,00000120,false,Rx,0,8,20,00,00,00,F0,00,43,7B,
118882872,00000110,false,Rx,0,8,79,00,00,00,10,00,06,72,
118882872,00000130,false,Rx,0,8,D9,FF,FF,FF,00,00,07,22,
118883870,00000100,false,Rx,0,8,43,00,00,00,00,00,0E,E8,
118883871,00000120,false,Rx,0,8,04,00,00,00,00,00,01,9F,
118884873,00000110,false,Rx,0,8,79,00,00,00,20,00,12,72,
118884873,00000130,false,Rx,0,8,18,00,00,00,10,00,0E,03,
118886026,00000100,false,Rx,0,8,5A,00,00,00,10,00,01,21,
118886027,00000120,false,Rx,0,8,04,00,00,00,10,00,0C,5F,
118887039,00000110,false,Rx,0,8,62,00,00,00,30,00,1C,59,
118887040,00000130,false,Rx,0,8,F8,FF,FF,FF,20,00,18,53,
118888002,00000100,false,Rx,0,8,71,00,00,00,20,00,13,3A,
118888003,00000120,false,Rx,0,8,E7,FF,FF,FF,20,00,1A,3C,
118888996,00000110,false,Rx,0,8,62,00,00,00,40,00,39,99,
118888997,00000130,false,Rx,0,8,D9,FF,FF,FF,30,00,13,22,
118890151,00000100,false,Rx,0,8,88,00,00,00,30,00,0A,93,
118890152,00000120,false,Rx,0,8,E7,FF,FF,FF,30,00,17,FC,
118891151,00000110,false,Rx,0,8,34,00,00,00,50,00,38,6F,
118891151,00000130,false,Rx,0,8,18,00,00,00,40,00,32,03,
118892127,00000100,false,Rx,0,8,88,00,00,00,40,00,2F,53,
118892128,00000120,false,Rx,0,8,E7,FF,FF,FF,40,00,32,3C,
118893149,00000110,false,Rx,0,8,34,00,00,00,60,00,2C,6F,
118893150,00000130,false,Rx,0,8,F8,FF,FF,FF,50,00,3D,93,
118894278,00000100,false,Rx,0,8,71,00,00,00,50,00,36,FA,
118894278,00000140,false,Rx,0,8,01,00,FF,FF,70,00,24,2E,
118894279,00000120,false,Rx,0,8,E7,FF,FF,FF,50,00,3F,FC,
118895295,00000110,false,Rx,0,8,62,00,00,00,70,00,2D,99,
118895297,00000130,false,Rx,0,8,D9,FF,FF,FF,60,00,2F,22,
118896285,00000100,false,Rx,0,8,71,00,00,00,60,00,22,FA,
118896287,00000120,false,Rx,0,8,20,00,00,00,60,00,2F,7B,
118897305,00000110,false,Rx,0,8,62,00,00,00,80,00,69,99,
118897306,00000130,false,Rx,0,8,18,00,00,00,70,00,26,03,
118898275,00000100,false,Rx,0,8,5A,00,00,00,70,00,29,21,
118898277,00000120,false,Rx,0,8,20,00,00,00,70,00,22,BB,
118898278,00000110,false,Rx,0,8,79,00,00,00,90,00,67,B2,
118899520,00000050,false,Rx,0,6,41,5C,FF,FB,5F,FF,00,00,
118899521,00000130,false,Rx,0,8,EB,95,FF,FF,83,80,7B,A9,
118899523,00000100,false,Rx,0,8,5A,00,00,00,80,00,6D,21,
118901165,00000120,false,Rx,0,8,20,00,00,00,80,00,66,BB,
118901166,00000110,false,Rx,0,8,79,00,00,00,A0,00,73,B2,
118902146,00000130,false,Rx,0,8,95,00,00,00,90,00,71,1E,
118902148,00000100,false,Rx,0,8,5A,00,00,00,90,00,60,E1,
118903293,00000120,false,Rx,0,8,20,00,00,00,90,00,6B,7B,
118903295,00000110,false,Rx,0,8,62,00,00,00,B0,00,7D,99,
118904298,00000130,false,Rx,0,8,18,00,00,00,A0,00,7B,C3,
118904299,00000100,false,Rx,0,8,71,00,00,00,A0,00,72,FA,
118905273,00000120,false,Rx,0,8,04,00,00,00,A0,00,79,9F,
118905275,00000110,false,Rx,0,8,62,00,00,00,C0,00,58,59,
118906284,00000130,false,Rx,0,8,37,00,00,00,B0,00,71,9C,
118906285,00000100,false,Rx,0,8,71,00,00,00,B0,00,7F,3A,
118907423,00000120,false,Rx,0,8,04,00,00,00,B0,00,74,5F,
118907425,00000110,false,Rx,0,8,4B,00,00,00,D0,00,52,60,
118908421,00000130,false,Rx,0,8,D9,FF,FF,FF,C0,00,57,22,
118908423,00000100,false,Rx,0,8,71,00,00,00,C0,00,5A,FA,
118909398,00000120,false,Rx,0,8,E7,FF,FF,FF,C0,00,53,FC,
118909400,00000110,false,Rx,0,8,4B,00,00,00,E0,00,46,60,
118910395,00000130,false,Rx,0,8,F8,FF,FF,FF,D0,00,5C,53,
118910397,00000100,false,Rx,0,8,9F,00,00,00,D0,00,40,74,
118911388,00000120,false,Rx,0,8,E7,FF,FF,FF,D0,00,5E,3C,
118911389,00000110,false,Rx,0,8,4B,00,00,00,F0,00,4B,A0,
118912523,00000130,false,Rx,0,8,F8,FF,FF,FF,E0,00,48,53,
118912524,00000100,false,Rx,0,8,71,00,00,00,E0,00,43,3A,
118913519,00000120,false,Rx,0,8,04,00,00,00,E0,00,48,5F,
118913520,00000110,false,Rx,0,8,4B,00,00,00,00,00,0F,A0,
118914524,00000130,false,Rx,0,8,F8,FF,FF,FF,F0,00,45,93,
118914525,00000100,false,Rx,0,8,71,00,00,00,F0,00,4E,FA,
118914526,00000140,false,Rx,0,8,01,00,FF,FF,80,00,60,2E,
118915513,00000120,false,Rx,0,8,04,00,00,00,F0,00,45,9F,
118915514,00000110,false,Rx,0,8,62,00,00,00,10,00,05,99,
118916646,00000130,false,Rx,0,8,18,00,00,00,00,00,03,C3,
118916647,00000100,false,Rx,0,8,71,00,00,00,00,00,0A,FA,
118917657,00000120,false,Rx,0,8,04,00,00,00,00,00,01,9F,
118917658,00000110,false,Rx,0,8,62,00,00,00,20,00,11,99,
118918647,00000130,false,Rx,0,8,F8,FF,FF,FF,10,00,0C,53,
118918648,00000100,false,Rx,0,8,5A,00,00,00,10,00,01,21,
118918648,00000120,false,Rx,0,8,04,00,00,00,10,00,0C,5F,
118919920,00000110,false,Rx,0,8,79,00,00,00,30,00,1F,B2,
118919922,00000050,false,Rx,0,6,41,5C,FF,FB,5F,FF,00,00,
118919922,00000130,false,Rx,0,8,6B,BA,F5,FF,23,80,CA,77,
118920899,00000100,false,Rx,0,8,5A,00,00,00,20,00,15,21,
118920900,00000120,false,Rx,0,8,04,00,00,00,20,00,18,5F,
118921887,00000110,false,Rx,0,8,79,00,00,00,40,00,3A,72,
118921889,00000210,false,Rx,0,8,75,69,00,05,06,5F,01,03,
118921890,00000130,false,Rx,0,8,76,00,00,00,30,00,1F,4D,
118923052,00000100,false,Rx,0,8,5A,00,00,00,30,00,18,E1,
118923053,00000120,false,Rx,0,8,04,00,00,00,30,00,15,9F,
118924024,00000110,false,Rx,0,8,62,00,00,00,50,00,34,59,
118924025,00000130,false,Rx,0,8,D9,FF,FF,FF,40,00,36,E2,
118925012,00000100,false,Rx,0,8,71,00,00,00,40,00,3B,3A,
118925014,00000120,false,Rx,0,8,E7,FF,FF,FF,40,00,32,3C,
118926172,00000110,false,Rx,0,8,62,00,00,00,60,00,20,59,
118926174,00000130,false,Rx,0,8,D9,FF,FF,FF,50,00,3B,22,
118927171,00000100,false,Rx,0,8,88,00,00,00,50,00,22,93,
118927173,00000120,false,Rx,0,8,E7,FF,FF,FF,50,00,3F,FC,
118928149,00000110,false,Rx,0,8,4B,00,00,00,70,00,2A,60,
118928150,00000130,false,Rx,0,8,F8,FF,FF,FF,60,00,29,93,
118929163,00000100,false,Rx,0,8,88,00,00,00,60,00,36,93,
118929165,00000120,false,Rx,0,8,E7,FF,FF,FF,60,00,2B,FC,
118930296,00000110,false,Rx,0,8,4B,00,00,00,80,00,6E,60,
118930297,00000130,false,Rx,0,8,37,00,00,00,70,00,21,9C,
118931294,00000100,false,Rx,0,8,88,00,00,00,70,00,3B,53,
118931296,00000120,false,Rx,0,8,E7,FF,FF,FF,70,00,26,3C,
118932294,00000110,false,Rx,0,8,4B,00,00,00,90,00,63,A0,
118932296,00000130,false,Rx,0,8,18,00,00,00,80,00,62,03,
118933269,00000100,false,Rx,0,8,71,00,00,00,80,00,6B,3A,
118933270,00000120,false,Rx,0,8,E7,FF,FF,FF,80,00,62,3C,
118934267,00000110,false,Rx,0,8,4B,00,00,00,A0,00,77,A0,
118934268,00000130,false,Rx,0,8,F8,FF,FF,FF,90,00,6D,93,
118935389,00000100,false,Rx,0,8,5A,00,00,00,90,00,60,E1,
118935390,00000140,false,Rx,0,8,01,00,FF,FF,90,00,6D,EE,
118935391,00000120,false,Rx,0,8,E7,FF,FF,FF,90,00,6F,FC,
118936394,00000110,false,Rx,0,8,62,00,00,00,B0,00,7D,99,
118936395,00000130,false,Rx,0,8,D9,FF,FF,FF,A0,00,7F,22,
118937394,00000100,false,Rx,0,8,71,00,00,00,A0,00,72,FA,
118937395,00000120,false,Rx,0,8,20,00,00,00,A0,00,7F,7B,
118938388,00000110,false,Rx,0,8,62,00,00,00,C0,00,58,59,
118938390,00000130,false,Rx,0,8,F8,FF,FF,FF,B0,00,74,53,
118939387,00000100,false,Rx,0,8,43,00,00,00,B0,00,7B,28,
118939388,00000120,false,Rx,0,8,20,00,00,00,B0,00,72,BB,
118939389,00000110,false,Rx,0,8,A7,00,00,00,D0,00,44,CC,
118940641,00000050,false,Rx,0,6,41,5C,FF,FB,5F,FF,00,00,
118940643,00000130,false,Rx,0,8,4D,21,00,00,C3,80,E2,91,
118940643,00000100,false,Rx,0,8,43,00,00,00,C0,00,5E,E8,
118942296,00000120,false,Rx,0,8,20,00,00,00,C0,00,57,7B,
118942297,00000110,false,Rx,0,8,A7,00,00,00,E0,00,50,CC,
118943262,00000130,false,Rx,0,8,F8,FF,FF,FF,D0,00,5C,53,
118943264,00000100,false,Rx,0,8,5A,00,00,00,D0,00,51,21,
118944424,00000120,false,Rx,0,8,20,00,00,00,D0,00,5A,BB,
118944426,00000110,false,Rx,0,8,62,00,00,00,F0,00,4C,59,
118945398,00000130,false,Rx,0,8,B9,FF,FF,FF,E0,00,47,42,
118945399,00000100,false,Rx,0,8,71,00,00,00,E0,00,43,3A,
118946396,00000120,false,Rx,0,8,04,00,00,00,E0,00,48,5F,
118946397,00000110,false,Rx,0,8,62,00,00,00,00,00,08,59,
118947390,00000130,false,Rx,0,8,F8,FF,FF,FF,F0,00,45,93,
118947391,00000100,false,Rx,0,8,71,00,00,00,F0,00,4E,FA,
118948516,00000120,false,Rx,0,8,04,00,00,00,F0,00,45,9F,
118948518,00000110,false,Rx,0,8,4B,00,00,00,10,00,02,60,
118949521,00000130,false,Rx,0,8,D9,FF,FF,FF,00,00,07,22,
118949523,00000100,false,Rx,0,8,88,00,00,00,00,00,1E,93,
118950523,00000120,false,Rx,0,8,E7,FF,FF,FF,00,00,03,FC,
118950524,00000110,false,Rx,0,8,4B,00,00,00,20,00,16,60,
118951545,00000130,false,Rx,0,8,D9,FF,FF,FF,10,00,0A,E2,
118951547,00000100,false,Rx,0,8,88,00,00,00,10,00,13,53,
118952643,00000120,false,Rx,0,8,E7,FF,FF,FF,10,00,0E,3C,
118952644,00000110,false,Rx,0,8,62,00,00,00,30,00,1C,59,
118953639,00000130,false,Rx,0,8,F8,FF,FF,FF,20,00,18,53,
118953641,00000100,false,Rx,0,8,71,00,00,00,20,00,13,3A,
118954648,00000120,false,Rx,0,8,04,00,00,00,20,00,18,5F,
118954649,00000110,false,Rx,0,8,62,00,00,00,40,00,39,99,
118955640,00000130,false,Rx,0,8,F8,FF,FF,FF,30,00,15,93,
118955642,00000100,false,Rx,0,8,71,00,00,00,30,00,1E,FA,
118955642,00000140,false,Rx,0,8,01,00,FF,FF,A0,00,79,EE,
118956640,00000120,false,Rx,0,8,04,00,00,00,30,00,15,9F,
118956641,00000110,false,Rx,0,8,62,00,00,00,50,00,34,59,
118957795,00000130,false,Rx,0,8,D9,FF,FF,FF,40,00,36,E2,
118957796,00000100,false,Rx,0,8,5A,00,00,00,40,00,3D,21,
118958767,00000120,false,Rx,0,8,20,00,00,00,40,00,36,BB,
118958769,00000110,false,Rx,0,8,62,00,00,00,60,00,20,59,
118959772,00000130,false,Rx,0,8,18,00,00,00,50,00,3F,C3,
118959773,00000100,false,Rx,0,8,43,00,00,00,50,00,32,E8,
118959773,00000120,false,Rx,0,8,20,00,00,00,50,00,3B,7B,
118961040,00000110,false,Rx,0,8,90,00,00,00,70,00,38,8B,
118961041,00000050,false,Rx,0,6,41,5C,FF,FB,5F,FF,00,00,
118961042,00000130,false,Rx,0,8,D8,34,03,00,63,80,8A,13,
118962020,00000100,false,Rx,0,8,43,00,00,00,60,00,26,E8,
118962022,00000120,false,Rx,0,8,04,00,00,00,60,00,29,9F,
118963014,00000110,false,Rx,0,8,90,00,00,00,80,00,7C,8B,
118963016,00000130,false,Rx,0,8,B9,FF,FF,FF,70,00,2B,42,
118964171,00000100,false,Rx,0,8,5A,00,00,00,70,00,29,21,
118964172,00000120,false,Rx,0,8,04,00,00,00,70,00,24,5F,
118965144,00000110,false,Rx,0,8,62,00,00,00,90,00,64,59,
118965145,00000170,false,Rx,0,8,00,00,00,01,00,00,00,68,
118965146,00000130,false,Rx,0,8,F8,FF,FF,FF,80,00,60,53,
118966139,00000100,false,Rx,0,8,71,00,00,00,80,00,6B,3A,
118966140,00000120,false,Rx,0,8,04,00,00,00,80,00,60,5F,
118967296,00000110,false,Rx,0,8,62,00,00,00,A0,00,70,59,
118967297,00000130,false,Rx,0,8,F8,FF,FF,FF,90,00,6D,93,
118968269,00000100,false,Rx,0,8,88,00,00,00,90,00,72,93,
118968271,00000120,false,Rx,0,8,04,00,00,00,90,00,6D,9F,
118969265,00000110,false,Rx,0,8,4B,00,00,00,B0,00,7A,60,
118969266,00000130,false,Rx,0,8,18,00,00,00,A0,00,7B,C3,
118970266,00000100,false,Rx,0,8,88,00,00,00,A0,00,66,93,
118970268,00000120,false,Rx,0,8,CB,FF,FF,FF,A0,00,7C,50,
118971391,00000110,false,Rx,0,8,4B,00,00,00,C0,00,5F,A0,
118971392,00000130,false,Rx,0,8,F8,FF,FF,FF,B0,00,74,53,
118972396,00000100,false,Rx,0,8,88,00,00,00,B0,00,6B,53,
118972397,00000120,false,Rx,0,8,CB,FF,FF,FF,B0,00,71,90,
118973394,00000110,false,Rx,0,8,4B,00,00,00,D0,00,52,60,
118973396,00000130,false,Rx,0,8,F8,FF,FF,FF,C0,00,51,93,
118974409,00000100,false,Rx,0,8,71,00,00,00,C0,00,5A,FA,
118974410,00000120,false,Rx,0,8,04,00,00,00,C0,00,51,9F,
118975392,00000110,false,Rx,0,8,4B,00,00,00,E0,00,46,60,
118975394,00000130,false,Rx,0,8,F8,FF,FF,FF,D0,00,5C,53,
118976545,00000100,false,Rx,0,8,5A,00,00,00,D0,00,51,21,
118976547,00000140,false,Rx,0,8,01,00,FF,FF,B0,00,74,2E,
118976547,00000120,false,Rx,0,8,04,00,00,00,D0,00,5C,5F,
118977521,00000110,false,Rx,0,8,62,00,00,00,F0,00,4C,59,
118977522,00000130,false,Rx,0,8,B9,FF,FF,FF,E0,00,47,42,
118977523,00000100,false,Rx,0,8,71,00,00,00,E0,00,43,3A,
118979262,00000120,false,Rx,0,8,20,00,00,00,E0,00,4E,BB,
118979263,00000110,false,Rx,0,8,62,00,00,00,00,00,08,59,
118980422,00000130,false,Rx,0,8,18,00,00,00,F0,00,47,C3,
118980423,00000100,false,Rx,0,8,43,00,00,00,F0,00,4A,E8,
118980424,00000120,false,Rx,0,8,20,00,00,00,F0,00,43,7B,
118981512,00000110,false,Rx,0,8,62,00,00,00,10,00,05,99,
118981514,00000050,false,Rx,0,6,41,5C,FF,FB,5F,FF,00,00,
118981514,00000130,false,Rx,0,8,CC,95,FF,FF,03,80,1C,BE,
118982646,00000100,false,Rx,0,8,5A,00,00,00,00,00,0C,E1,
118982647,00000120,false,Rx,0,8,04,00,00,00,00,00,01,9F,
118983644,00000110,false,Rx,0,8,62,00,00,00,20,00,11,99,
118983645,00000130,false,Rx,0,8,76,00,00,00,10,00,06,8D,
118984795,00000100,false,Rx,0,8,5A,00,00,00,10,00,01,21,
118984796,00000120,false,Rx,0,8,04,00,00,00,10,00,0C,5F,
118985796,00000110,false,Rx,0,8,62,00,00,00,30,00,1C,59,
118985797,00000130,false,Rx,0,8,18,00,00,00,20,00,1A,03,
118986770,00000100,false,Rx,0,8,71,00,00,00,20,00,13,3A,
118986772,00000120,false,Rx,0,8,E7,FF,FF,FF,20,00,1A,3C,
118987766,00000110,false,Rx,0,8,62,00,00,00,40,00,39,99,
118987767,00000130,false,Rx,0,8,37,00,00,00,30,00,10,5C,
118988765,00000100,false,Rx,0,8,71,00,00,00,30,00,1E,FA,
118988766,00000120,false,Rx,0,8,E7,FF,FF,FF,30,00,17,FC,
118989898,00000110,false,Rx,0,8,4B,00,00,00,50,00,33,A0,
118989900,00000130,false,Rx,0,8,F8,FF,FF,FF,40,00,30,53,
118990928,00000100,false,Rx,0,8,88,00,00,00,40,00,2F,53,
118990929,00000120,false,Rx,0,8,E7,FF,FF,FF,40,00,32,3C,
118991911,00000110,false,Rx,0,8,4B,00,00,00,60,00,27,A0,
118991912,00000130,false,Rx,0,8,18,00,00,00,50,00,3F,C3,
118992899,00000100,false,Rx,0,8,88,00,00,00,50,00,22,93,
118992901,00000120,false,Rx,0,8,E7,FF,FF,FF,50,00,3F,FC,
118994048,00000110,false,Rx,0,8,62,00,00,00,70,00,2D,99,
118994049,00000130,false,Rx,0,8,F8,FF,FF,FF,60,00,29,93,
118995045,00000100,false,Rx,0,8,71,00,00,00,60,00,22,FA,
118995046,00000120,false,Rx,0,8,20,00,00,00,60,00,2F,7B,
118996024,00000110,false,Rx,0,8,62,00,00,00,80,00,69,99,
118996025,00000130,false,Rx,0,8,F8,FF,FF,FF,70,00,24,53,
118997021,00000100,false,Rx,0,8,71,00,00,00,70,00,2F,3A,
118997023,00000140,false,Rx,0,8,01,00,FF,FF,C0,00,51,EE,
118997023,00000120,false,Rx,0,8,20,00,00,00,70,00,22,BB,
118998013,00000110,false,Rx,0,8,79,00,00,00,90,00,67,B2,
118998015,00000130,false,Rx,0,8,F8,FF,FF,FF,80,00,60,53,
118999169,00000100,false,Rx,0,8,5A,00,00,00,80,00,6D,21,
118999171,00000120,false,Rx,0,8,04,00,00,00,80,00,60,5F,
119000146,00000110,false,Rx,0,8,79,00,00,00,A0,00,73,B2,
119000147,00000130,false,Rx,0,8,F8,FF,FF,FF,90,00,6D,93,
119000147,00000100,false,Rx,0,8,5A,00,00,00,90,00,60,E1,
119001893,00000120,false,Rx,0,8,04,00,00,00,90,00,6D,9F,
119001894,00000110,false,Rx,0,8,62,00,00,00,B0,00,7D,99,
119001895,00000050,false,Rx,0,6,41,5C,FF,FB,5F,FF,00,00,
119002916,00000130,false,Rx,0,8,0D,BA,F5,FF,A3,80,A2,71,
119002918,00000100,false,Rx,0,8,5A,00,00,00,A0,00,74,E1,
119004043,00000120,false,Rx,0,8,20,00,00,00,A0,00,7F,7B,
119004044,00000110,false,Rx,0,8,62,00,00,00,C0,00,58,59,
119005020,00000130,false,Rx,0,8,95,00,00,00,B0,00,68,DE,
119005022,00000100,false,Rx,0,8,71,00,00,00,B0,00,7F,3A,
119006021,00000120,false,Rx,0,8,20,00,00,00,B0,00,72,BB,
119006022,00000110,false,Rx,0,8,62,00,00,00,D0,00,55,99,
119007147,00000130,false,Rx,0,8,18,00,00,00,C0,00,53,C3,
119007148,00000100,false,Rx,0,8,71,00,00,00,C0,00,5A,FA,
119008171,00000120,false,Rx,0,8,E7,FF,FF,FF,C0,00,53,FC,
119008172,00000110,false,Rx,0,8,62,00,00,00,E0,00,41,99,
119009176,00000130,false,Rx,0,8,D9,FF,FF,FF,D0,00,5A,E2,
119009178,00000100,false,Rx,0,8,88,00,00,00,D0,00,43,53,
119010146,00000120,false,Rx,0,8,E7,FF,FF,FF,D0,00,5E,3C,
119010147,00000110,false,Rx,0,8,4B,00,00,00,F0,00,4B,A0,
119011136,00000130,false,Rx,0,8,18,00,00,00,E0,00,4A,03,
119011137,00000100,false,Rx,0,8,88,00,00,00,E0,00,57,53,
119012295,00000120,false,Rx,0,8,04,00,00,00,E0,00,48,5F,
119012296,00000110,false,Rx,0,8,4B,00,00,00,00,00,0F,A0,
119013291,00000130,false,Rx,0,8,D9,FF,FF,FF,F0,00,43,22,
119013292,00000100,false,Rx,0,8,71,00,00,00,F0,00,4E,FA,
119014273,00000120,false,Rx,0,8,04,00,00,00,F0,00,45,9F,
119014274,00000110,false,Rx,0,8,62,00,00,00,10,00,05,99,
119015261,00000130,false,Rx,0,8,F8,FF,FF,FF,00,00,01,93,
119015262,00000100,false,Rx,0,8,71,00,00,00,00,00,0A,FA,
119016422,00000120,false,Rx,0,8,04,00,00,00,00,00,01,9F,
119016424,00000110,false,Rx,0,8,62,00,00,00,20,00,11,99,
119017420,00000130,false,Rx,0,8,18,00,00,00,10,00,0E,03,
119017421,00000100,false,Rx,0,8,5A,00,00,00,10,00,01,21,
119017422,00000140,false,Rx,0,8,01,00,FF,FF,D0,00,5C,2E,
119018401,00000120,false,Rx,0,8,04,00,00,00,10,00,0C,5F,
119018403,00000110,false,Rx,0,8,62,00,00,00,30,00,1C,59,
119019391,00000130,false,Rx,0,8,F8,FF,FF,FF,20,00,18,53,
119019392,00000100,false,Rx,0,8,5A,00,00,00,20,00,15,21,
119020513,00000120,false,Rx,0,8,20,00,00,00,20,00,1E,BB,
119020514,00000110,false,Rx,0,8,62,00,00,00,40,00,39,99,
119021519,00000130,false,Rx,0,8,37,00,00,00,30,00,10,5C,
119021521,00000100,false,Rx,0,8,5A,00,00,00,30,00,18,E1,
119021521,00000120,false,Rx,0,8,20,00,00,00,30,00,13,7B,
119022644,00000110,false,Rx,0,8,90,00,00,00,50,00,21,4B,
119022646,00000050,false,Rx,0,6,41,5C,FF,FB,5F,FF,00,00,
119022646,00000130,false,Rx,0,8,4D,21,00,00,43,80,83,51,
119023763,00000100,false,Rx,0,8,5A,00,00,00,40,00,3D,21,
119023765,00000120,false,Rx,0,8,04,00,00,00,40,00,30,5F,
119024770,00000110,false,Rx,0,8,90,00,00,00,60,00,35,4B,
119024771,00000130,false,Rx,0,8,F8,FF,FF,FF,50,00,3D,93,
119025762,00000100,false,Rx,0,8,5A,00,00,00,50,00,30,E1,
119025763,00000120,false,Rx,0,8,04,00,00,00,50,00,3D,9F,
119026898,00000110,false,Rx,0,8,62,00,00,00,70,00,2D,99,
119026899,00000130,false,Rx,0,8,F8,FF,FF,FF,60,00,29,93,
119027896,00000100,false,Rx,0,8,88,00,00,00,60,00,36,93,
119027898,00000120,false,Rx,0,8,E7,FF,FF,FF,60,00,2B,FC,
119028890,00000110,false,Rx,0,8,62,00,00,00,80,00,69,99,
119028891,00000130,false,Rx,0,8,18,00,00,00,70,00,26,03,
119030045,00000100,false,Rx,0,8,88,00,00,00,70,00,3B,53,
119030046,00000120,false,Rx,0,8,E7,FF,FF,FF,70,00,26,3C,
119031044,00000110,false,Rx,0,8,4B,00,00,00,90,00,63,A0,
119031046,00000130,false,Rx,0,8,18,00,00,00,80,00,62,03,
119032046,00000100,false,Rx,0,8,88,00,00,00,80,00,7F,53,
119032048,00000120,false,Rx,0,8,04,00,00,00,80,00,60,5F,
119033014,00000110,false,Rx,0,8,4B,00,00,00,A0,00,77,A0,
119033016,00000130,false,Rx,0,8,F8,FF,FF,FF,90,00,6D,93,
119033016,00000100,false,Rx,0,8,88,00,00,00,90,00,72,93,
119034888,00000120,false,Rx,0,8,04,00,00,00,90,00,6D,9F,
119034889,00000110,false,Rx,0,8,62,00,00,00,B0,00,7D,99,
119035889,00000130,false,Rx,0,8,B9,FF,FF,FF,A0,00,76,82,
119035890,00000100,false,Rx,0,8,71,00,00,00,A0,00,72,FA,
119036889,00000120,false,Rx,0,8,04,00,00,00,A0,00,79,9F,
119036891,00000110,false,Rx,0,8,62,00,00,00,C0,00,58,59,
119037890,00000130,false,Rx,0,8,F8,FF,FF,FF,B0,00,74,53,
119037891,00000100,false,Rx,0,8,71,00,00,00,B0,00,7F,3A,
119037892,00000140,false,Rx,0,8,01,00,FF,FF,E0,00,48,2E,
119039014,00000120,false,Rx,0,8,04,00,00,00,B0,00,74,5F,
119039015,00000110,false,Rx,0,8,79,00,00,00,D0,00,56,72,
119040014,00000130,false,Rx,0,8,18,00,00,00,C0,00,53,C3,
119040015,00000100,false,Rx,0,8,5A,00,00,00,C0,00,5C,E1,
119041015,00000120,false,Rx,0,8,20,00,00,00,C0,00,57,7B,
119041017,00000110,false,Rx,0,8,79,00,00,00,E0,00,42,72,
119042015,00000130,false,Rx,0,8,D9,FF,FF,FF,D0,00,5A,E2,
119042016,00000100,false,Rx,0,8,43,00,00,00,D0,00,53,28,
119042016,00000120,false,Rx,0,8,20,00,00,00,D0,00,5A,BB,
119043266,00000110,false,Rx,0,8,90,00,00,00,F0,00,59,4B,
119043267,00000050,false,Rx,0,6,41,5C,FF,FB,5F,FF,00,00,
119043267,00000130,false,Rx,0,8,B8,34,03,00,E3,80,E2,73,
119044264,00000100,false,Rx,0,8,5A,00,00,00,E0,00,45,21,
119044266,00000120,false,Rx,0,8,04,00,00,00,E0,00,48,5F,
119045388,00000110,false,Rx,0,8,90,00,00,00,00,00,1D,4B,
119045390,00000130,false,Rx,0,8,B9,FF,FF,FF,F0,00,4A,82,
119046389,00000100,false,Rx,0,8,71,00,00,00,F0,00,4E,FA,
119046390,00000120,false,Rx,0,8,04,00,00,00,F0,00,45,9F,
119047387,00000110,false,Rx,0,8,62,00,00,00,10,00,05,99,
119047389,00000130,false,Rx,0,8,D9,FF,FF,FF,00,00,07,22,
119048514,00000100,false,Rx,0,8,88,00,00,00,00,00,1E,93,
119048515,00000120,false,Rx,0,8,E7,FF,FF,FF,00,00,03,FC,
119049512,00000110,false,Rx,0,8,62,00,00,00,20,00,11,99,
119049514,00000130,false,Rx,0,8,F8,FF,FF,FF,10,00,0C,53,
119050513,00000100,false,Rx,0,8,88,00,00,00,10,00,13,53,
119050514,00000120,false,Rx,0,8,E7,FF,FF,FF,10,00,0E,3C,
119051510,00000110,false,Rx,0,8,4B,00,00,00,30,00,1B,A0,
119051511,00000130,false,Rx,0,8,F8,FF,FF,FF,20,00,18,53,
119052513,00000100,false,Rx,0,8,88,00,00,00,20,00,07,53,
119052515,00000120,false,Rx,0,8,04,00,00,00,20,00,18,5F,
119053641,00000110,false,Rx,0,8,4B,00,00,00,40,00,3E,60,
119053642,00000130,false,Rx,0,8,18,00,00,00,30,00,17,C3,
119054641,00000100,false,Rx,0,8,71,00,00,00,30,00,1E,FA,
119054642,00000120,false,Rx,0,8,04,00,00,00,30,00,15,9F,
119055638,00000110,false,Rx,0,8,62,00,00,00,50,00,34,59,
119055640,00000130,false,Rx,0,8,F8,FF,FF,FF,40,00,30,53,
119056639,00000100,false,Rx,0,8,5A,00,00,00,40,00,3D,21,
119056641,00000120,false,Rx,0,8,04,00,00,00,40,00,30,5F,
119057761,00000110,false,Rx,0,8,62,00,00,00,60,00,20,59,
119057762,00000130,false,Rx,0,8,D9,FF,FF,FF,50,00,3B,22,
119058764,00000100,false,Rx,0,8,5A,00,00,00,50,00,30,E1,
119058766,00000140,false,Rx,0,8,01,00,FF,FF,F0,00,45,EE,
119058766,00000120,false,Rx,0,8,04,00,00,00,50,00,3D,9F,
119059764,00000110,false,Rx,0,8,79,00,00,00,70,00,2E,72,
119059765,00000130,false,Rx,0,8,F8,FF,FF,FF,60,00,29,93,
119060764,00000100,false,Rx,0,8,5A,00,00,00,60,00,24,E1,
119060766,00000120,false,Rx,0,8,20,00,00,00,60,00,2F,7B,
119061887,00000110,false,Rx,0,8,79,00,00,00,80,00,6A,72,
119061889,00000130,false,Rx,0,8,D9,FF,FF,FF,70,00,22,E2,
119062887,00000100,false,Rx,0,8,71,00,00,00,70,00,2F,3A,
119062889,00000120,false,Rx,0,8,20,00,00,00,70,00,22,BB,
119062889,00000110,false,Rx,0,8,62,00,00,00,90,00,64,59,
119064011,00000050,false,Rx,0,6,41,5C,FF,FB,5F,FF,00,00,
119064013,00000130,false,Rx,0,8,EB,95,FF,FF,83,80,7B,A9,
119064013,00000100,false,Rx,0,8,5A,00,00,00,80,00,6D,21,
119065638,00000120,false,Rx,0,8,04,00,00,00,80,00,60,5F,
119065640,00000110,false,Rx,0,8,62,00,00,00,A0,00,70,59,
119066764,00000130,false,Rx,0,8,95,00,00,00,90,00,71,1E,
119066766,00000100,false,Rx,0,8,71,00,00,00,90,00,66,FA,
119067761,00000120,false,Rx,0,8,04,00,00,00,90,00,6D,9F,
119067763,00000110,false,Rx,0,8,4B,00,00,00,B0,00,7A,60,
119067763,00000170,false,Rx,0,8,00,00,00,52,50,41,05,D4,
119068762,00000130,false,Rx,0,8,B9,FF,FF,FF,A0,00,76,82,
119068763,00000100,false,Rx,0,8,88,00,00,00,A0,00,66,93,
119069762,00000120,false,Rx,0,8,CB,FF,FF,FF,A0,00,7C,50,
119069764,00000110,false,Rx,0,8,4B,00,00,00,C0,00,5F,A0,
119070888,00000130,false,Rx,0,8,F8,FF,FF,FF,B0,00,74,53,
119070890,00000100,false,Rx,0,8,9F,00,00,00,B0,00,68,74,
119071886,00000120,false,Rx,0,8,CB,FF,FF,FF,B0,00,71,90,
119071888,00000110,false,Rx,0,8,4B,00,00,00,D0,00,52,60,
119072887,00000130,false,Rx,0,8,F8,FF,FF,FF,C0,00,51,93,
119072888,00000100,false,Rx,0,8,88,00,00,00,C0,00,4E,93,
119073889,00000120,false,Rx,0,8,E7,FF,FF,FF,C0,00,53,FC,
119073891,00000110,false,Rx,0,8,4B,00,00,00,E0,00,46,60,
119074888,00000130,false,Rx,0,8,F8,FF,FF,FF,D0,00,5C,53,
119074889,00000100,false,Rx,0,8,71,00,00,00,D0,00,57,3A,
119076012,00000120,false,Rx,0,8,E7,FF,FF,FF,D0,00,5E,3C,
119076014,00000110,false,Rx,0,8,62,00,00,00,F0,00,4C,59,
119077010,00000130,false,Rx,0,8,F8,FF,FF,FF,E0,00,48,53,
119077011,00000100,false,Rx,0,8,71,00,00,00,E0,00,43,3A,
119078012,00000120,false,Rx,0,8,20,00,00,00,E0,00,4E,BB,
119078013,00000110,false,Rx,0,8,62,00,00,00,00,00,08,59,
119079013,00000130,false,Rx,0,8,F8,FF,FF,FF,F0,00,45,93,
119079014,00000100,false,Rx,0,8,5A,00,00,00,F0,00,48,E1,
119079015,00000140,false,Rx,0,8,01,00,FF,FF,00,00,01,EE,
119080109,00000120,false,Rx,0,8,20,00,00,00,F0,00,43,7B,
119080110,00000110,false,Rx,0,8,79,00,00,00,10,00,06,72,
119081110,00000130,false,Rx,0,8,F8,FF,FF,FF,00,00,01,93,
119081111,00000100,false,Rx,0,8,43,00,00,00,00,00,0E,E8,
119082107,00000120,false,Rx,0,8,3D,00,00,00,00,00,04,F6,
119082108,00000110,false,Rx,0,8,79,00,00,00,20,00,12,72,
119083109,00000130,false,Rx,0,8,D9,FF,FF,FF,10,00,0A,E2,
119083110,00000100,false,Rx,0,8,71,00,00,00,10,00,07,3A,
119083110,00000120,false,Rx,0,8,3D,00,00,00,10,00,09,36,
119084359,00000110,false,Rx,0,8,79,00,00,00,30,00,1F,B2,
119084360,00000050,false,Rx,0,6,41,5C,FF,FB,5F,FF,00,00,
119084361,00000130,false,Rx,0,8,0D,BA,F5,FF,23,80,C3,B1,
119085511,00000100,false,Rx,0,8,71,00,00,00,20,00,13,3A,
119085513,00000120,false,Rx,0,8,E7,FF,FF,FF,20,00,1A,3C,
119086511,00000110,false,Rx,0,8,79,00,00,00,40,00,3A,72,
119086513,00000210,false,Rx,0,8,75,69,00,05,06,5F,01,03,
119086513,00000130,false,Rx,0,8,76,00,00,00,30,00,1F,4D,
119087510,00000100,false,Rx,0,8,88,00,00,00,30,00,0A,93,
119087511,00000120,false,Rx,0,8,E7,FF,FF,FF,30,00,17,FC,
119088510,00000110,false,Rx,0,8,4B,00,00,00,50,00,33,A0,
119088511,00000130,false,Rx,0,8,D9,FF,FF,FF,40,00,36,E2,
119089616,00000100,false,Rx,0,8,88,00,00,00,40,00,2F,53,
119089617,00000120,false,Rx,0,8,CB,FF,FF,FF,40,00,35,90,
119090624,00000110,false,Rx,0,8,4B,00,00,00,60,00,27,A0,
119090625,00000130,false,Rx,0,8,18,00,00,00,50,00,3F,C3,
119091636,00000100,false,Rx,0,8,88,00,00,00,50,00,22,93,
119091637,00000120,false,Rx,0,8,CB,FF,FF,FF,50,00,38,50,
119092620,00000110,false,Rx,0,8,4B,00,00,00,70,00,2A,60,
119092621,00000130,false,Rx,0,8,37,00,00,00,60,00,2C,5C,
119093759,00000100,false,Rx,0,8,88,00,00,00,60,00,36,93,
119093760,00000120,false,Rx,0,8,04,00,00,00,60,00,29,9F,
119094758,00000110,false,Rx,0,8,4B,00,00,00,80,00,6E,60,
119094759,00000130,false,Rx,0,8,D9,FF,FF,FF,70,00,22,E2,
119095760,00000100,false,Rx,0,8,71,00,00,00,70,00,2F,3A,
119095761,00000120,false,Rx,0,8,04,00,00,00,70,00,24,5F,
119096761,00000110,false,Rx,0,8,79,00,00,00,90,00,67,B2,
119096762,00000130,false,Rx,0,8,18,00,00,00,80,00,62,03,
119097886,00000100,false,Rx,0,8,5A,00,00,00,80,00,6D,21,
119097887,00000120,false,Rx,0,8,20,00,00,00,80,00,66,BB,
119098883,00000110,false,Rx,0,8,79,00,00,00,A0,00,73,B2,
119098884,00000130,false,Rx,0,8,F8,FF,FF,FF,90,00,6D,93,
119099884,00000100,false,Rx,0,8,5A,00,00,00,90,00,60,E1,
119099886,00000140,false,Rx,0,8,01,00,FF,FF,10,00,0C,2E,
119099886,00000120,false,Rx,0,8,20,00,00,00,90,00,6B,7B,
119100884,00000110,false,Rx,0,8,79,00,00,00,B0,00,7E,72,
119100885,00000130,false,Rx,0,8,18,00,00,00,A0,00,7B,C3,
119101884,00000100,false,Rx,0,8,5A,00,00,00,A0,00,74,E1,
119101886,00000120,false,Rx,0,8,04,00,00,00,A0,00,79,9F,
119103009,00000110,false,Rx,0,8,79,00,00,00,C0,00,5B,B2,
119103010,00000130,false,Rx,0,8,F8,FF,FF,FF,B0,00,74,53,
119104009,00000100,false,Rx,0,8,5A,00,00,00,B0,00,79,21,
119104011,00000120,false,Rx,0,8,04,00,00,00,B0,00,74,5F,
119104011,00000110,false,Rx,0,8,90,00,00,00,D0,00,40,8B,
119105134,00000050,false,Rx,0,6,41,5C,FF,FB,5F,FF,00,00,
119105135,00000130,false,Rx,0,8,6C,21,00,00,C3,80,E4,20,
119105136,00000100,false,Rx,0,8,71,00,00,00,C0,00,5A,FA,
119106758,00000120,false,Rx,0,8,E7,FF,FF,FF,C0,00,53,FC,
119106760,00000110,false,Rx,0,8,90,00,00,00,E0,00,54,8B,
119107885,00000130,false,Rx,0,8,D9,FF,FF,FF,D0,00,5A,E2,
119107886,00000100,false,Rx,0,8,88,00,00,00,D0,00,43,53,
119108884,00000120,false,Rx,0,8,E7,FF,FF,FF,D0,00,5E,3C,
119108885,00000110,false,Rx,0,8,4B,00,00,00,F0,00,4B,A0,
119109883,00000130,false,Rx,0,8,D9,FF,FF,FF,E0,00,4E,E2,
119109884,00000100,false,Rx,0,8,88,00,00,00,E0,00,57,53,
119111007,00000120,false,Rx,0,8,E7,FF,FF,FF,E0,00,4A,3C,
119111008,00000110,false,Rx,0,8,4B,00,00,00,00,00,0F,A0,
119112007,00000130,false,Rx,0,8,18,00,00,00,F0,00,47,C3,
119112009,00000100,false,Rx,0,8,88,00,00,00,F0,00,5A,93,
119113007,00000120,false,Rx,0,8,E7,FF,FF,FF,F0,00,47,FC,
119113008,00000110,false,Rx,0,8,4B,00,00,00,10,00,02,60,
119114007,00000130,false,Rx,0,8,F8,FF,FF,FF,00,00,01,93,
119114008,00000100,false,Rx,0,8,71,00,00,00,00,00,0A,FA,
119115007,00000120,false,Rx,0,8,04,00,00,00,00,00,01,9F,
119115008,00000110,false,Rx,0,8,4B,00,00,00,20,00,16,60,
119116131,00000130,false,Rx,0,8,18,00,00,00,10,00,0E,03,
119116132,00000100,false,Rx,0,8,71,00,00,00,10,00,07,3A,
119117131,00000120,false,Rx,0,8,04,00,00,00,10,00,0C,5F,
119117132,00000110,false,Rx,0,8,62,00,00,00,30,00,1C,59,
119118131,00000130,false,Rx,0,8,F8,FF,FF,FF,20,00,18,53,
119118132,00000100,false,Rx,0,8,5A,00,00,00,20,00,15,21,
119119129,00000120,false,Rx,0,8,04,00,00,00,20,00,18,5F,
119119130,00000110,false,Rx,0,8,62,00,00,00,40,00,39,99,
119120109,00000130,false,Rx,0,8,B9,FF,FF,FF,30,00,1A,82,
119120110,00000100,false,Rx,0,8,43,00,00,00,30,00,1A,E8,
119120110,00000140,false,Rx,0,8,01,00,FF,FF,20,00,18,2E,
119121233,00000120,false,Rx,0,8,04,00,00,00,30,00,15,9F,
119121234,00000110,false,Rx,0,8,79,00,00,00,50,00,37,B2,
119122231,00000130,false,Rx,0,8,D9,FF,FF,FF,40,00,36,E2,
119122232,00000100,false,Rx,0,8,5A,00,00,00,40,00,3D,21,
119123231,00000120,false,Rx,0,8,04,00,00,00,40,00,30,5F,
119123232,00000110,false,Rx,0,8,79,00,00,00,60,00,23,B2,
119124231,00000130,false,Rx,0,8,F8,FF,FF,FF,50,00,3D,93,
119124232,00000100,false,Rx,0,8,5A,00,00,00,50,00,30,E1,
119124232,00000120,false,Rx,0,8,04,00,00,00,50,00,3D,9F,
119125500,00000110,false,Rx,0,8,90,00,00,00,70,00,38,8B,
119125501,00000050,false,Rx,0,6,41,5C,FF,FB,5F,FF,00,00,
119125501,00000130,false,Rx,0,8,99,34,03,00,63,80,85,02,
119126625,00000100,false,Rx,0,8,71,00,00,00,60,00,22,FA,
119126627,00000120,false,Rx,0,8,E7,FF,FF,FF,60,00,2B,FC,
119127623,00000110,false,Rx,0,8,90,00,00,00,80,00,7C,8B,
119127625,00000130,false,Rx,0,8,F8,FF,FF,FF,70,00,24,53,
119128620,00000100,false,Rx,0,8,88,00,00,00,70,00,3B,53,
119128621,00000120,false,Rx,0,8,E7,FF,FF,FF,70,00,26,3C,
119129787,00000110,false,Rx,0,8,4B,00,00,00,90,00,63,A0,
119129788,00000130,false,Rx,0,8,F8,FF,FF,FF,80,00,60,53,
119130763,00000100,false,Rx,0,8,9F,00,00,00,80,00,7C,74,
119130764,00000120,false,Rx,0,8,CB,FF,FF,FF,80,00,65,90,
119131763,00000110,false,Rx,0,8,4B,00,00,00,A0,00,77,A0,
119131764,00000130,false,Rx,0,8,D9,FF,FF,FF,90,00,6B,22,
119132765,00000100,false,Rx,0,8,71,00,00,00,90,00,66,FA,
119132766,00000120,false,Rx,0,8,CB,FF,FF,FF,90,00,68,50,
119133768,00000110,false,Rx,0,8,4B,00,00,00,B0,00,7A,60,
119133769,00000130,false,Rx,0,8,18,00,00,00,A0,00,7B,C3,
119134904,00000100,false,Rx,0,8,71,00,00,00,A0,00,72,FA,
119134905,00000120,false,Rx,0,8,04,00,00,00,A0,00,79,9F,
119135881,00000110,false,Rx,0,8,4B,00,00,00,C0,00,5F,A0,
119135882,00000130,false,Rx,0,8,D9,FF,FF,FF,B0,00,72,E2,
119136878,00000100,false,Rx,0,8,5A,00,00,00,B0,00,79,21,
119136879,00000120,false,Rx,0,8,04,00,00,00,B0,00,74,5F,
119137878,00000110,false,Rx,0,8,79,00,00,00,D0,00,56,72,
119137879,00000130,false,Rx,0,8,F8,FF,FF,FF,C0,00,51,93,
119138998,00000100,false,Rx,0,8,5A,00,00,00,C0,00,5C,E1,
119138999,00000120,false,Rx,0,8,20,00,00,00,C0,00,57,7B,
119140022,00000110,false,Rx,0,8,79,00,00,00,E0,00,42,72,
119140023,00000130,false,Rx,0,8,D9,FF,FF,FF,D0,00,5A,E2,
119141024,00000100,false,Rx,0,8,5A,00,00,00,D0,00,51,21,
119141025,00000140,false,Rx,0,8,01,00,FF,FF,30,00,15,EE,
119141026,00000120,false,Rx,0,8,20,00,00,00,D0,00,5A,BB,
119142004,00000110,false,Rx,0,8,79,00,00,00,F0,00,4F,B2,
119142005,00000130,false,Rx,0,8,F8,FF,FF,FF,E0,00,48,53,
119142993,00000100,false,Rx,0,8,5A,00,00,00,E0,00,45,21,
119142994,00000120,false,Rx,0,8,04,00,00,00,E0,00,48,5F,
119144148,00000110,false,Rx,0,8,79,00,00,00,00,00,0B,B2,
119144148,00000130,false,Rx,0,8,F8,FF,FF,FF,F0,00,45,93,
119145148,00000100,false,Rx,0,8,5A,00,00,00,F0,00,48,E1,
119145149,00000120,false,Rx,0,8,04,00,00,00,F0,00,45,9F,
119145150,00000110,false,Rx,0,8,62,00,00,00,10,00,05,99,
119146242,00000050,false,Rx,0,6,41,5C,FF,FB,5F,FF,00,00,
119146242,00000130,false,Rx,0,8,CC,95,FF,FF,03,80,1C,BE,
119146243,00000100,false,Rx,0,8,71,00,00,00,00,00,0A,FA,
119147878,00000120,false,Rx,0,8,E7,FF,FF,FF,00,00,03,FC,
119147879,00000110,false,Rx,0,8,62,00,00,00,20,00,11,99,
119149024,00000130,false,Rx,0,8,76,00,00,00,10,00,06,8D,
119149025,00000100,false,Rx,0,8,88,00,00,00,10,00,13,53,
119150017,00000120,false,Rx,0,8,E7,FF,FF,FF,10,00,0E,3C,
119150018,00000110,false,Rx,0,8,34,00,00,00,30,00,10,6F,
119150995,00000130,false,Rx,0,8,18,00,00,00,20,00,1A,03,
119150996,00000100,false,Rx,0,8,88,00,00,00,20,00,07,53,
119152120,00000120,false,Rx,0,8,04,00,00,00,20,00,18,5F,
119152121,00000110,false,Rx,0,8,34,00,00,00,40,00,35,AF,
119153129,00000130,false,Rx,0,8,F8,FF,FF,FF,30,00,15,93,
119153130,00000100,false,Rx,0,8,71,00,00,00,30,00,1E,FA,
119154153,00000120,false,Rx,0,8,04,00,00,00,30,00,15,9F,
119154154,00000110,false,Rx,0,8,62,00,00,00,50,00,34,59,
119155131,00000130,false,Rx,0,8,F8,FF,FF,FF,40,00,30,53,
119155132,00000100,false,Rx,0,8,71,00,00,00,40,00,3B,3A,
119156123,00000120,false,Rx,0,8,04,00,00,00,40,00,30,5F,
119156124,00000110,false,Rx,0,8,62,00,00,00,60,00,20,59,
119157273,00000130,false,Rx,0,8,18,00,00,00,50,00,3F,C3,
119157274,00000100,false,Rx,0,8,5A,00,00,00,50,00,30,E1,
119158273,00000120,false,Rx,0,8,04,00,00,00,50,00,3D,9F,
119158274,00000110,false,Rx,0,8,79,00,00,00,70,00,2E,72,
119159253,00000130,false,Rx,0,8,18,00,00,00,60,00,2B,C3,
119159254,00000100,false,Rx,0,8,43,00,00,00,60,00,26,E8,
119160266,00000120,false,Rx,0,8,20,00,00,00,60,00,2F,7B,
119160267,00000110,false,Rx,0,8,79,00,00,00,80,00,6A,72,
119161404,00000130,false,Rx,0,8,B9,FF,FF,FF,70,00,2B,42,
119161405,00000100,false,Rx,0,8,43,00,00,00,70,00,2B,28,
119161405,00000140,false,Rx,0,8,01,00,FF,FF,40,00,30,2E,
119162398,00000120,false,Rx,0,8,20,00,00,00,70,00,22,BB,
119162399,00000110,false,Rx,0,8,79,00,00,00,90,00,67,B2,
119163376,00000130,false,Rx,0,8,18,00,00,00,80,00,62,03,
119163377,00000100,false,Rx,0,8,5A,00,00,00,80,00,6D,21,
119164385,00000120,false,Rx,0,8,04,00,00,00,80,00,60,5F,
119164386,00000110,false,Rx,0,8,79,00,00,00,A0,00,73,B2,
119165384,00000130,false,Rx,0,8,18,00,00,00,90,00,6F,C3,
119165386,00000100,false,Rx,0,8,71,00,00,00,90,00,66,FA,
119165386,00000120,false,Rx,0,8,04,00,00,00,90,00,6D,9F,
119166637,00000110,false,Rx,0,8,4B,00,00,00,B0,00,7A,60,
119166638,00000050,false,Rx,0,6,41,5C,FF,FB,5F,FF,00,00,
119166639,00000130,false,Rx,0,8,4C,BA,F5,FF,A3,80,AD,60,
119167795,00000100,false,Rx,0,8,88,00,00,00,A0,00,66,93,
119167796,00000120,false,Rx,0,8,E7,FF,FF,FF,A0,00,7B,FC,
119168792,00000110,false,Rx,0,8,4B,00,00,00,C0,00,5F,A0,
119168794,00000130,false,Rx,0,8,76,00,00,00,B0,00,7E,8D,
119169768,00000100,false,Rx,0,8,88,00,00,00,B0,00,6B,53,
119169769,00000120,false,Rx,0,8,E7,FF,FF,FF,B0,00,76,3C,
119170915,00000110,false,Rx,0,8,34,00,00,00,D0,00,59,AF,
119170917,00000170,false,Rx,0,8,00,00,00,53,50,81,05,6A,
119170917,00000130,false,Rx,0,8,F8,FF,FF,FF,C0,00,51,93,
119171918,00000100,false,Rx,0,8,71,00,00,00,C0,00,5A,FA,
119171919,00000120,false,Rx,0,8,E7,FF,FF,FF,C0,00,53,FC,
119172884,00000110,false,Rx,0,8,34,00,00,00,E0,00,4D,AF,
119172886,00000130,false,Rx,0,8,F8,FF,FF,FF,D0,00,5C,53,
119173894,00000100,false,Rx,0,8,88,00,00,00,D0,00,43,53,
119173895,00000120,false,Rx,0,8,E7,FF,FF,FF,D0,00,5E,3C,
119175012,00000110,false,Rx,0,8,62,00,00,00,F0,00,4C,59,
119175013,00000130,false,Rx,0,8,18,00,00,00,E0,00,4A,03,
119176018,00000100,false,Rx,0,8,71,00,00,00,E0,00,43,3A,
119176019,00000120,false,Rx,0,8,04,00,00,00,E0,00,48,5F,
119177019,00000110,false,Rx,0,8,62,00,00,00,00,00,08,59,
119177021,00000130,false,Rx,0,8,D9,FF,FF,FF,F0,00,43,22,
119178021,00000100,false,Rx,0,8,71,00,00,00,F0,00,4E,FA,
119178023,00000120,false,Rx,0,8,04,00,00,00,F0,00,45,9F,
119179009,00000110,false,Rx,0,8,79,00,00,00,10,00,06,72,
119179011,00000130,false,Rx,0,8,F8,FF,FF,FF,00,00,01,93,
119180166,00000100,false,Rx,0,8,43,00,00,00,00,00,0E,E8,
119180167,00000120,false,Rx,0,8,3D,00,00,00,00,00,04,F6,
119181167,00000110,false,Rx,0,8,79,00,00,00,20,00,12,72,
119181168,00000130,false,Rx,0,8,F8,FF,FF,FF,10,00,0C,53,
119182141,00000100,false,Rx,0,8,43,00,00,00,10,00,03,28,
119182143,00000140,false,Rx,0,8,01,00,FF,FF,50,00,3D,EE,
119182143,00000120,false,Rx,0,8,3D,00,00,00,10,00,09,36,
119183135,00000110,false,Rx,0,8,79,00,00,00,30,00,1F,B2,
119183137,00000130,false,Rx,0,8,F8,FF,FF,FF,20,00,18,53,
119184293,00000100,false,Rx,0,8,5A,00,00,00,20,00,15,21,
119184294,00000120,false,Rx,0,8,04,00,00,00,20,00,18,5F,
119185292,00000110,false,Rx,0,8,79,00,00,00,40,00,3A,72,
119185293,00000130,false,Rx,0,8,18,00,00,00,30,00,17,C3,
119186270,00000100,false,Rx,0,8,5A,00,00,00,30,00,18,E1,
119186272,00000120,false,Rx,0,8,04,00,00,00,30,00,15,9F,
119186272,00000110,false,Rx,0,8,90,00,00,00,50,00,21,4B,
119187384,00000050,false,Rx,0,6,41,5C,FF,FB,5F,FF,00,00,
119187386,00000130,false,Rx,0,8,4D,21,00,00,43,80,83,51,
119187386,00000100,false,Rx,0,8,71,00,00,00,40,00,3B,3A,
119189008,00000120,false,Rx,0,8,E7,FF,FF,FF,40,00,32,3C,
119189010,00000110,false,Rx,0,8,90,00,00,00,60,00,35,4B,
119190167,00000130,false,Rx,0,8,18,00,00,00,50,00,3F,C3,
119190168,00000100,false,Rx,0,8,B6,00,00,00,50,00,26,4D,
119191153,00000120,false,Rx,0,8,E7,FF,FF,FF,50,00,3F,FC,
119191155,00000110,false,Rx,0,8,34,00,00,00,70,00,21,AF,
119192140,00000130,false,Rx,0,8,F8,FF,FF,FF,60,00,29,93,
119192141,00000100,false,Rx,0,8,88,00,00,00,60,00,36,93,
119193291,00000120,false,Rx,0,8,E7,FF,FF,FF,60,00,2B,FC,
119193292,00000110,false,Rx,0,8,34,00,00,00,80,00,65,AF,
119194293,00000130,false,Rx,0,8,F8,FF,FF,FF,70,00,24,53,
119194295,00000100,false,Rx,0,8,71,00,00,00,70,00,2F,3A,
119195268,00000120,false,Rx,0,8,E7,FF,FF,FF,70,00,26,3C,
119195270,00000110,false,Rx,0,8,62,00,00,00,90,00,64,59,
119196284,00000130,false,Rx,0,8,18,00,00,00,80,00,62,03,
119196285,00000100,false,Rx,0,8,71,00,00,00,80,00,6B,3A,
119197416,00000120,false,Rx,0,8,04,00,00,00,80,00,60,5F,
119197417,00000110,false,Rx,0,8,62,00,00,00,A0,00,70,59,
119198416,00000130,false,Rx,0,8,F8,FF,FF,FF,90,00,6D,93,
119198417,00000100,false,Rx,0,8,5A,00,00,00,90,00,60,E1,
119199393,00000120,false,Rx,0,8,04,00,00,00,90,00,6D,9F,
119199395,00000110,false,Rx,0,8,90,00,00,00,B0,00,68,8B,
119200397,00000130,false,Rx,0,8,D9,FF,FF,FF,A0,00,7F,22,
119200398,00000100,false,Rx,0,8,43,00,00,00,A0,00,76,E8,
119201542,00000120,false,Rx,0,8,20,00,00,00,A0,00,7F,7B,
119201544,00000110,false,Rx,0,8,90,00,00,00,C0,00,4D,4B,
119202540,00000130,false,Rx,0,8,F8,FF,FF,FF,B0,00,74,53,
119202542,00000100,false,Rx,0,8,5A,00,00,00,B0,00,79,21,
119202542,00000140,false,Rx,0,8,01,00,FF,FF,60,00,29,EE,
119203510,00000120,false,Rx,0,8,20,00,00,00,B0,00,72,BB,
119203512,00000110,false,Rx,0,8,62,00,00,00,D0,00,55,99,
119204521,00000130,false,Rx,0,8,18,00,00,00,C0,00,53,C3,
119204523,00000100,false,Rx,0,8,5A,00,00,00,C0,00,5C,E1,
119205510,00000120,false,Rx,0,8,04,00,00,00,C0,00,51,9F,
119205511,00000110,false,Rx,0,8,62,00,00,00,E0,00,41,99,
119206622,00000130,false,Rx,0,8,18,00,00,00,D0,00,5E,03,
119206623,00000100,false,Rx,0,8,71,00,00,00,D0,00,57,3A,
119206624,00000120,false,Rx,0,8,04,00,00,00,D0,00,5C,5F,
119207759,00000110,false,Rx,0,8,79,00,00,00,F0,00,4F,B2,
119207760,00000050,false,Rx,0,6,41,5C,FF,FB,5F,FF,00,00,
119207761,00000130,false,Rx,0,8,B8,34,03,00,E3,80,E2,73,
119208891,00000100,false,Rx,0,8,71,00,00,00,E0,00,43,3A,
119208893,00000120,false,Rx,0,8,CB,FF,FF,FF,E0,00,4D,90,
119209924,00000110,false,Rx,0,8,79,00,00,00,00,00,0B,B2,
119209925,00000130,false,Rx,0,8,F8,FF,FF,FF,F0,00,45,93,
119210886,00000100,false,Rx,0,8,9F,00,00,00,F0,00,59,B4,
119210887,00000120,false,Rx,0,8,CB,FF,FF,FF,F0,00,40,50,
119212042,00000110,false,Rx,0,8,4B,00,00,00,10,00,02,60,
119212043,00000130,false,Rx,0,8,18,00,00,00,00,00,03,C3,
119213047,00000100,false,Rx,0,8,88,00,00,00,00,00,1E,93,
119213048,00000120,false,Rx,0,8,E7,FF,FF,FF,00,00,03,FC,
119214016,00000110,false,Rx,0,8,4B,00,00,00,20,00,16,60,
119214017,00000130,false,Rx,0,8,D9,FF,FF,FF,10,00,0A,E2,
119215007,00000100,false,Rx,0,8,71,00,00,00,10,00,07,3A,
119215009,00000120,false,Rx,0,8,E7,FF,FF,FF,10,00,0E,3C,
119216168,00000110,false,Rx,0,8,62,00,00,00,30,00,1C,59,
119216169,00000130,false,Rx,0,8,D9,FF,FF,FF,20,00,1E,E2,
119217164,00000100,false,Rx,0,8,5A,00,00,00,20,00,15,21,
119217165,00000120,false,Rx,0,8,04,00,00,00,20,00,18,5F,
119218144,00000110,false,Rx,0,8,62,00,00,00,40,00,39,99,
119218146,00000130,false,Rx,0,8,18,00,00,00,30,00,17,C3,
119219167,00000100,false,Rx,0,8,5A,00,00,00,30,00,18,E1,
119219168,00000120,false,Rx,0,8,04,00,00,00,30,00,15,9F,
119220136,00000110,false,Rx,0,8,90,00,00,00,50,00,21,4B,
119220138,00000130,false,Rx,0,8,18,00,00,00,40,00,32,03,
119221261,00000100,false,Rx,0,8,43,00,00,00,40,00,3F,28,
119221263,00000120,false,Rx,0,8,04,00,00,00,40,00,30,5F,
119222291,00000110,false,Rx,0,8,90,00,00,00,60,00,35,4B,
119222293,00000130,false,Rx,0,8,18,00,00,00,50,00,3F,C3,
119223266,00000100,false,Rx,0,8,71,00,00,00,50,00,36,FA,
119223267,00000140,false,Rx,0,8,01,00,FF,FF,70,00,24,2E,
119223268,00000120,false,Rx,0,8,04,00,00,00,50,00,3D,9F,
119224260,00000110,false,Rx,0,8,62,00,00,00,70,00,2D,99,
119224261,00000130,false,Rx,0,8,18,00,00,00,60,00,2B,C3,
119225386,00000100,false,Rx,0,8,71,00,00,00,60,00,22,FA,
119225388,00000120,false,Rx,0,8,04,00,00,00,60,00,29,9F,
119226391,00000110,false,Rx,0,8,62,00,00,00,80,00,69,99,
119226392,00000130,false,Rx,0,8,F8,FF,FF,FF,70,00,24,53,
119227393,00000100,false,Rx,0,8,71,00,00,00,70,00,2F,3A,
119227394,00000120,false,Rx,0,8,04,00,00,00,70,00,24,5F,
119227395,00000110,false,Rx,0,8,34,00,00,00,90,00,68,6F,
119228635,00000050,false,Rx,0,6,41,5C,FF,FB,5F,FF,00,00,
119228636,00000130,false,Rx,0,8,EB,95,FF,FF,83,80,7B,A9,
119228637,00000100,false,Rx,0,8,88,00,00,00,80,00,7F,53,
119230135,00000120,false,Rx,0,8,CB,FF,FF,FF,80,00,65,90,
119230136,00000110,false,Rx,0,8,34,00,00,00,A0,00,7C,6F,
119231295,00000130,false,Rx,0,8,95,00,00,00,90,00,71,1E,
119231297,00000100,false,Rx,0,8,9F,00,00,00,90,00,71,B4,
119232269,00000120,false,Rx,0,8,CB,FF,FF,FF,90,00,68,50,
119232271,00000110,false,Rx,0,8,34,00,00,00,B0,00,71,AF,
119233416,00000130,false,Rx,0,8,F8,FF,FF,FF,A0,00,79,93,
119233418,00000100,false,Rx,0,8,71,00,00,00,A0,00,72,FA,
119234415,00000120,false,Rx,0,8,E7,FF,FF,FF,A0,00,7B,FC,
119234417,00000110,false,Rx,0,8,34,00,00,00,C0,00,54,6F,
119235392,00000130,false,Rx,0,8,F8,FF,FF,FF,B0,00,74,53,
119235394,00000100,false,Rx,0,8,71,00,00,00,B0,00,7F,3A,
119236391,00000120,false,Rx,0,8,E7,FF,FF,FF,B0,00,76,3C,
119236392,00000110,false,Rx,0,8,79,00,00,00,D0,00,56,72,
119237391,00000130,false,Rx,0,8,D9,FF,FF,FF,C0,00,57,22,
119237393,00000100,false,Rx,0,8,5A,00,00,00,C0,00,5C,E1,
119238519,00000120,false,Rx,0,8,20,00,00,00,C0,00,57,7B,
119238520,00000110,false,Rx,0,8,79,00,00,00,E0,00,42,72,
119239510,00000130,false,Rx,0,8,F8,FF,FF,FF,D0,00,5C,53,
119239511,00000100,false,Rx,0,8,43,00,00,00,D0,00,53,28,
119240515,00000120,false,Rx,0,8,20,00,00,00,D0,00,5A,BB,
119240516,00000110,false,Rx,0,8,90,00,00,00,F0,00,59,4B,
119241518,00000130,false,Rx,0,8,D9,FF,FF,FF,E0,00,4E,E2,
119241519,00000100,false,Rx,0,8,43,00,00,00,E0,00,47,28,
119242514,00000120,false,Rx,0,8,20,00,00,00,E0,00,4E,BB,
119242515,00000110,false,Rx,0,8,90,00,00,00,00,00,1D,4B,
119243636,00000130,false,Rx,0,8,B9,FF,FF,FF,F0,00,4A,82,
119243637,00000100,false,Rx,0,8,5A,00,00,00,F0,00,48,E1,
119243638,00000140,false,Rx,0,8,01,00,FF,FF,80,00,60,2E,
119244621,00000120,false,Rx,0,8,20,00,00,00,F0,00,43,7B,
119244623,00000110,false,Rx,0,8,62,00,00,00,10,00,05,99,
119245621,00000130,false,Rx,0,8,37,00,00,00,00,00,04,5C,
119245622,00000100,false,Rx,0,8,71,00,00,00,00,00,0A,FA,
119246621,00000120,false,Rx,0,8,04,00,00,00,00,00,01,9F,
119246623,00000110,false,Rx,0,8,62,00,00,00,20,00,11,99,
119247793,00000130,false,Rx,0,8,F8,FF,FF,FF,10,00,0C,53,
119247794,00000100,false,Rx,0,8,88,00,00,00,10,00,13,53,
119247795,00000120,false,Rx,0,8,04,00,00,00,10,00,0C,5F,
119249041,00000110,false,Rx,0,8,34,00,00,00,30,00,10,6F,
119249043,00000050,false,Rx,0,6,41,5C,FF,FB,5F,FF,00,00,
119249043,00000130,false,Rx,0,8,2C,BA,F5,FF,23,80,C5,00,
119250033,00000100,false,Rx,0,8,88,00,00,00,20,00,07,53,
119250035,00000120,false,Rx,0,8,E7,FF,FF,FF,20,00,1A,3C,
119251017,00000110,false,Rx,0,8,34,00,00,00,40,00,35,AF,
119251018,00000210,false,Rx,0,8,75,69,00,05,06,5F,01,03,
119251018,00000130,false,Rx,0,8,76,00,00,00,30,00,1F,4D,
119252017,00000100,false,Rx,0,8,88,00,00,00,30,00,0A,93,
119252018,00000120,false,Rx,0,8,E7,FF,FF,FF,30,00,17,FC,
119253164,00000110,false,Rx,0,8,4B,00,00,00,50,00,33,A0,
119253166,00000130,false,Rx,0,8,F8,FF,FF,FF,40,00,30,53,
119254166,00000100,false,Rx,0,8,88,00,00,00,40,00,2F,53,
119254167,00000120,false,Rx,0,8,04,00,00,00,40,00,30,5F,
119255153,00000110,false,Rx,0,8,4B,00,00,00,60,00,27,A0,
119255155,00000130,false,Rx,0,8,F8,FF,FF,FF,50,00,3D,93,
119256294,00000100,false,Rx,0,8,71,00,00,00,50,00,36,FA,
119256295,00000120,false,Rx,0,8,04,00,00,00,50,00,3D,9F,
119257292,00000110,false,Rx,0,8,62,00,00,00,70,00,2D,99,
119257293,00000130,false,Rx,0,8,F8,FF,FF,FF,60,00,29,93,
119258290,00000100,false,Rx,0,8,5A,00,00,00,60,00,24,E1,
119258291,00000120,false,Rx,0,8,20,00,00,00,60,00,2F,7B,
119259285,00000110,false,Rx,0,8,62,00,00,00,80,00,69,99,
119259287,00000130,false,Rx,0,8,D9,FF,FF,FF,70,00,22,E2,
119260260,00000100,false,Rx,0,8,2C,00,00,00,70,00,22,77,
119260262,00000120,false,Rx,0,8,20,00,00,00,70,00,22,BB,
119261273,00000110,false,Rx,0,8,90,00,00,00,90,00,71,4B,
119261274,00000130,false,Rx,0,8,18,00,00,00,80,00,62,03,
119262390,00000100,false,Rx,0,8,5A,00,00,00,80,00,6D,21,
119262391,00000120,false,Rx,0,8,20,00,00,00,80,00,66,BB,
119263391,00000110,false,Rx,0,8,90,00,00,00,A0,00,65,4B,
119263392,00000130,false,Rx,0,8,F8,FF,FF,FF,90,00,6D,93,
119264393,00000100,false,Rx,0,8,5A,00,00,00,90,00,60,E1,
119264395,00000140,false,Rx,0,8,01,00,FF,FF,90,00,6D,EE,
119264396,00000120,false,Rx,0,8,20,00,00,00,90,00,6B,7B,
119265384,00000110,false,Rx,0,8,4B,00,00,00,B0,00,7A,60,
119265385,00000130,false,Rx,0,8,F8,FF,FF,FF,A0,00,79,93,
119266542,00000100,false,Rx,0,8,5A,00,00,00,A0,00,74,E1,
119266544,00000120,false,Rx,0,8,E7,FF,FF,FF,A0,00,7B,FC,
119267542,00000110,false,Rx,0,8,4B,00,00,00,C0,00,5F,A0,
119267543,00000130,false,Rx,0,8,D9,FF,FF,FF,B0,00,72,E2,
119268517,00000100,false,Rx,0,8,71,00,00,00,B0,00,7F,3A,
119268519,00000120,false,Rx,0,8,E7,FF,FF,FF,B0,00,76,3C,
119268519,00000110,false,Rx,0,8,62,00,00,00,D0,00,55,99,
119269790,00000050,false,Rx,0,6,41,5C,FF,FB,5F,FF,00,00,
119269792,00000130,false,Rx,0,8,4D,21,00,00,C3,80,E2,91,
119269792,00000100,false,Rx,0,8,9F,00,00,00,C0,00,4D,B4,
119271416,00000120,false,Rx,0,8,E7,FF,FF,FF,C0,00,53,FC,
119271417,00000110,false,Rx,0,8,62,00,00,00,E0,00,41,99,
119272416,00000130,false,Rx,0,8,F8,FF,FF,FF,D0,00,5C,53,
119272417,00000100,false,Rx,0,8,71,00,00,00,D0,00,57,3A,
119273385,00000120,false,Rx,0,8,E7,FF,FF,FF,D0,00,5E,3C,
119273386,00000110,false,Rx,0,8,4B,00,00,00,F0,00,4B,A0,
119273387,00000170,false,Rx,0,8,00,00,00,54,50,81,05,9E,
119274510,00000130,false,Rx,0,8,18,00,00,00,E0,00,4A,03,
119274511,00000100,false,Rx,0,8,71,00,00,00,E0,00,43,3A,
119275485,00000120,false,Rx,0,8,E7,FF,FF,FF,E0,00,4A,3C,
119275486,00000110,false,Rx,0,8,4B,00,00,00,00,00,0F,A0,
119276484,00000130,false,Rx,0,8,D9,FF,FF,FF,F0,00,43,22,
119276485,00000100,false,Rx,0,8,71,00,00,00,F0,00,4E,FA,
119277516,00000120,false,Rx,0,8,E7,FF,FF,FF,F0,00,47,FC,
119277517,00000110,false,Rx,0,8,62,00,00,00,10,00,05,99,
119278509,00000130,false,Rx,0,8,F8,FF,FF,FF,00,00,01,93,
119278510,00000100,false,Rx,0,8,5A,00,00,00,00,00,0C,E1,
119279636,00000120,false,Rx,0,8,20,00,00,00,00,00,07,7B,
119279638,00000110,false,Rx,0,8,62,00,00,00,20,00,11,99,
119280642,00000130,false,Rx,0,8,F8,FF,FF,FF,10,00,0C,53,
119280643,00000100,false,Rx,0,8,43,00,00,00,10,00,03,28,
119281634,00000120,false,Rx,0,8,20,00,00,00,10,00,0A,BB,
119281635,00000110,false,Rx,0,8,79,00,00,00,30,00,1F,B2,
119282636,00000130,false,Rx,0,8,D9,FF,FF,FF,20,00,1E,E2,
119282638,00000100,false,Rx,0,8,5A,00,00,00,20,00,15,21,
119283761,00000120,false,Rx,0,8,04,00,00,00,20,00,18,5F,
119283763,00000110,false,Rx,0,8,79,00,00,00,40,00,3A,72,
119284760,00000130,false,Rx,0,8,D9,FF,FF,FF,30,00,13,22,
119284761,00000100,false,Rx,0,8,71,00,00,00,30,00,1E,FA,
119284762,00000140,false,Rx,0,8,01,00,FF,FF,A0,00,79,EE,
119285762,00000120,false,Rx,0,8,04,00,00,00,30,00,15,9F,
119285763,00000110,false,Rx,0,8,62,00,00,00,50,00,34,59,
119286761,00000130,false,Rx,0,8,F8,FF,FF,FF,40,00,30,53,
119286762,00000100,false,Rx,0,8,71,00,00,00,40,00,3B,3A,
119287885,00000120,false,Rx,0,8,E7,FF,FF,FF,40,00,32,3C,
119287887,00000110,false,Rx,0,8,62,00,00,00,60,00,20,59,
119288886,00000130,false,Rx,0,8,F8,FF,FF,FF,50,00,3D,93,
119288887,00000100,false,Rx,0,8,88,00,00,00,50,00,22,93,
119288888,00000120,false,Rx,0,8,E7,FF,FF,FF,50,00,3F,FC,
119290135,00000110,false,Rx,0,8,4B,00,00,00,70,00,2A,60,
119290136,00000050,false,Rx,0,6,41,5C,FF,FB,5F,FF,00,00,
119290136,00000130,false,Rx,0,8,B8,34,03,00,63,80,83,B3,
119291132,00000100,false,Rx,0,8,9F,00,00,00,60,00,35,B4,
119291134,00000120,false,Rx,0,8,CB,FF,FF,FF,60,00,2C,50,
119292132,00000110,false,Rx,0,8,4B,00,00,00,80,00,6E,60,
119292133,00000130,false,Rx,0,8,18,00,00,00,70,00,26,03,
119293259,00000100,false,Rx,0,8,88,00,00,00,70,00,3B,53,
119293260,00000120,false,Rx,0,8,CB,FF,FF,FF,70,00,21,90,
119294261,00000110,false,Rx,0,8,62,00,00,00,90,00,64,59,
119294262,00000130,false,Rx,0,8,F8,FF,FF,FF,80,00,60,53,
119295258,00000100,false,Rx,0,8,71,00,00,00,80,00,6B,3A,
119295259,00000120,false,Rx,0,8,04,00,00,00,80,00,60,5F,
119296259,00000110,false,Rx,0,8,62,00,00,00,A0,00,70,59,
119296260,00000130,false,Rx,0,8,D9,FF,FF,FF,90,00,6B,22,
119297383,00000100,false,Rx,0,8,5A,00,00,00,90,00,60,E1,
119297384,00000120,false,Rx,0,8,04,00,00,00,90,00,6D,9F,
119298383,00000110,false,Rx,0,8,79,00,00,00,B0,00,7E,72,
119298384,00000130,false,Rx,0,8,F8,FF,FF,FF,A0,00,79,93,
119299386,00000100,false,Rx,0,8,43,00,00,00,A0,00,76,E8,
119299387,00000120,false,Rx,0,8,3D,00,00,00,A0,00,7C,F6,
119300386,00000110,false,Rx,0,8,79,00,00,00,C0,00,5B,B2,
119300387,00000130,false,Rx,0,8,D9,FF,FF,FF,B0,00,72,E2,
119301381,00000100,false,Rx,0,8,43,00,00,00,B0,00,7B,28,
119301383,00000120,false,Rx,0,8,3D,00,00,00,B0,00,71,36,
119302511,00000110,false,Rx,0,8,79,00,00,00,D0,00,56,72,
119302513,00000130,false,Rx,0,8,F8,FF,FF,FF,C0,00,51,93,
119303511,00000100,false,Rx,0,8,5A,00,00,00,C0,00,5C,E1,
119303512,00000120,false,Rx,0,8,04,00,00,00,C0,00,51,9F,
119304510,00000110,false,Rx,0,8,79,00,00,00,E0,00,42,72,
119304511,00000130,false,Rx,0,8,18,00,00,00,D0,00,5E,03,
119305508,00000100,false,Rx,0,8,71,00,00,00,D0,00,57,3A,
119305510,00000140,false,Rx,0,8,01,00,FF,FF,B0,00,74,2E,
119305510,00000120,false,Rx,0,8,04,00,00,00,D0,00,5C,5F,
119306633,00000110,false,Rx,0,8,62,00,00,00,F0,00,4C,59,
119306634,00000130,false,Rx,0,8,D9,FF,FF,FF,E0,00,4E,E2,
119307633,00000100,false,Rx,0,8,88,00,00,00,E0,00,57,53,
119307635,00000120,false,Rx,0,8,E7,FF,FF,FF,E0,00,4A,3C,
119308618,00000110,false,Rx,0,8,62,00,00,00,00,00,08,59,
119308619,00000130,false,Rx,0,8,18,00,00,00,F0,00,47,C3,
119309621,00000100,false,Rx,0,8,9F,00,00,00,F0,00,59,B4,
119309623,00000120,false,Rx,0,8,E7,FF,FF,FF,F0,00,47,FC,
119309623,00000110,false,Rx,0,8,1D,00,00,00,10,00,0E,56,
119310860,00000050,false,Rx,0,6,41,5C,FF,FB,5F,FF,00,00,
119310861,00000130,false,Rx,0,8,EB,95,FF,FF,03,80,1A,69,
119310862,00000100,false,Rx,0,8,88,00,00,00,00,00,1E,93,
119312485,00000120,false,Rx,0,8,E7,FF,FF,FF,00,00,03,FC,
119312487,00000110,false,Rx,0,8,1D,00,00,00,20,00,1A,56,
119313509,00000130,false,Rx,0,8,B5,00,00,00,10,00,17,BE,
119313511,00000100,false,Rx,0,8,71,00,00,00,10,00,07,3A,
119314510,00000120,false,Rx,0,8,E7,FF,FF,FF,10,00,0E,3C,
119314511,00000110,false,Rx,0,8,62,00,00,00,30,00,1C,59,
119315642,00000130,false,Rx,0,8,F8,FF,FF,FF,20,00,18,53,
119315643,00000100,false,Rx,0,8,5A,00,00,00,20,00,15,21,
119316638,00000120,false,Rx,0,8,04,00,00,00,20,00,18,5F,
119316640,00000110,false,Rx,0,8,62,00,00,00,40,00,39,99,
119317636,00000130,false,Rx,0,8,37,00,00,00,30,00,10,5C,
119317637,00000100,false,Rx,0,8,5A,00,00,00,30,00,18,E1,
119318634,00000120,false,Rx,0,8,04,00,00,00,30,00,15,9F,
119318635,00000110,false,Rx,0,8,79,00,00,00,50,00,37,B2,
119319758,00000130,false,Rx,0,8,D9,FF,FF,FF,40,00,36,E2,
119319759,00000100,false,Rx,0,8,43,00,00,00,40,00,3F,28,
119320760,00000120,false,Rx,0,8,20,00,00,00,40,00,36,BB,
119320762,00000110,false,Rx,0,8,79,00,00,00,60,00,23,B2,
119321757,00000130,false,Rx,0,8,D9,FF,FF,FF,50,00,3B,22,
119321759,00000100,false,Rx,0,8,43,00,00,00,50,00,32,E8,
119322759,00000120,false,Rx,0,8,20,00,00,00,50,00,3B,7B,
119322761,00000110,false,Rx,0,8,79,00,00,00,70,00,2E,72,
119323882,00000130,false,Rx,0,8,F8,FF,FF,FF,60,00,29,93,
119323883,00000100,false,Rx,0,8,5A,00,00,00,60,00,24,E1,
119324883,00000120,false,Rx,0,8,04,00,00,00,60,00,29,9F,
119324884,00000110,false,Rx,0,8,79,00,00,00,80,00,6A,72,
119325883,00000130,false,Rx,0,8,F8,FF,FF,FF,70,00,24,53,
119325884,00000100,false,Rx,0,8,5A,00,00,00,70,00,29,21,
119325885,00000140,false,Rx,0,8,01,00,FF,FF,C0,00,51,EE,
119326887,00000120,false,Rx,0,8,04,00,00,00,70,00,24,5F,
119326888,00000110,false,Rx,0,8,62,00,00,00,90,00,64,59,
119327884,00000130,false,Rx,0,8,F8,FF,FF,FF,80,00,60,53,
119327885,00000100,false,Rx,0,8,88,00,00,00,80,00,7F,53,
119328983,00000120,false,Rx,0,8,AE,FF,FF,FF,80,00,6C,65,
119328985,00000110,false,Rx,0,8,62,00,00,00,A0,00,70,59,
119329982,00000130,false,Rx,0,8,F8,FF,FF,FF,90,00,6D,93,
119329983,00000100,false,Rx,0,8,9F,00,00,00,90,00,71,B4,
119329984,00000120,false,Rx,0,8,AE,FF,FF,FF,90,00,61,A5,
119331230,00000110,false,Rx,0,8,34,00,00,00,B0,00,71,AF,
119331231,00000050,false,Rx,0,6,41,5C,FF,FB,5F,FF,00,00,
119331232,00000130,false,Rx,0,8,0D,BA,F5,FF,A3,80,A2,71,
119332228,00000100,false,Rx,0,8,88,00,00,00,A0,00,66,93,
119332228,00000120,false,Rx,0,8,20,00,00,00,A0,00,7F,7B,
119333229,00000110,false,Rx,0,8,34,00,00,00,C0,00,54,6F,
119333230,00000130,false,Rx,0,8,95,00,00,00,B0,00,68,DE,
119334369,00000100,false,Rx,0,8,71,00,00,00,B0,00,7F,3A,
119334370,00000120,false,Rx,0,8,20,00,00,00,B0,00,72,BB,
119335384,00000110,false,Rx,0,8,62,00,00,00,D0,00,55,99,
119335385,00000130,false,Rx,0,8,F8,FF,FF,FF,C0,00,51,93,
119336383,00000100,false,Rx,0,8,71,00,00,00,C0,00,5A,FA,
119336385,00000120,false,Rx,0,8,04,00,00,00,C0,00,51,9F,
119337380,00000110,false,Rx,0,8,62,00,00,00,E0,00,41,99,
119337381,00000130,false,Rx,0,8,18,00,00,00,D0,00,5E,03,
119338500,00000100,false,Rx,0,8,5A,00,00,00,D0,00,51,21,
119338501,00000120,false,Rx,0,8,04,00,00,00,D0,00,5C,5F,
119339502,00000110,false,Rx,0,8,90,00,00,00,F0,00,59,4B,
119339502,00000130,false,Rx,0,8,F8,FF,FF,FF,E0,00,48,53,
119340501,00000100,false,Rx,0,8,43,00,00,00,E0,00,47,28,
119340502,00000120,false,Rx,0,8,20,00,00,00,E0,00,4E,BB,
119341501,00000110,false,Rx,0,8,90,00,00,00,00,00,1D,4B,
119341501,00000130,false,Rx,0,8,18,00,00,00,F0,00,47,C3,
119342634,00000100,false,Rx,0,8,5A,00,00,00,F0,00,48,E1,
119342635,00000120,false,Rx,0,8,20,00,00,00,F0,00,43,7B,
119343623,00000110,false,Rx,0,8,62,00,00,00,10,00,05,99,
119343623,00000130,false,Rx,0,8,F8,FF,FF,FF,00,00,01,93,
119344637,00000100,false,Rx,0,8,5A,00,00,00,00,00,0C,E1,
119344638,00000120,false,Rx,0,8,20,00,00,00,00,00,07,7B,
119345616,00000110,false,Rx,0,8,62,00,00,00,20,00,11,99,
119345616,00000130,false,Rx,0,8,18,00,00,00,10,00,0E,03,
119346606,00000100,false,Rx,0,8,71,00,00,00,10,00,07,3A,
119346606,00000140,false,Rx,0,8,01,00,FF,FF,D0,00,5C,2E,
119346607,00000120,false,Rx,0,8,20,00,00,00,10,00,0A,BB,
119347747,00000110,false,Rx,0,8,4B,00,00,00,30,00,1B,A0,
119347748,00000130,false,Rx,0,8,18,00,00,00,20,00,1A,03,
119348746,00000100,false,Rx,0,8,88,00,00,00,20,00,07,53,
119348746,00000120,false,Rx,0,8,AE,FF,FF,FF,20,00,14,65,
119349745,00000110,false,Rx,0,8,4B,00,00,00,40,00,3E,60,
119349746,00000130,false,Rx,0,8,18,00,00,00,30,00,17,C3,
119350748,00000100,false,Rx,0,8,88,00,00,00,30,00,0A,93,
119350748,00000120,false,Rx,0,8,AE,FF,FF,FF,30,00,19,A5,
119350749,00000110,false,Rx,0,8,79,00,00,00,50,00,37,B2,
119352000,00000050,false,Rx,0,6,41,5C,FF,FB,5F,FF,00,00,
119352001,00000130,false,Rx,0,8,4D,21,00,00,43,80,83,51,
119352001,00000100,false,Rx,0,8,71,00,00,00,40,00,3B,3A,
119353608,00000120,false,Rx,0,8,20,00,00,00,40,00,36,BB,
119353609,00000110,false,Rx,0,8,79,00,00,00,60,00,23,B2,
119354614,00000130,false,Rx,0,8,F8,FF,FF,FF,50,00,3D,93,
119354615,00000100,false,Rx,0,8,71,00,00,00,50,00,36,FA,
119355729,00000120,false,Rx,0,8,20,00,00,00,50,00,3B,7B,
119355729,00000110,false,Rx,0,8,62,00,00,00,70,00,2D,99,
119356728,00000130,false,Rx,0,8,D9,FF,FF,FF,60,00,2F,22,
119356729,00000100,false,Rx,0,8,71,00,00,00,60,00,22,FA,
119357728,00000120,false,Rx,0,8,20,00,00,00,60,00,2F,7B,
119357729,00000110,false,Rx,0,8,62,00,00,00,80,00,69,99,
119358763,00000130,false,Rx,0,8,18,00,00,00,70,00,26,03,
119358773,00000100,false,Rx,0,8,43,00,00,00,70,00,2B,28,
119359763,00000120,false,Rx,0,8,20,00,00,00,70,00,22,BB,
119359764,00000110,false,Rx,0,8,A7,00,00,00,90,00,75,0C,
119360884,00000130,false,Rx,0,8,D9,FF,FF,FF,80,00,66,E2,
119360886,00000100,false,Rx,0,8,43,00,00,00,80,00,6F,28,
119361869,00000120,false,Rx,0,8,20,00,00,00,80,00,66,BB,
119361870,00000110,false,Rx,0,8,A7,00,00,00,A0,00,61,0C,
119362912,00000130,false,Rx,0,8,F8,FF,FF,FF,90,00,6D,93,
119362913,00000100,false,Rx,0,8,5A,00,00,00,90,00,60,E1,
119363884,00000120,false,Rx,0,8,20,00,00,00,90,00,6B,7B,
119363895,00000110,false,Rx,0,8,62,00,00,00,B0,00,7D,99,
119365008,00000130,false,Rx,0,8,18,00,00,00,A0,00,7B,C3,
119365010,00000100,false,Rx,0,8,5A,00,00,00,A0,00,74,E1,
119366013,00000120,false,Rx,0,8,04,00,00,00,A0,00,79,9F,
119366014,00000110,false,Rx,0,8,62,00,00,00,C0,00,58,59,
119367019,00000130,false,Rx,0,8,F8,FF,FF,FF,B0,00,74,53,
119367020,00000100,false,Rx,0,8,71,00,00,00,B0,00,7F,3A,
119367030,00000140,false,Rx,0,8,01,00,FF,FF,E0,00,48,2E,
119368006,00000120,false,Rx,0,8,04,00,00,00,B0,00,74,5F,
119368007,00000110,false,Rx,0,8,34,00,00,00,D0,00,59,AF,
119369134,00000130,false,Rx,0,8,F8,FF,FF,FF,C0,00,51,93,
119369135,00000100,false,Rx,0,8,9F,00,00,00,C0,00,4D,B4,
119370162,00000120,false,Rx,0,8,CB,FF,FF,FF,C0,00,54,50,
119370163,00000110,false,Rx,0,8,34,00,00,00,E0,00,4D,AF,
119371165,00000130,false,Rx,0,8,18,00,00,00,D0,00,5E,03,
119371166,00000100,false,Rx,0,8,88,00,00,00,D0,00,43,53,
119371167,00000120,false,Rx,0,8,CB,FF,FF,FF,D0,00,59,90,
119372415,00000110,false,Rx,0,8,79,00,00,00,F0,00,4F,B2,
119372416,00000050,false,Rx,0,6,41,5C,FF,FB,5F,FF,00,00,
119372417,00000130,false,Rx,0,8,D8,34,03,00,E3,80,EB,D3,
119373416,00000100,false,Rx,0,8,71,00,00,00,E0,00,43,3A,
119373417,00000120,false,Rx,0,8,04,00,00,00,E0,00,48,5F,
119374391,00000110,false,Rx,0,8,79,00,00,00,00,00,0B,B2,
119374392,00000130,false,Rx,0,8,D9,FF,FF,FF,F0,00,43,22,
119375540,00000100,false,Rx,0,8,71,00,00,00,F0,00,4E,FA,
119375542,00000120,false,Rx,0,8,04,00,00,00,F0,00,45,9F,
119376536,00000110,false,Rx,0,8,62,00,00,00,10,00,05,99,
119376537,00000170,false,Rx,0,8,00,00,00,55,50,81,05,03,
119376537,00000130,false,Rx,0,8,37,00,00,00,00,00,04,5C,
119377517,00000100,false,Rx,0,8,5A,00,00,00,00,00,0C,E1,
119377519,00000120,false,Rx,0,8,20,00,00,00,00,00,07,7B,
119378509,00000110,false,Rx,0,8,62,00,00,00,20,00,11,99,
119378510,00000130,false,Rx,0,8,18,00,00,00,10,00,0E,03,
119379622,00000100,false,Rx,0,8,43,00,00,00,10,00,03,28,
119379623,00000120,false,Rx,0,8,20,00,00,00,10,00,0A,BB,
119380621,00000110,false,Rx,0,8,90,00,00,00,30,00,09,4B,
119380622,00000130,false,Rx,0,8,F8,FF,FF,FF,20,00,18,53,
119381635,00000100,false,Rx,0,8,5A,00,00,00,20,00,15,21,
119381636,00000120,false,Rx,0,8,04,00,00,00,20,00,18,5F,
119382638,00000110,false,Rx,0,8,90,00,00,00,40,00,2C,8B,
119382640,00000130,false,Rx,0,8,F8,FF,FF,FF,30,00,15,93,
119383788,00000100,false,Rx,0,8,71,00,00,00,30,00,1E,FA,
119383790,00000120,false,Rx,0,8,04,00,00,00,30,00,15,9F,
119384789,00000110,false,Rx,0,8,79,00,00,00,50,00,37,B2,
119384791,00000130,false,Rx,0,8,F8,FF,FF,FF,40,00,30,53,
119385763,00000100,false,Rx,0,8,71,00,00,00,40,00,3B,3A,
119385764,00000120,false,Rx,0,8,04,00,00,00,40,00,30,5F,
119386758,00000110,false,Rx,0,8,79,00,00,00,60,00,23,B2,
119386760,00000130,false,Rx,0,8,F8,FF,FF,FF,50,00,3D,93,
119387757,00000100,false,Rx,0,8,88,00,00,00,50,00,22,93,
119387758,00000140,false,Rx,0,8,01,00,FF,FF,F0,00,45,EE,
119387759,00000120,false,Rx,0,8,04,00,00,00,50,00,3D,9F,
119388893,00000110,false,Rx,0,8,4B,00,00,00,70,00,2A,60,
119388894,00000130,false,Rx,0,8,D9,FF,FF,FF,60,00,2F,22,
119389886,00000100,false,Rx,0,8,9F,00,00,00,60,00,35,B4,
119389887,00000120,false,Rx,0,8,CB,FF,FF,FF,60,00,2C,50,
119390889,00000110,false,Rx,0,8,4B,00,00,00,80,00,6E,60,
119390890,00000130,false,Rx,0,8,F8,FF,FF,FF,70,00,24,53,
119391882,00000100,false,Rx,0,8,71,00,00,00,70,00,2F,3A,
119391883,00000120,false,Rx,0,8,CB,FF,FF,FF,70,00,21,90,
119391884,00000110,false,Rx,0,8,62,00,00,00,90,00,64,59,
119393164,00000050,false,Rx,0,6,41,5C,FF,FB,5F,FF,00,00,
119393165,00000130,false,Rx,0,8,CC,95,FF,FF,83,80,7D,7E,
119393166,00000100,false,Rx,0,8,71,00,00,00,80,00,6B,3A,
119394788,00000120,false,Rx,0,8,04,00,00,00,80,00,60,5F,
119394790,00000110,false,Rx,0,8,62,00,00,00,A0,00,70,59,
119395762,00000130,false,Rx,0,8,76,00,00,00,90,00,67,4D,
119395763,00000100,false,Rx,0,8,71,00,00,00,90,00,66,FA,
119396914,00000120,false,Rx,0,8,04,00,00,00,90,00,6D,9F,
119396915,00000110,false,Rx,0,8,62,00,00,00,B0,00,7D,99,
119397914,00000130,false,Rx,0,8,F8,FF,FF,FF,A0,00,79,93,
119397916,00000100,false,Rx,0,8,5A,00,00,00,A0,00,74,E1,
119398895,00000120,false,Rx,0,8,3D,00,00,00,A0,00,7C,F6,
119398897,00000110,false,Rx,0,8,62,00,00,00,C0,00,58,59,
119399884,00000130,false,Rx,0,8,F8,FF,FF,FF,B0,00,74,53,
119399885,00000100,false,Rx,0,8,43,00,00,00,B0,00,7B,28,
119400880,00000120,false,Rx,0,8,3D,00,00,00,B0,00,71,36,
119400881,00000110,false,Rx,0,8,90,00,00,00,D0,00,40,8B,
119402014,00000130,false,Rx,0,8,F8,FF,FF,FF,C0,00,51,93,
119402015,00000100,false,Rx,0,8,5A,00,00,00,C0,00,5C,E1,
119403017,00000120,false,Rx,0,8,04,00,00,00,C0,00,51,9F,
119403018,00000110,false,Rx,0,8,90,00,00,00,E0,00,54,8B,
119404012,00000130,false,Rx,0,8,F8,FF,FF,FF,D0,00,5C,53,
119404013,00000100,false,Rx,0,8,5A,00,00,00,D0,00,51,21,
119405007,00000120,false,Rx,0,8,04,00,00,00,D0,00,5C,5F,
119405008,00000110,false,Rx,0,8,62,00,00,00,F0,00,4C,59,
119406167,00000130,false,Rx,0,8,D9,FF,FF,FF,E0,00,4E,E2,
119406169,00000100,false,Rx,0,8,71,00,00,00,E0,00,43,3A,
119407139,00000120,false,Rx,0,8,04,00,00,00,E0,00,48,5F,
119407140,00000110,false,Rx,0,8,62,00,00,00,00,00,08,59,
119408140,00000130,false,Rx,0,8,18,00,00,00,F0,00,47,C3,
119408142,00000100,false,Rx,0,8,88,00,00,00,F0,00,5A,93,
119408142,00000140,false,Rx,0,8,01,00,FF,FF,00,00,01,EE,
119409130,00000120,false,Rx,0,8,04,00,00,00,F0,00,45,9F,
119409131,00000110,false,Rx,0,8,1D,00,00,00,10,00,0E,56,
119410286,00000130,false,Rx,0,8,F8,FF,FF,FF,00,00,01,93,
119410287,00000100,false,Rx,0,8,9F,00,00,00,00,00,1D,B4,
119411287,00000120,false,Rx,0,8,CB,FF,FF,FF,00,00,04,50,
119411288,00000110,false,Rx,0,8,1D,00,00,00,20,00,1A,56,
119412289,00000130,false,Rx,0,8,18,00,00,00,10,00,0E,03,
119412291,00000100,false,Rx,0,8,88,00,00,00,10,00,13,53,
119412291,00000120,false,Rx,0,8,CB,FF,FF,FF,10,00,09,90,
119413539,00000110,false,Rx,0,8,62,00,00,00,30,00,1C,59,
119413541,00000050,false,Rx,0,6,41,5C,FF,FB,5F,FF,00,00,
119413541,00000130,false,Rx,0,8,2C,BA,F5,FF,23,80,C5,00,
119414545,00000100,false,Rx,0,8,71,00,00,00,20,00,13,3A,
119414546,00000120,false,Rx,0,8,E7,FF,FF,FF,20,00,1A,3C,
119415514,00000110,false,Rx,0,8,62,00,00,00,40,00,39,99,
119415515,00000130,false,Rx,0,8,B5,00,00,00,30,00,0E,7E,
119416630,00000100,false,Rx,0,8,71,00,00,00,30,00,1E,FA,
119416631,00000120,false,Rx,0,8,E7,FF,FF,FF,30,00,17,FC,
119417637,00000110,false,Rx,0,8,79,00,00,00,50,00,37,B2,
119417639,00000130,false,Rx,0,8,18,00,00,00,40,00,32,03,
119418639,00000100,false,Rx,0,8,5A,00,00,00,40,00,3D,21,
119418640,00000120,false,Rx,0,8,3D,00,00,00,40,00,35,36,
119419633,00000110,false,Rx,0,8,79,00,00,00,60,00,23,B2,
119419635,00000130,false,Rx,0,8,37,00,00,00,50,00,38,5C,
119420758,00000100,false,Rx,0,8,43,00,00,00,50,00,32,E8,
119420759,00000120,false,Rx,0,8,3D,00,00,00,50,00,38,F6,
119421756,00000110,false,Rx,0,8,79,00,00,00,70,00,2E,72,
119421758,00000130,false,Rx,0,8,F8,FF,FF,FF,60,00,29,93,
119422764,00000100,false,Rx,0,8,5A,00,00,00,60,00,24,E1,
119422766,00000120,false,Rx,0,8,04,00,00,00,60,00,29,9F,
119423767,00000110,false,Rx,0,8,79,00,00,00,80,00,6A,72,
119423768,00000130,false,Rx,0,8,D9,FF,FF,FF,70,00,22,E2,
119424914,00000100,false,Rx,0,8,71,00,00,00,70,00,2F,3A,
119424915,00000120,false,Rx,0,8,04,00,00,00,70,00,24,5F,
119425912,00000110,false,Rx,0,8,62,00,00,00,90,00,64,59,
119425913,00000130,false,Rx,0,8,18,00,00,00,80,00,62,03,
119426887,00000100,false,Rx,0,8,71,00,00,00,80,00,6B,3A,
119426889,00000120,false,Rx,0,8,E7,FF,FF,FF,80,00,62,3C,
119427882,00000110,false,Rx,0,8,62,00,00,00,A0,00,70,59,
119427883,00000130,false,Rx,0,8,F8,FF,FF,FF,90,00,6D,93,
119429034,00000100,false,Rx,0,8,9F,00,00,00,90,00,71,B4,
119429035,00000140,false,Rx,0,8,01,00,FF,FF,10,00,0C,2E,
119429036,00000120,false,Rx,0,8,E7,FF,FF,FF,90,00,6F,FC,
119430039,00000110,false,Rx,0,8,1D,00,00,00,B0,00,76,56,
119430041,00000130,false,Rx,0,8,D9,FF,FF,FF,A0,00,7F,22,
119431045,00000100,false,Rx,0,8,88,00,00,00,A0,00,66,93,
119431046,00000120,false,Rx,0,8,CB,FF,FF,FF,A0,00,7C,50,
119432014,00000110,false,Rx,0,8,1D,00,00,00,C0,00,53,96,
119432015,00000130,false,Rx,0,8,18,00,00,00,B0,00,76,03,
119433005,00000100,false,Rx,0,8,71,00,00,00,B0,00,7F,3A,
119433006,00000120,false,Rx,0,8,CB,FF,FF,FF,B0,00,71,90,
119433007,00000110,false,Rx,0,8,90,00,00,00,D0,00,40,8B,
119434292,00000050,false,Rx,0,6,41,5C,FF,FB,5F,FF,00,00,
119434294,00000130,false,Rx,0,8,4D,21,00,00,C3,80,E2,91,
119434294,00000100,false,Rx,0,8,71,00,00,00,C0,00,5A,FA,
119435915,00000120,false,Rx,0,8,04,00,00,00,C0,00,51,9F,
119435916,00000110,false,Rx,0,8,90,00,00,00,E0,00,54,8B,
119436882,00000130,false,Rx,0,8,F8,FF,FF,FF,D0,00,5C,53,
119436883,00000100,false,Rx,0,8,5A,00,00,00,D0,00,51,21,
119438039,00000120,false,Rx,0,8,04,00,00,00,D0,00,5C,5F,
119438040,00000110,false,Rx,0,8,79,00,00,00,F0,00,4F,B2,
119439038,00000130,false,Rx,0,8,D9,FF,FF,FF,E0,00,4E,E2,
119439040,00000100,false,Rx,0,8,43,00,00,00,E0,00,47,28,
119440015,00000120,false,Rx,0,8,3D,00,00,00,E0,00,4D,36,
119440016,00000110,false,Rx,0,8,79,00,00,00,00,00,0B,B2,
119441005,00000130,false,Rx,0,8,37,00,00,00,F0,00,40,5C,
119441006,00000100,false,Rx,0,8,5A,00,00,00,F0,00,48,E1,
119442166,00000120,false,Rx,0,8,3D,00,00,00,F0,00,40,F6,
119442167,00000110,false,Rx,0,8,79,00,00,00,10,00,06,72,
119443161,00000130,false,Rx,0,8,F8,FF,FF,FF,00,00,01,93,
119443162,00000100,false,Rx,0,8,5A,00,00,00,00,00,0C,E1,
119444141,00000120,false,Rx,0,8,04,00,00,00,00,00,01,9F,
119444142,00000110,false,Rx,0,8,79,00,00,00,20,00,12,72,
119445139,00000130,false,Rx,0,8,F8,FF,FF,FF,10,00,0C,53,
119445141,00000100,false,Rx,0,8,5A,00,00,00,10,00,01,21,
119446288,00000120,false,Rx,0,8,04,00,00,00,10,00,0C,5F,
119446289,00000110,false,Rx,0,8,62,00,00,00,30,00,1C,59,
119447288,00000130,false,Rx,0,8,D9,FF,FF,FF,20,00,1E,E2,
119447289,00000100,false,Rx,0,8,71,00,00,00,20,00,13,3A,
119448289,00000120,false,Rx,0,8,E7,FF,FF,FF,20,00,1A,3C,
119448290,00000110,false,Rx,0,8,62,00,00,00,40,00,39,99,
119449283,00000130,false,Rx,0,8,18,00,00,00,30,00,17,C3,
119449285,00000100,false,Rx,0,8,9F,00,00,00,30,00,09,B4,
119449285,00000140,false,Rx,0,8,01,00,FF,FF,20,00,18,2E,
119450257,00000120,false,Rx,0,8,E7,FF,FF,FF,30,00,17,FC,
119450258,00000110,false,Rx,0,8,1D,00,00,00,50,00,3F,96,
119451387,00000130,false,Rx,0,8,18,00,00,00,40,00,32,03,
119451388,00000100,false,Rx,0,8,9F,00,00,00,40,00,2C,74,
119452389,00000120,false,Rx,0,8,04,00,00,00,40,00,30,5F,
119452390,00000110,false,Rx,0,8,1D,00,00,00,60,00,2B,96,
119453390,00000130,false,Rx,0,8,D9,FF,FF,FF,50,00,3B,22,
119453391,00000100,false,Rx,0,8,71,00,00,00,50,00,36,FA,
119453392,00000120,false,Rx,0,8,04,00,00,00,50,00,3D,9F,
119454620,00000110,false,Rx,0,8,79,00,00,00,70,00,2E,72,
119454621,00000050,false,Rx,0,6,41,5C,FF,FB,5F,FF,00,00,
119454622,00000130,false,Rx,0,8,F8,34,03,00,63,80,8D,73,
119455644,00000100,false,Rx,0,8,71,00,00,00,60,00,22,FA,
119455646,00000120,false,Rx,0,8,04,00,00,00,60,00,29,9F,
119456633,00000110,false,Rx,0,8,79,00,00,00,80,00,6A,72,
119456634,00000130,false,Rx,0,8,D9,FF,FF,FF,70,00,22,E2,
119457793,00000100,false,Rx,0,8,5A,00,00,00,70,00,29,21,
119457794,00000120,false,Rx,0,8,04,00,00,00,70,00,24,5F,
119458787,00000110,false,Rx,0,8,79,00,00,00,90,00,67,B2,
119458789,00000130,false,Rx,0,8,F8,FF,FF,FF,80,00,60,53,
119459756,00000100,false,Rx,0,8,5A,00,00,00,80,00,6D,21,
119459757,00000120,false,Rx,0,8,20,00,00,00,80,00,66,BB,
119460913,00000110,false,Rx,0,8,79,00,00,00,A0,00,73,B2,
119460915,00000130,false,Rx,0,8,D9,FF,FF,FF,90,00,6B,22,
119461908,00000100,false,Rx,0,8,43,00,00,00,90,00,62,E8,
119461909,00000120,false,Rx,0,8,20,00,00,00,90,00,6B,7B,
119462913,00000110,false,Rx,0,8,79,00,00,00,B0,00,7E,72,
119462914,00000130,false,Rx,0,8,18,00,00,00,A0,00,7B,C3,
119463903,00000100,false,Rx,0,8,5A,00,00,00,A0,00,74,E1,
119463905,00000120,false,Rx,0,8,04,00,00,00,A0,00,79,9F,
119464879,00000110,false,Rx,0,8,79,00,00,00,C0,00,5B,B2,
119464880,00000130,false,Rx,0,8,F8,FF,FF,FF,B0,00,74,53,
119466037,00000100,false,Rx,0,8,71,00,00,00,B0,00,7F,3A,
119466039,00000120,false,Rx,0,8,04,00,00,00,B0,00,74,5F,
119467035,00000110,false,Rx,0,8,62,00,00,00,D0,00,55,99,
119467037,00000130,false,Rx,0,8,F8,FF,FF,FF,C0,00,51,93,
119468015,00000100,false,Rx,0,8,71,00,00,00,C0,00,5A,FA,
119468017,00000120,false,Rx,0,8,CB,FF,FF,FF,C0,00,54,50,
119469163,00000110,false,Rx,0,8,62,00,00,00,E0,00,41,99,
119469164,00000130,false,Rx,0,8,18,00,00,00,D0,00,5E,03,
119470162,00000100,false,Rx,0,8,9F,00,00,00,D0,00,40,74,
119470163,00000140,false,Rx,0,8,01,00,FF,FF,30,00,15,EE,
119470164,00000120,false,Rx,0,8,CB,FF,FF,FF,D0,00,59,90,
119471161,00000110,false,Rx,0,8,34,00,00,00,F0,00,40,6F,
119471163,00000130,false,Rx,0,8,D9,FF,FF,FF,E0,00,4E,E2,
119472133,00000100,false,Rx,0,8,71,00,00,00,E0,00,43,3A,
119472134,00000120,false,Rx,0,8,04,00,00,00,E0,00,48,5F,
119473129,00000110,false,Rx,0,8,34,00,00,00,00,00,04,6F,
119473130,00000130,false,Rx,0,8,18,00,00,00,F0,00,47,C3,
119474134,00000100,false,Rx,0,8,71,00,00,00,F0,00,4E,FA,
119474136,00000120,false,Rx,0,8,04,00,00,00,F0,00,45,9F,
119474136,00000110,false,Rx,0,8,62,00,00,00,10,00,05,99,
119475379,00000050,false,Rx,0,6,41,5C,FF,FB,5F,FF,00,00,
119475381,00000130,false,Rx,0,8,EB,95,FF,FF,03,80,1A,69,
119475381,00000100,false,Rx,0,8,71,00,00,00,00,00,0A,FA,
119477037,00000120,false,Rx,0,8,04,00,00,00,00,00,01,9F,
119477038,00000110,false,Rx,0,8,62,00,00,00,20,00,11,99,
119478008,00000130,false,Rx,0,8,56,00,00,00,10,00,01,ED,
119478009,00000100,false,Rx,0,8,5A,00,00,00,10,00,01,21,
119479162,00000120,false,Rx,0,8,04,00,00,00,10,00,0C,5F,
119479163,00000110,false,Rx,0,8,90,00,00,00,30,00,09,4B,
119479163,00000170,false,Rx,0,8,00,00,00,56,50,81,05,B9,
119480164,00000130,false,Rx,0,8,D9,FF,FF,FF,20,00,1E,E2,
119480165,00000100,false,Rx,0,8,43,00,00,00,20,00,17,28,
119481138,00000120,false,Rx,0,8,04,00,00,00,20,00,18,5F,
119481139,00000110,false,Rx,0,8,90,00,00,00,40,00,2C,8B,
119482130,00000130,false,Rx,0,8,D9,FF,FF,FF,30,00,13,22,
119482132,00000100,false,Rx,0,8,5A,00,00,00,30,00,18,E1,
119483290,00000120,false,Rx,0,8,04,00,00,00,30,00,15,9F,
119483291,00000110,false,Rx,0,8,62,00,00,00,50,00,34,59,
119484288,00000130,false,Rx,0,8,F8,FF,FF,FF,40,00,30,53,
119484289,00000100,false,Rx,0,8,71,00,00,00,40,00,3B,3A,
119485255,00000120,false,Rx,0,8,E7,FF,FF,FF,40,00,32,3C,
119485257,00000110,false,Rx,0,8,62,00,00,00,60,00,20,59,
119486267,00000130,false,Rx,0,8,18,00,00,00,50,00,3F,C3,
119486268,00000100,false,Rx,0,8,71,00,00,00,50,00,36,FA,
119487385,00000120,false,Rx,0,8,E7,FF,FF,FF,50,00,3F,FC,
119487387,00000110,false,Rx,0,8,4B,00,00,00,70,00,2A,60,
119488412,00000130,false,Rx,0,8,F8,FF,FF,FF,60,00,29,93,
119488413,00000100,false,Rx,0,8,88,00,00,00,60,00,36,93,
119489387,00000120,false,Rx,0,8,CB,FF,FF,FF,60,00,2C,50,
119489388,00000110,false,Rx,0,8,4B,00,00,00,80,00,6E,60,
119490381,00000130,false,Rx,0,8,18,00,00,00,70,00,26,03,
119490382,00000100,false,Rx,0,8,9F,00,00,00,70,00,38,74,
119490383,00000140,false,Rx,0,8,01,00,FF,FF,40,00,30,2E,
119491380,00000120,false,Rx,0,8,CB,FF,FF,FF,70,00,21,90,
119491382,00000110,false,Rx,0,8,4B,00,00,00,90,00,63,A0,
119492537,00000130,false,Rx,0,8,F8,FF,FF,FF,80,00,60,53,
119492539,00000100,false,Rx,0,8,88,00,00,00,80,00,7F,53,
119493534,00000120,false,Rx,0,8,04,00,00,00,80,00,60,5F,
119493535,00000110,false,Rx,0,8,4B,00,00,00,A0,00,77,A0,
119494514,00000130,false,Rx,0,8,F8,FF,FF,FF,90,00,6D,93,
119494516,00000100,false,Rx,0,8,71,00,00,00,90,00,66,FA,
119494516,00000120,false,Rx,0,8,04,00,00,00,90,00,6D,9F,
119495786,00000110,false,Rx,0,8,4B,00,00,00,B0,00,7A,60,
119495787,00000050,false,Rx,0,6,41,5C,FF,FB,5F,FF,00,00,
119495788,00000130,false,Rx,0,8,4C,BA,F5,FF,A3,80,AD,60,
119496765,00000100,false,Rx,0,8,5A,00,00,00,A0,00,74,E1,
119496767,00000120,false,Rx,0,8,04,00,00,00,A0,00,79,9F,
119497912,00000110,false,Rx,0,8,4B,00,00,00,C0,00,5F,A0,
119497914,00000130,false,Rx,0,8,B5,00,00,00,B0,00,6F,BE,
119498880,00000100,false,Rx,0,8,43,00,00,00,B0,00,7B,28,
119498882,00000120,false,Rx,0,8,04,00,00,00,B0,00,74,5F,
119499887,00000110,false,Rx,0,8,90,00,00,00,D0,00,40,8B,
119499888,00000130,false,Rx,0,8,D9,FF,FF,FF,C0,00,57,22,
119500887,00000100,false,Rx,0,8,43,00,00,00,C0,00,5E,E8,
119500888,00000120,false,Rx,0,8,04,00,00,00,C0,00,51,9F,
119502035,00000110,false,Rx,0,8,90,00,00,00,E0,00,54,8B,
119502036,00000130,false,Rx,0,8,D9,FF,FF,FF,D0,00,5A,E2,
119503039,00000100,false,Rx,0,8,71,00,00,00,D0,00,57,3A,
119503040,00000120,false,Rx,0,8,04,00,00,00,D0,00,5C,5F,
119504012,00000110,false,Rx,0,8,62,00,00,00,F0,00,4C,59,
119504013,00000130,false,Rx,0,8,F8,FF,FF,FF,E0,00,48,53,
119505031,00000100,false,Rx,0,8,5A,00,00,00,E0,00,45,21,
119505032,00000120,false,Rx,0,8,04,00,00,00,E0,00,48,5F,
119506159,00000110,false,Rx,0,8,62,00,00,00,00,00,08,59,
119506160,00000130,false,Rx,0,8,18,00,00,00,F0,00,47,C3,
119507138,00000100,false,Rx,0,8,71,00,00,00,F0,00,4E,FA,
119507139,00000120,false,Rx,0,8,04,00,00,00,F0,00,45,9F,
119508131,00000110,false,Rx,0,8,4B,00,00,00,10,00,02,60,
119508132,00000130,false,Rx,0,8,18,00,00,00,00,00,03,C3,
119509138,00000100,false,Rx,0,8,9F,00,00,00,00,00,1D,B4,
119509140,00000120,false,Rx,0,8,CB,FF,FF,FF,00,00,04,50,
119510135,00000110,false,Rx,0,8,4B,00,00,00,20,00,16,60,
119510137,00000130,false,Rx,0,8,18,00,00,00,10,00,0E,03,
119511287,00000100,false,Rx,0,8,88,00,00,00,10,00,13,53,
119511289,00000140,false,Rx,0,8,01,00,FF,FF,50,00,3D,EE,
119511289,00000120,false,Rx,0,8,CB,FF,FF,FF,10,00,09,90,
119512287,00000110,false,Rx,0,8,4B,00,00,00,30,00,1B,A0,
119512289,00000130,false,Rx,0,8,F8,FF,FF,FF,20,00,18,53,
119513265,00000100,false,Rx,0,8,88,00,00,00,20,00,07,53,
119513266,00000120,false,Rx,0,8,04,00,00,00,20,00,18,5F,
119514258,00000110,false,Rx,0,8,4B,00,00,00,40,00,3E,60,
119514260,00000130,false,Rx,0,8,37,00,00,00,30,00,10,5C,
119515412,00000100,false,Rx,0,8,71,00,00,00,30,00,1E,FA,
119515413,00000120,false,Rx,0,8,04,00,00,00,30,00,15,9F,
119515414,00000110,false,Rx,0,8,90,00,00,00,50,00,21,4B,
119516514,00000050,false,Rx,0,6,41,5C,FF,FB,5F,FF,00,00,
119516515,00000130,false,Rx,0,8,6C,21,00,00,43,80,85,E0,
119516516,00000100,false,Rx,0,8,5A,00,00,00,40,00,3D,21,
119518154,00000120,false,Rx,0,8,04,00,00,00,40,00,30,5F,
119518156,00000110,false,Rx,0,8,90,00,00,00,60,00,35,4B,
119519287,00000130,false,Rx,0,8,D9,FF,FF,FF,50,00,3B,22,
119519289,00000100,false,Rx,0,8,43,00,00,00,50,00,32,E8,
119520288,00000120,false,Rx,0,8,04,00,00,00,50,00,3D,9F,
119520290,00000110,false,Rx,0,8,A7,00,00,00,70,00,3C,CC,
119521255,00000130,false,Rx,0,8,18,00,00,00,60,00,2B,C3,
119521257,00000100,false,Rx,0,8,43,00,00,00,60,00,26,E8,
119522245,00000120,false,Rx,0,8,04,00,00,00,60,00,29,9F,
119522247,00000110,false,Rx,0,8,A7,00,00,00,80,00,78,CC,
119523256,00000130,false,Rx,0,8,F8,FF,FF,FF,70,00,24,53,
119523258,00000100,false,Rx,0,8,5A,00,00,00,70,00,29,21,
119524413,00000120,false,Rx,0,8,04,00,00,00,70,00,24,5F,
119524414,00000110,false,Rx,0,8,62,00,00,00,90,00,64,59,
119525413,00000130,false,Rx,0,8,F8,FF,FF,FF,80,00,60,53,
119525415,00000100,false,Rx,0,8,5A,00,00,00,80,00,6D,21,
119526389,00000120,false,Rx,0,8,04,00,00,00,80,00,60,5F,
119526390,00000110,false,Rx,0,8,62,00,00,00,A0,00,70,59,
119527379,00000130,false,Rx,0,8,F8,FF,FF,FF,90,00,6D,93,
119527381,00000100,false,Rx,0,8,71,00,00,00,90,00,66,FA,
119528545,00000120,false,Rx,0,8,04,00,00,00,90,00,6D,9F,
119528547,00000110,false,Rx,0,8,4B,00,00,00,B0,00,7A,60,
119529538,00000130,false,Rx,0,8,D9,FF,FF,FF,A0,00,7F,22,
119529540,00000100,false,Rx,0,8,9F,00,00,00,A0,00,65,B4,
119530514,00000120,false,Rx,0,8,E7,FF,FF,FF,A0,00,7B,FC,
119530515,00000110,false,Rx,0,8,4B,00,00,00,C0,00,5F,A0,
119531513,00000130,false,Rx,0,8,B9,FF,FF,FF,B0,00,7B,42,
119531514,00000100,false,Rx,0,8,88,00,00,00,B0,00,6B,53,
119531515,00000140,false,Rx,0,8,01,00,FF,FF,60,00,29,EE,
119532513,00000120,false,Rx,0,8,E7,FF,FF,FF,B0,00,76,3C,
119532515,00000110,false,Rx,0,8,4B,00,00,00,D0,00,52,60,
119533636,00000130,false,Rx,0,8,D9,FF,FF,FF,C0,00,57,22,
119533638,00000100,false,Rx,0,8,71,00,00,00,C0,00,5A,FA,
119534630,00000120,false,Rx,0,8,04,00,00,00,C0,00,51,9F,
119534632,00000110,false,Rx,0,8,4B,00,00,00,E0,00,46,60,
119535618,00000130,false,Rx,0,8,18,00,00,00,D0,00,5E,03,
119535620,00000100,false,Rx,0,8,5A,00,00,00,D0,00,51,21,
119535620,00000120,false,Rx,0,8,04,00,00,00,D0,00,5C,5F,
119536882,00000110,false,Rx,0,8,A7,00,00,00,F0,00,5D,0C,
119536884,00000050,false,Rx,0,6,41,5C,FF,FB,5F,FF,00,00,
119536884,00000130,false,Rx,0,8,D8,34,03,00,E3,80,EB,D3,
119537880,00000100,false,Rx,0,8,43,00,00,00,E0,00,47,28,
119537881,00000120,false,Rx,0,8,3D,00,00,00,E0,00,4D,36,
119539006,00000110,false,Rx,0,8,A7,00,00,00,00,00,19,0C,
119539008,00000130,false,Rx,0,8,D9,FF,FF,FF,F0,00,43,22,
119540005,00000100,false,Rx,0,8,43,00,00,00,F0,00,4A,E8,
119540008,00000120,false,Rx,0,8,3D,00,00,00,F0,00,40,F6,
119541005,00000110,false,Rx,0,8,79,00,00,00,10,00,06,72,
119541007,00000130,false,Rx,0,8,F8,FF,FF,FF,00,00,01,93,
119542130,00000100,false,Rx,0,8,5A,00,00,00,00,00,0C,E1,
119542131,00000120,false,Rx,0,8,20,00,00,00,00,00,07,7B,
119543130,00000110,false,Rx,0,8,79,00,00,00,20,00,12,72,
119543132,00000130,false,Rx,0,8,18,00,00,00,10,00,0E,03,
119544131,00000100,false,Rx,0,8,71,00,00,00,10,00,07,3A,
119544132,00000120,false,Rx,0,8,20,00,00,00,10,00,0A,BB,
119545131,00000110,false,Rx,0,8,79,00,00,00,30,00,1F,B2,
119545132,00000130,false,Rx,0,8,F8,FF,FF,FF,20,00,18,53,
119546128,00000100,false,Rx,0,8,71,00,00,00,20,00,13,3A,
119546130,00000120,false,Rx,0,8,E7,FF,FF,FF,20,00,1A,3C,
119547256,00000110,false,Rx,0,8,79,00,00,00,40,00,3A,72,
119547257,00000130,false,Rx,0,8,18,00,00,00,30,00,17,C3,
119548253,00000100,false,Rx,0,8,88,00,00,00,30,00,0A,93,
119548255,00000120,false,Rx,0,8,E7,FF,FF,FF,30,00,17,FC,
119549255,00000110,false,Rx,0,8,34,00,00,00,50,00,38,6F,
119549256,00000130,false,Rx,0,8,F8,FF,FF,FF,40,00,30,53,
119550257,00000100,false,Rx,0,8,9F,00,00,00,40,00,2C,74,
119550258,00000120,false,Rx,0,8,E7,FF,FF,FF,40,00,32,3C,
119551380,00000110,false,Rx,0,8,34,00,00,00,60,00,2C,6F,
119551381,00000130,false,Rx,0,8,18,00,00,00,50,00,3F,C3,
119552382,00000100,false,Rx,0,8,88,00,00,00,50,00,22,93,
119552384,00000140,false,Rx,0,8,01,00,FF,FF,70,00,24,2E,
119552384,00000120,false,Rx,0,8,E7,FF,FF,FF,50,00,3F,FC,
119553378,00000110,false,Rx,0,8,62,00,00,00,70,00,2D,99,
119553379,00000130,false,Rx,0,8,18,00,00,00,60,00,2B,C3,
119554380,00000100,false,Rx,0,8,71,00,00,00,60,00,22,FA,
119554381,00000120,false,Rx,0,8,E7,FF,FF,FF,60,00,2B,FC,
119555506,00000110,false,Rx,0,8,62,00,00,00,80,00,69,99,
119555507,00000130,false,Rx,0,8,D9,FF,FF,FF,70,00,22,E2,
119556506,00000100,false,Rx,0,8,71,00,00,00,70,00,2F,3A,
119556507,00000120,false,Rx,0,8,E7,FF,FF,FF,70,00,26,3C,
119556508,00000110,false,Rx,0,8,62,00,00,00,90,00,64,59,
119557619,00000050,false,Rx,0,6,41,5C,FF,FB,5F,FF,00,00,
119557620,00000130,false,Rx,0,8,EB,95,FF,FF,83,80,7B,A9,
119557620,00000100,false,Rx,0,8,5A,00,00,00,80,00,6D,21,
119559254,00000120,false,Rx,0,8,3D,00,00,00,80,00,65,36,
119559255,00000110,false,Rx,0,8,62,00,00,00,A0,00,70,59,
119560381,00000130,false,Rx,0,8,95,00,00,00,90,00,71,1E,
119560382,00000100,false,Rx,0,8,2C,00,00,00,90,00,6B,B7,
119561379,00000120,false,Rx,0,8,3D,00,00,00,90,00,68,F6,
119561381,00000110,false,Rx,0,8,90,00,00,00,B0,00,68,8B,
119562380,00000130,false,Rx,0,8,F8,FF,FF,FF,A0,00,79,93,
119562381,00000100,false,Rx,0,8,71,00,00,00,A0,00,72,FA,
119563381,00000120,false,Rx,0,8,04,00,00,00,A0,00,79,9F,
119563382,00000110,false,Rx,0,8,90,00,00,00,C0,00,4D,4B,
119564381,00000130,false,Rx,0,8,18,00,00,00,B0,00,76,03,
119564382,00000100,false,Rx,0,8,5A,00,00,00,B0,00,79,21,
119565505,00000120,false,Rx,0,8,04,00,00,00,B0,00,74,5F,
119565507,00000110,false,Rx,0,8,79,00,00,00,D0,00,56,72,
119566505,00000130,false,Rx,0,8,F8,FF,FF,FF,C0,00,51,93,
119566507,00000100,false,Rx,0,8,71,00,00,00,C0,00,5A,FA,
119567503,00000120,false,Rx,0,8,E7,FF,FF,FF,C0,00,53,FC,
119567504,00000110,false,Rx,0,8,79,00,00,00,E0,00,42,72,
119568506,00000130,false,Rx,0,8,F8,FF,FF,FF,D0,00,5C,53,
119568507,00000100,false,Rx,0,8,9F,00,00,00,D0,00,40,74,
119569618,00000120,false,Rx,0,8,E7,FF,FF,FF,D0,00,5E,3C,
119569619,00000110,false,Rx,0,8,1D,00,00,00,F0,00,47,96,
119570630,00000130,false,Rx,0,8,D9,FF,FF,FF,E0,00,4E,E2,
119570631,00000100,false,Rx,0,8,9F,00,00,00,E0,00,54,74,
119571618,00000120,false,Rx,0,8,E7,FF,FF,FF,E0,00,4A,3C,
119571620,00000110,false,Rx,0,8,1D,00,00,00,00,00,03,96,
119572630,00000130,false,Rx,0,8,D9,FF,FF,FF,F0,00,43,22,
119572631,00000100,false,Rx,0,8,88,00,00,00,F0,00,5A,93,
119572632,00000140,false,Rx,0,8,01,00,FF,FF,80,00,60,2E,
119573755,00000120,false,Rx,0,8,E7,FF,FF,FF,F0,00,47,FC,
119573757,00000110,false,Rx,0,8,62,00,00,00,10,00,05,99,
119574753,00000130,false,Rx,0,8,F8,FF,FF,FF,00,00,01,93,
119574754,00000100,false,Rx,0,8,5A,00,00,00,00,00,0C,E1,
119575754,00000120,false,Rx,0,8,04,00,00,00,00,00,01,9F,
119575756,00000110,false,Rx,0,8,62,00,00,00,20,00,11,99,
119576757,00000130,false,Rx,0,8,18,00,00,00,10,00,0E,03,
119576758,00000100,false,Rx,0,8,71,00,00,00,10,00,07,3A,
119576758,00000120,false,Rx,0,8,04,00,00,00,10,00,0C,5F,
119578007,00000110,false,Rx,0,8,79,00,00,00,30,00,1F,B2,
119578008,00000050,false,Rx,0,6,41,5C,FF,FB,5F,FF,00,00,
119578009,00000130,false,Rx,0,8,0D,BA,F5,FF,23,80,C3,B1,
119578988,00000100,false,Rx,0,8,5A,00,00,00,20,00,15,21,
119578989,00000120,false,Rx,0,8,20,00,00,00,20,00,1E,BB,
119580104,00000110,false,Rx,0,8,79,00,00,00,40,00,3A,72,
119580105,00000130,false,Rx,0,8,B5,00,00,00,30,00,0E,7E,
119581102,00000100,false,Rx,0,8,43,00,00,00,30,00,1A,E8,
119581103,00000120,false,Rx,0,8,20,00,00,00,30,00,13,7B,
119582102,00000110,false,Rx,0,8,79,00,00,00,50,00,37,B2,
119582103,00000170,false,Rx,0,8,00,00,00,57,50,81,05,24,
119582103,00000130,false,Rx,0,8,18,00,00,00,40,00,32,03,
119583225,00000100,false,Rx,0,8,71,00,00,00,40,00,3B,3A,
119583226,00000120,false,Rx,0,8,04,00,00,00,40,00,30,5F,
119584226,00000110,false,Rx,0,8,79,00,00,00,60,00,23,B2,
119584227,00000130,false,Rx,0,8,F8,FF,FF,FF,50,00,3D,93,
119585252,00000100,false,Rx,0,8,5A,00,00,00,50,00,30,E1,
119585253,00000120,false,Rx,0,8,04,00,00,00,50,00,3D,9F,
119586251,00000110,false,Rx,0,8,62,00,00,00,70,00,2D,99,
119586253,00000130,false,Rx,0,8,18,00,00,00,60,00,2B,C3,
119587254,00000100,false,Rx,0,8,71,00,00,00,60,00,22,FA,
119587255,00000120,false,Rx,0,8,CB,FF,FF,FF,60,00,2C,50,
119588379,00000110,false,Rx,0,8,62,00,00,00,80,00,69,99,
119588381,00000130,false,Rx,0,8,18,00,00,00,70,00,26,03,
119589369,00000100,false,Rx,0,8,9F,00,00,00,70,00,38,74,
119589370,00000120,false,Rx,0,8,CB,FF,FF,FF,70,00,21,90,
119590357,00000110,false,Rx,0,8,34,00,00,00,90,00,68,6F,
119590358,00000130,false,Rx,0,8,D9,FF,FF,FF,80,00,66,E2,
119591380,00000100,false,Rx,0,8,88,00,00,00,80,00,7F,53,
119591382,00000120,false,Rx,0,8,E7,FF,FF,FF,80,00,62,3C,
119592504,00000110,false,Rx,0,8,34,00,00,00,A0,00,7C,6F,
119592505,00000130,false,Rx,0,8,F8,FF,FF,FF,90,00,6D,93,
119593504,00000100,false,Rx,0,8,71,00,00,00,90,00,66,FA,
119593505,00000140,false,Rx,0,8,01,00,FF,FF,90,00,6D,EE,
119593505,00000120,false,Rx,0,8,E7,FF,FF,FF,90,00,6F,FC,
119594504,00000110,false,Rx,0,8,62,00,00,00,B0,00,7D,99,
119594505,00000130,false,Rx,0,8,F8,FF,FF,FF,A0,00,79,93,
119595505,00000100,false,Rx,0,8,5A,00,00,00,A0,00,74,E1,
119595506,00000120,false,Rx,0,8,04,00,00,00,A0,00,79,9F,
119596618,00000110,false,Rx,0,8,62,00,00,00,C0,00,58,59,
119596619,00000130,false,Rx,0,8,18,00,00,00,B0,00,76,03,
119597617,00000100,false,Rx,0,8,5A,00,00,00,B0,00,79,21,
119597618,00000120,false,Rx,0,8,04,00,00,00,B0,00,74,5F,
119597619,00000110,false,Rx,0,8,A7,00,00,00,D0,00,44,CC,
119598746,00000050,false,Rx,0,6,41,5C,FF,FB,5F,FF,00,00,
119598747,00000130,false,Rx,0,8,6C,21,00,00,C3,80,E4,20,
119598748,00000100,false,Rx,0,8,43,00,00,00,C0,00,5E,E8,
119600377,00000120,false,Rx,0,8,3D,00,00,00,C0,00,54,F6,
119600379,00000110,false,Rx,0,8,A7,00,00,00,E0,00,50,CC,
119601503,00000130,false,Rx,0,8,18,00,00,00,D0,00,5E,03,
119601504,00000100,false,Rx,0,8,5A,00,00,00,D0,00,51,21,
119602504,00000120,false,Rx,0,8,3D,00,00,00,D0,00,59,36,
119602506,00000110,false,Rx,0,8,79,00,00,00,F0,00,4F,B2,
119603504,00000130,false,Rx,0,8,18,00,00,00,E0,00,4A,03,
119603506,00000100,false,Rx,0,8,71,00,00,00,E0,00,43,3A,
119604505,00000120,false,Rx,0,8,04,00,00,00,E0,00,48,5F,
