Time Stamp,ID,Extended,Dir,Bus,LEN,D1,D2,D3,D4,D5,D6,D7,D8
306102089,00000130,false,Rx,0,8,18,00,00,00,70,00,26,03,
306102090,00000100,false,Rx,0,8,86,00,00,00,70,00,3A,7D,
306103224,00000120,false,Rx,0,8,F1,FF,FF,FF,40,00,30,CA,
306103226,00000110,false,Rx,0,8,46,00,00,00,90,00,62,BD,
306104245,00000130,false,Rx,0,8,F8,FF,FF,FF,80,00,60,53,
306104246,00000100,false,Rx,0,8,6F,00,00,00,80,00,68,84,
306105222,00000120,false,Rx,0,8,F1,FF,FF,FF,50,00,3D,0A,
306105223,00000110,false,Rx,0,8,46,00,00,00,A0,00,76,BD,
306106223,00000130,false,Rx,0,8,F8,FF,FF,FF,90,00,6D,93,
306106224,00000100,false,Rx,0,8,6F,00,00,00,90,00,65,44,
306106224,00000140,false,Rx,0,8,01,00,FF,FF,90,00,6D,EE,
306107374,00000120,false,Rx,0,8,F1,FF,FF,FF,60,00,29,0A,
306107376,00000110,false,Rx,0,8,5D,00,00,00,B0,00,78,96,
306108365,00000130,false,Rx,0,8,F8,FF,FF,FF,A0,00,79,93,
306108366,00000100,false,Rx,0,8,6F,00,00,00,A0,00,71,44,
306109373,00000120,false,Rx,0,8,0E,00,00,00,70,00,24,F5,
306109374,00000110,false,Rx,0,8,5D,00,00,00,C0,00,5D,56,
306110346,00000130,false,Rx,0,8,D9,FF,FF,FF,B0,00,72,E2,
306110348,00000100,false,Rx,0,8,58,00,00,00,B0,00,78,C3,
306110348,00000150,false,Rx,0,4,FD,F4,40,A7,00,00,00,00,
306110349,00000120,false,Rx,0,8,0E,00,00,00,80,00,60,F5,
306111573,00000110,false,Rx,0,8,8B,00,00,00,D0,00,43,60,
306111575,00000050,false,Rx,0,6,40,54,FF,FF,DF,FF,00,00,
306111576,00000130,false,Rx,0,8,48,21,00,00,C3,80,E2,C4,
306112589,00000100,false,Rx,0,8,41,00,00,00,C0,00,5F,0A,
306112591,00000120,false,Rx,0,8,0E,00,00,00,90,00,6D,35,
306113589,00000110,false,Rx,0,8,8B,00,00,00,E0,00,57,60,
306113590,00000130,false,Rx,0,8,D9,FF,FF,FF,D0,00,5A,E2,
306114706,00000100,false,Rx,0,8,6F,00,00,00,D0,00,54,84,
306114707,00000120,false,Rx,0,8,0E,00,00,00,A0,00,79,35,
306115684,00000110,false,Rx,0,8,5D,00,00,00,F0,00,49,56,
306115685,00000130,false,Rx,0,8,D9,FF,FF,FF,E0,00,4E,E2,
306116681,00000100,false,Rx,0,8,6F,00,00,00,E0,00,40,84,
306116681,00000120,false,Rx,0,8,F1,FF,FF,FF,B0,00,74,CA,
306117806,00000110,false,Rx,0,8,5D,00,00,00,00,00,0D,56,
306117806,00000130,false,Rx,0,8,F8,FF,FF,FF,F0,00,45,93,
306118834,00000100,false,Rx,0,8,6F,00,00,00,F0,00,4D,44,
306118835,00000120,false,Rx,0,8,F1,FF,FF,FF,C0,00,51,0A,
306119834,00000110,false,Rx,0,8,5D,00,00,00,10,00,00,96,
306119835,00000130,false,Rx,0,8,F8,FF,FF,FF,00,00,01,93,
306120833,00000100,false,Rx,0,8,6F,00,00,00,00,00,09,44,
306120835,00000120,false,Rx,0,8,F1,FF,FF,FF,D0,00,5C,CA,
963,00000110,false,Rx,0,8,5D,00,00,00,20,00,14,96,
964,00000130,false,Rx,0,8,D9,FF,FF,FF,10,00,0A,E2,
1946,00000100,false,Rx,0,8,86,00,00,00,10,00,12,7D,
1947,00000120,false,Rx,0,8,F1,FF,FF,FF,E0,00,48,CA,
2956,00000110,false,Rx,0,8,5D,00,00,00,30,00,19,56,
2957,00000130,false,Rx,0,8,D9,FF,FF,FF,20,00,1E,E2,
3987,00000100,false,Rx,0,8,6F,00,00,00,20,00,10,84,
3989,00000120,false,Rx,0,8,0E,00,00,00,F0,00,45,35,
4958,00000110,false,Rx,0,8,5D,00,00,00,40,00,3C,96,
4959,00000130,false,Rx,0,8,18,00,00,00,30,00,17,C3,
6092,00000100,false,Rx,0,8,6F,00,00,00,30,00,1D,44,
6094,00000140,false,Rx,0,8,01,00,FF,FF,A0,00,79,EE,
6094,00000120,false,Rx,0,8,0E,00,00,00,00,00,01,35,
7095,00000110,false,Rx,0,8,5D,00,00,00,50,00,31,56,
7097,00000130,false,Rx,0,8,F8,FF,FF,FF,40,00,30,53,
8093,00000100,false,Rx,0,8,6F,00,00,00,40,00,38,84,
8094,00000120,false,Rx,0,8,0E,00,00,00,10,00,0C,F5,
9087,00000110,false,Rx,0,8,5D,00,00,00,60,00,25,56,
9089,00000150,false,Rx,0,4,FD,F4,40,A7,00,00,00,00,
9089,00000130,false,Rx,0,8,37,00,00,00,50,00,38,5C,
10067,00000100,false,Rx,0,8,58,00,00,00,50,00,31,03,
10068,00000120,false,Rx,0,8,0E,00,00,00,20,00,18,F5,
10069,00000110,false,Rx,0,8,A2,00,00,00,70,00,3C,99,
11309,00000050,false,Rx,0,6,40,54,FF,FF,DF,FF,00,00,
11310,00000130,false,Rx,0,8,3D,34,03,00,63,80,9C,26,
11310,00000100,false,Rx,0,8,41,00,00,00,60,00,27,0A,
12934,00000120,false,Rx,0,8,0E,00,00,00,30,00,15,35,
12934,00000110,false,Rx,0,8,A2,00,00,00,80,00,78,99,
13932,00000130,false,Rx,0,8,F8,FF,FF,FF,70,00,24,53,
13933,00000100,false,Rx,0,8,58,00,00,00,70,00,28,C3,
15089,00000120,false,Rx,0,8,0E,00,00,00,40,00,30,F5,
15091,00000110,false,Rx,0,8,5D,00,00,00,90,00,61,56,
16090,00000130,false,Rx,0,8,F8,FF,FF,FF,80,00,60,53,
16091,00000100,false,Rx,0,8,6F,00,00,00,80,00,68,84,
17091,00000120,false,Rx,0,8,F1,FF,FF,FF,50,00,3D,0A,
17093,00000110,false,Rx,0,8,5D,00,00,00,A0,00,75,56,
18090,00000130,false,Rx,0,8,18,00,00,00,90,00,6F,C3,
18091,00000100,false,Rx,0,8,6F,00,00,00,90,00,65,44,
19215,00000120,false,Rx,0,8,F1,FF,FF,FF,60,00,29,0A,
19216,00000110,false,Rx,0,8,5D,00,00,00,B0,00,78,96,
20216,00000130,false,Rx,0,8,18,00,00,00,A0,00,7B,C3,
20217,00000100,false,Rx,0,8,6F,00,00,00,A0,00,71,44,
21215,00000120,false,Rx,0,8,F1,FF,FF,FF,70,00,24,CA,
21216,00000110,false,Rx,0,8,5D,00,00,00,C0,00,5D,56,
22215,00000130,false,Rx,0,8,18,00,00,00,B0,00,76,03,
22217,00000100,false,Rx,0,8,9D,00,00,00,B0,00,69,96,
23340,00000120,false,Rx,0,8,F1,FF,FF,FF,80,00,60,CA,
23341,00000110,false,Rx,0,8,5D,00,00,00,D0,00,50,96,
24340,00000130,false,Rx,0,8,18,00,00,00,C0,00,53,C3,
24341,00000100,false,Rx,0,8,6F,00,00,00,C0,00,59,44,
25335,00000120,false,Rx,0,8,F1,FF,FF,FF,90,00,6D,0A,
25337,00000110,false,Rx,0,8,5D,00,00,00,E0,00,44,96,
26339,00000130,false,Rx,0,8,18,00,00,00,D0,00,5E,03,
26340,00000100,false,Rx,0,8,6F,00,00,00,D0,00,54,84,
26341,00000140,false,Rx,0,8,01,00,FF,FF,B0,00,74,2E,
27338,00000120,false,Rx,0,8,F1,FF,FF,FF,A0,00,79,0A,
27339,00000110,false,Rx,0,8,5D,00,00,00,F0,00,49,56,
28463,00000130,false,Rx,0,8,D9,FF,FF,FF,E0,00,4E,E2,
28464,00000100,false,Rx,0,8,58,00,00,00,E0,00,44,C3,
29462,00000120,false,Rx,0,8,0E,00,00,00,B0,00,74,F5,
29463,00000110,false,Rx,0,8,5D,00,00,00,00,00,0D,56,
29464,00000150,false,Rx,0,4,FD,F4,40,A7,00,00,00,00,
30463,00000130,false,Rx,0,8,37,00,00,00,F0,00,40,5C,
30464,00000100,false,Rx,0,8,58,00,00,00,F0,00,49,03,
30466,00000120,false,Rx,0,8,0E,00,00,00,C0,00,51,35,
31709,00000110,false,Rx,0,8,74,00,00,00,10,00,07,6F,
31710,00000050,false,Rx,0,6,40,54,FF,FF,DF,FF,00,00,
31710,00000130,false,Rx,0,8,FB,95,FF,FF,03,80,18,F9,
32710,00000100,false,Rx,0,8,58,00,00,00,00,00,0D,03,
32711,00000120,false,Rx,0,8,F1,FF,FF,FF,D0,00,5C,CA,
33708,00000110,false,Rx,0,8,74,00,00,00,20,00,13,6F,
33709,00000130,false,Rx,0,8,76,00,00,00,10,00,06,8D,
34834,00000100,false,Rx,0,8,6F,00,00,00,10,00,04,84,
34835,00000120,false,Rx,0,8,F1,FF,FF,FF,E0,00,48,CA,
35836,00000110,false,Rx,0,8,5D,00,00,00,30,00,19,56,
35837,00000170,false,Rx,0,8,00,00,00,5E,50,81,05,25,
35837,00000130,false,Rx,0,8,F8,FF,FF,FF,20,00,18,53,
36835,00000100,false,Rx,0,8,86,00,00,00,20,00,06,7D,
36837,00000120,false,Rx,0,8,F1,FF,FF,FF,F0,00,45,0A,
37958,00000110,false,Rx,0,8,5D,00,00,00,40,00,3C,96,
37959,00000130,false,Rx,0,8,F8,FF,FF,FF,30,00,15,93,
38959,00000100,false,Rx,0,8,6F,00,00,00,30,00,1D,44,
38960,00000120,false,Rx,0,8,F1,FF,FF,FF,00,00,01,0A,
39959,00000110,false,Rx,0,8,5D,00,00,00,50,00,31,56,
39960,00000130,false,Rx,0,8,18,00,00,00,40,00,32,03,
40957,00000100,false,Rx,0,8,86,00,00,00,40,00,2E,7D,
40958,00000120,false,Rx,0,8,D5,FF,FF,FF,10,00,0A,2E,
41958,00000110,false,Rx,0,8,5D,00,00,00,60,00,25,56,
41959,00000130,false,Rx,0,8,37,00,00,00,50,00,38,5C,
43071,00000100,false,Rx,0,8,6F,00,00,00,50,00,35,44,
43072,00000120,false,Rx,0,8,D5,FF,FF,FF,20,00,1E,2E,
44060,00000110,false,Rx,0,8,5D,00,00,00,70,00,28,96,
44061,00000130,false,Rx,0,8,F8,FF,FF,FF,60,00,29,93,
45056,00000100,false,Rx,0,8,6F,00,00,00,60,00,21,44,
45057,00000120,false,Rx,0,8,0E,00,00,00,30,00,15,35,
46092,00000110,false,Rx,0,8,5D,00,00,00,80,00,6C,96,
46094,00000130,false,Rx,0,8,37,00,00,00,70,00,21,9C,
47089,00000100,false,Rx,0,8,58,00,00,00,70,00,28,C3,
47091,00000140,false,Rx,0,8,01,00,FF,FF,C0,00,51,EE,
47091,00000120,false,Rx,0,8,0E,00,00,00,40,00,30,F5,
48217,00000110,false,Rx,0,8,5D,00,00,00,90,00,61,56,
48218,00000130,false,Rx,0,8,F8,FF,FF,FF,80,00,60,53,
49217,00000100,false,Rx,0,8,6F,00,00,00,80,00,68,84,
49218,00000150,false,Rx,0,4,FD,F4,40,A7,00,00,00,00,
49219,00000120,false,Rx,0,8,F1,FF,FF,FF,50,00,3D,0A,
50212,00000110,false,Rx,0,8,5D,00,00,00,A0,00,75,56,
50213,00000130,false,Rx,0,8,18,00,00,00,90,00,6F,C3,
51215,00000100,false,Rx,0,8,58,00,00,00,90,00,61,03,
51216,00000120,false,Rx,0,8,F1,FF,FF,FF,60,00,29,0A,
51217,00000110,false,Rx,0,8,74,00,00,00,B0,00,7F,6F,
52458,00000050,false,Rx,0,6,40,54,FF,FF,DF,FF,00,00,
52459,00000130,false,Rx,0,8,36,BC,F5,FF,A3,80,2E,FA,
52460,00000100,false,Rx,0,8,6F,00,00,00,A0,00,71,44,
54090,00000120,false,Rx,0,8,0E,00,00,00,70,00,24,F5,
54091,00000110,false,Rx,0,8,74,00,00,00,C0,00,5A,AF,
55090,00000130,false,Rx,0,8,95,00,00,00,B0,00,68,DE,
55092,00000100,false,Rx,0,8,6F,00,00,00,B0,00,7C,84,
56189,00000120,false,Rx,0,8,0E,00,00,00,80,00,60,F5,
56190,00000110,false,Rx,0,8,5D,00,00,00,D0,00,50,96,
57197,00000130,false,Rx,0,8,F8,FF,FF,FF,C0,00,51,93,
57198,00000100,false,Rx,0,8,6F,00,00,00,C0,00,59,44,
58200,00000120,false,Rx,0,8,F1,FF,FF,FF,90,00,6D,0A,
58201,00000110,false,Rx,0,8,5D,00,00,00,E0,00,44,96,
59199,00000130,false,Rx,0,8,18,00,00,00,D0,00,5E,03,
59200,00000100,false,Rx,0,8,6F,00,00,00,D0,00,54,84,
60199,00000120,false,Rx,0,8,F1,FF,FF,FF,A0,00,79,0A,
60200,00000110,false,Rx,0,8,5D,00,00,00,F0,00,49,56,
61324,00000130,false,Rx,0,8,18,00,00,00,E0,00,4A,03,
61325,00000100,false,Rx,0,8,86,00,00,00,E0,00,56,7D,
62323,00000120,false,Rx,0,8,0E,00,00,00,B0,00,74,F5,
62324,00000110,false,Rx,0,8,5D,00,00,00,00,00,0D,56,
63325,00000130,false,Rx,0,8,18,00,00,00,F0,00,47,C3,
63325,00000100,false,Rx,0,8,86,00,00,00,F0,00,5B,BD,
64381,00000120,false,Rx,0,8,0E,00,00,00,C0,00,51,35,
64381,00000110,false,Rx,0,8,5D,00,00,00,10,00,00,96,
65548,00000130,false,Rx,0,8,F8,FF,FF,FF,00,00,01,93,
65549,00000100,false,Rx,0,8,6F,00,00,00,00,00,09,44,
66447,00000120,false,Rx,0,8,0E,00,00,00,D0,00,5C,F5,
66448,00000110,false,Rx,0,8,5D,00,00,00,20,00,14,96,
67447,00000130,false,Rx,0,8,18,00,00,00,10,00,0E,03,
67448,00000100,false,Rx,0,8,6F,00,00,00,10,00,04,84,
67448,00000140,false,Rx,0,8,01,00,FF,FF,D0,00,5C,2E,
68445,00000120,false,Rx,0,8,0E,00,00,00,E0,00,48,F5,
68446,00000110,false,Rx,0,8,5D,00,00,00,30,00,19,56,
69448,00000130,false,Rx,0,8,D9,FF,FF,FF,20,00,1E,E2,
69449,00000100,false,Rx,0,8,6F,00,00,00,20,00,10,84,
69450,00000150,false,Rx,0,4,FD,F4,40,A7,00,00,00,00,
70577,00000120,false,Rx,0,8,0E,00,00,00,F0,00,45,35,
70578,00000110,false,Rx,0,8,5D,00,00,00,40,00,3C,96,
71573,00000130,false,Rx,0,8,F8,FF,FF,FF,30,00,15,93,
71574,00000100,false,Rx,0,8,41,00,00,00,30,00,1B,0A,
71575,00000120,false,Rx,0,8,0E,00,00,00,00,00,01,35,
72824,00000110,false,Rx,0,8,A2,00,00,00,50,00,25,59,
72825,00000050,false,Rx,0,6,40,54,FF,FF,DF,FF,00,00,
72825,00000130,false,Rx,0,8,67,21,00,00,43,80,84,9B,
73824,00000100,false,Rx,0,8,6F,00,00,00,40,00,38,84,
73825,00000120,false,Rx,0,8,0E,00,00,00,10,00,0C,F5,
74823,00000110,false,Rx,0,8,A2,00,00,00,60,00,31,59,
74824,00000130,false,Rx,0,8,F8,FF,FF,FF,50,00,3D,93,
75950,00000100,false,Rx,0,8,6F,00,00,00,50,00,35,44,
75951,00000120,false,Rx,0,8,0E,00,00,00,20,00,18,F5,
76948,00000110,false,Rx,0,8,46,00,00,00,70,00,2B,7D,
76949,00000130,false,Rx,0,8,F8,FF,FF,FF,60,00,29,93,
77950,00000100,false,Rx,0,8,6F,00,00,00,60,00,21,44,
77951,00000120,false,Rx,0,8,F1,FF,FF,FF,30,00,15,0A,
78945,00000110,false,Rx,0,8,46,00,00,00,80,00,6F,7D,
78946,00000130,false,Rx,0,8,D9,FF,FF,FF,70,00,22,E2,
80074,00000100,false,Rx,0,8,6F,00,00,00,70,00,2C,84,
80075,00000120,false,Rx,0,8,F1,FF,FF,FF,40,00,30,CA,
81149,00000110,false,Rx,0,8,46,00,00,00,90,00,62,BD,
81150,00000130,false,Rx,0,8,18,00,00,00,80,00,62,03,
82073,00000100,false,Rx,0,8,86,00,00,00,80,00,7E,7D,
82074,00000120,false,Rx,0,8,F1,FF,FF,FF,50,00,3D,0A,
83072,00000110,false,Rx,0,8,46,00,00,00,A0,00,76,BD,
83073,00000130,false,Rx,0,8,F8,FF,FF,FF,90,00,6D,93,
84073,00000100,false,Rx,0,8,58,00,00,00,90,00,61,03,
84074,00000120,false,Rx,0,8,F1,FF,FF,FF,60,00,29,0A,
85226,00000110,false,Rx,0,8,5D,00,00,00,B0,00,78,96,
85226,00000130,false,Rx,0,8,F8,FF,FF,FF,A0,00,79,93,
86203,00000100,false,Rx,0,8,58,00,00,00,A0,00,75,03,
86204,00000120,false,Rx,0,8,0E,00,00,00,70,00,24,F5,
87281,00000110,false,Rx,0,8,5D,00,00,00,C0,00,5D,56,
87282,00000130,false,Rx,0,8,F8,FF,FF,FF,B0,00,74,53,
88195,00000100,false,Rx,0,8,58,00,00,00,B0,00,78,C3,
88196,00000140,false,Rx,0,8,01,00,FF,FF,E0,00,48,2E,
88196,00000120,false,Rx,0,8,0E,00,00,00,80,00,60,F5,
89326,00000110,false,Rx,0,8,5D,00,00,00,D0,00,50,96,
89327,00000150,false,Rx,0,4,FD,F4,40,A7,00,00,00,00,
89327,00000130,false,Rx,0,8,18,00,00,00,C0,00,53,C3,
90353,00000100,false,Rx,0,8,58,00,00,00,C0,00,5D,03,
90353,00000120,false,Rx,0,8,0E,00,00,00,90,00,6D,35,
91327,00000110,false,Rx,0,8,5D,00,00,00,E0,00,44,96,
91328,00000130,false,Rx,0,8,D9,FF,FF,FF,D0,00,5A,E2,
92352,00000100,false,Rx,0,8,41,00,00,00,D0,00,52,CA,
92353,00000120,false,Rx,0,8,0E,00,00,00,A0,00,79,35,
92353,00000110,false,Rx,0,8,8B,00,00,00,F0,00,5A,A0,
93601,00000050,false,Rx,0,6,40,54,FF,FF,DF,FF,00,00,
93602,00000130,false,Rx,0,8,5D,34,03,00,E3,80,F4,46,
93602,00000100,false,Rx,0,8,6F,00,00,00,E0,00,40,84,
95223,00000120,false,Rx,0,8,0E,00,00,00,B0,00,74,F5,
95224,00000110,false,Rx,0,8,8B,00,00,00,00,00,1E,A0,
96229,00000130,false,Rx,0,8,F8,FF,FF,FF,F0,00,45,93,
96230,00000100,false,Rx,0,8,58,00,00,00,F0,00,49,03,
97219,00000120,false,Rx,0,8,0E,00,00,00,C0,00,51,35,
97221,00000110,false,Rx,0,8,5D,00,00,00,10,00,00,96,
98370,00000130,false,Rx,0,8,F8,FF,FF,FF,00,00,01,93,
98372,00000100,false,Rx,0,8,6F,00,00,00,00,00,09,44,
99371,00000120,false,Rx,0,8,0E,00,00,00,D0,00,5C,F5,
99372,00000110,false,Rx,0,8,5D,00,00,00,20,00,14,96,
100338,00000130,false,Rx,0,8,D9,FF,FF,FF,10,00,0A,E2,
100339,00000100,false,Rx,0,8,6F,00,00,00,10,00,04,84,
101359,00000120,false,Rx,0,8,0E,00,00,00,E0,00,48,F5,
101361,00000110,false,Rx,0,8,46,00,00,00,30,00,1A,BD,
102458,00000130,false,Rx,0,8,F8,FF,FF,FF,20,00,18,53,
102459,00000100,false,Rx,0,8,86,00,00,00,20,00,06,7D,
103477,00000120,false,Rx,0,8,0E,00,00,00,F0,00,45,35,
103477,00000110,false,Rx,0,8,46,00,00,00,40,00,3F,7D,
104470,00000130,false,Rx,0,8,18,00,00,00,30,00,17,C3,
104471,00000100,false,Rx,0,8,6F,00,00,00,30,00,1D,44,
105452,00000120,false,Rx,0,8,0E,00,00,00,00,00,01,35,
105453,00000110,false,Rx,0,8,74,00,00,00,50,00,36,AF,
106620,00000130,false,Rx,0,8,F8,FF,FF,FF,40,00,30,53,
106621,00000100,false,Rx,0,8,58,00,00,00,40,00,3C,C3,
107623,00000120,false,Rx,0,8,0E,00,00,00,10,00,0C,F5,
107625,00000110,false,Rx,0,8,74,00,00,00,60,00,22,AF,
108596,00000130,false,Rx,0,8,D9,FF,FF,FF,50,00,3B,22,
108597,00000100,false,Rx,0,8,6F,00,00,00,50,00,35,44,
108598,00000140,false,Rx,0,8,01,00,FF,FF,F0,00,45,EE,
108599,00000150,false,Rx,0,4,FD,F4,40,A7,00,00,00,00,
109844,00000120,false,Rx,0,8,0E,00,00,00,20,00,18,F5,
109845,00000110,false,Rx,0,8,5D,00,00,00,70,00,28,96,
109845,00000130,false,Rx,0,8,D9,FF,FF,FF,60,00,2F,22,
110860,00000100,false,Rx,0,8,41,00,00,00,60,00,27,0A,
110861,00000120,false,Rx,0,8,0E,00,00,00,30,00,15,35,
111960,00000110,false,Rx,0,8,5D,00,00,00,80,00,6C,96,
111962,00000130,false,Rx,0,8,F8,FF,FF,FF,70,00,24,53,
112961,00000100,false,Rx,0,8,6F,00,00,00,70,00,2C,84,
112963,00000120,false,Rx,0,8,0E,00,00,00,40,00,30,F5,
112963,00000110,false,Rx,0,8,5D,00,00,00,90,00,61,56,
114082,00000050,false,Rx,0,6,40,54,FF,FF,DF,FF,00,00,
114083,00000130,false,Rx,0,8,FB,95,FF,FF,83,80,79,39,
114083,00000100,false,Rx,0,8,6F,00,00,00,80,00,68,84,
115705,00000120,false,Rx,0,8,0E,00,00,00,50,00,3D,35,
115706,00000110,false,Rx,0,8,5D,00,00,00,A0,00,75,56,
116850,00000130,false,Rx,0,8,95,00,00,00,90,00,71,1E,
116851,00000100,false,Rx,0,8,86,00,00,00,90,00,73,BD,
117831,00000120,false,Rx,0,8,0E,00,00,00,60,00,29,35,
117832,00000110,false,Rx,0,8,46,00,00,00,B0,00,7B,7D,
118808,00000130,false,Rx,0,8,F8,FF,FF,FF,A0,00,79,93,
118809,00000100,false,Rx,0,8,6F,00,00,00,A0,00,71,44,
119808,00000120,false,Rx,0,8,F1,FF,FF,FF,70,00,24,CA,
119809,00000110,false,Rx,0,8,46,00,00,00,C0,00,5E,BD,
120954,00000130,false,Rx,0,8,18,00,00,00,B0,00,76,03,
120955,00000100,false,Rx,0,8,86,00,00,00,B0,00,6A,7D,
121955,00000120,false,Rx,0,8,F1,FF,FF,FF,80,00,60,CA,
121955,00000110,false,Rx,0,8,46,00,00,00,D0,00,53,7D,
122941,00000130,false,Rx,0,8,F8,FF,FF,FF,C0,00,51,93,
122941,00000100,false,Rx,0,8,6F,00,00,00,C0,00,59,44,
123933,00000120,false,Rx,0,8,0E,00,00,00,90,00,6D,35,
123934,00000110,false,Rx,0,8,46,00,00,00,E0,00,47,7D,
124932,00000130,false,Rx,0,8,B9,FF,FF,FF,D0,00,53,42,
124933,00000100,false,Rx,0,8,6F,00,00,00,D0,00,54,84,
126090,00000120,false,Rx,0,8,0E,00,00,00,A0,00,79,35,
126091,00000110,false,Rx,0,8,5D,00,00,00,F0,00,49,56,
127102,00000130,false,Rx,0,8,F8,FF,FF,FF,E0,00,48,53,
127104,00000100,false,Rx,0,8,6F,00,00,00,E0,00,40,84,
128081,00000120,false,Rx,0,8,F1,FF,FF,FF,B0,00,74,CA,
128082,00000110,false,Rx,0,8,5D,00,00,00,00,00,0D,56,
129069,00000130,false,Rx,0,8,F8,FF,FF,FF,F0,00,45,93,
129070,00000100,false,Rx,0,8,6F,00,00,00,F0,00,4D,44,
129071,00000140,false,Rx,0,8,01,00,FF,FF,00,00,01,EE,
129072,00000150,false,Rx,0,4,FD,F4,40,A7,00,00,00,00,
130225,00000120,false,Rx,0,8,F1,FF,FF,FF,C0,00,51,0A,
130226,00000110,false,Rx,0,8,74,00,00,00,10,00,07,6F,
131226,00000130,false,Rx,0,8,18,00,00,00,00,00,03,C3,
131227,00000100,false,Rx,0,8,58,00,00,00,00,00,0D,03,
132204,00000120,false,Rx,0,8,0E,00,00,00,D0,00,5C,F5,
132205,00000110,false,Rx,0,8,74,00,00,00,20,00,13,6F,
133202,00000130,false,Rx,0,8,F8,FF,FF,FF,10,00,0C,53,
133203,00000100,false,Rx,0,8,58,00,00,00,10,00,00,C3,
133204,00000120,false,Rx,0,8,0E,00,00,00,E0,00,48,F5,
134453,00000110,false,Rx,0,8,5D,00,00,00,30,00,19,56,
134454,00000050,false,Rx,0,6,40,54,FF,FF,DF,FF,00,00,
134455,00000130,false,Rx,0,8,F7,BB,F5,FF,23,80,EA,2B,
135453,00000100,false,Rx,0,8,58,00,00,00,20,00,14,C3,
135453,00000120,false,Rx,0,8,F1,FF,FF,FF,F0,00,45,0A,
136604,00000110,false,Rx,0,8,5D,00,00,00,40,00,3C,96,
136605,00000130,false,Rx,0,8,95,00,00,00,30,00,09,1E,
137579,00000100,false,Rx,0,8,6F,00,00,00,30,00,1D,44,
137580,00000120,false,Rx,0,8,F1,FF,FF,FF,00,00,01,0A,
138584,00000110,false,Rx,0,8,5D,00,00,00,50,00,31,56,
138585,00000170,false,Rx,0,8,00,00,00,5F,50,81,05,B8,
138585,00000130,false,Rx,0,8,18,00,00,00,40,00,32,03,
139728,00000100,false,Rx,0,8,6F,00,00,00,40,00,38,84,
139729,00000120,false,Rx,0,8,F1,FF,FF,FF,10,00,0C,CA,
140722,00000110,false,Rx,0,8,5D,00,00,00,60,00,25,56,
140723,00000130,false,Rx,0,8,B9,FF,FF,FF,50,00,32,82,
141726,00000100,false,Rx,0,8,9D,00,00,00,50,00,20,56,
141728,00000120,false,Rx,0,8,F1,FF,FF,FF,20,00,18,CA,
142702,00000110,false,Rx,0,8,46,00,00,00,70,00,2B,7D,
142703,00000130,false,Rx,0,8,F8,FF,FF,FF,60,00,29,93,
143695,00000100,false,Rx,0,8,58,00,00,00,60,00,25,03,
143696,00000120,false,Rx,0,8,F1,FF,FF,FF,30,00,15,0A,
144827,00000110,false,Rx,0,8,46,00,00,00,80,00,6F,7D,
144828,00000130,false,Rx,0,8,18,00,00,00,70,00,26,03,
145827,00000100,false,Rx,0,8,58,00,00,00,70,00,28,C3,
145828,00000120,false,Rx,0,8,F1,FF,FF,FF,40,00,30,CA,
146828,00000110,false,Rx,0,8,5D,00,00,00,90,00,61,56,
146829,00000130,false,Rx,0,8,F8,FF,FF,FF,80,00,60,53,
147808,00000100,false,Rx,0,8,58,00,00,00,80,00,6C,C3,
147809,00000120,false,Rx,0,8,F1,FF,FF,FF,50,00,3D,0A,
148811,00000110,false,Rx,0,8,5D,00,00,00,A0,00,75,56,
148812,00000150,false,Rx,0,4,FD,F4,40,A7,00,00,00,00,
148813,00000130,false,Rx,0,8,18,00,00,00,90,00,6F,C3,
149947,00000100,false,Rx,0,8,6F,00,00,00,90,00,65,44,
149947,00000140,false,Rx,0,8,01,00,FF,FF,10,00,0C,2E,
149948,00000120,false,Rx,0,8,F1,FF,FF,FF,60,00,29,0A,
149949,00000110,false,Rx,0,8,74,00,00,00,B0,00,7F,6F,
151702,00000130,false,Rx,0,8,D9,FF,FF,FF,A0,00,7F,22,
151703,00000100,false,Rx,0,8,41,00,00,00,A0,00,77,0A,
152695,00000120,false,Rx,0,8,0E,00,00,00,70,00,24,F5,
152696,00000110,false,Rx,0,8,74,00,00,00,C0,00,5A,AF,
153829,00000130,false,Rx,0,8,18,00,00,00,B0,00,76,03,
153830,00000100,false,Rx,0,8,58,00,00,00,B0,00,78,C3,
153830,00000120,false,Rx,0,8,0E,00,00,00,80,00,60,F5,
155098,00000110,false,Rx,0,8,8B,00,00,00,D0,00,43,60,
155099,00000050,false,Rx,0,6,40,54,FF,FF,DF,FF,00,00,
155100,00000130,false,Rx,0,8,48,21,00,00,C3,80,E2,C4,
156098,00000100,false,Rx,0,8,58,00,00,00,C0,00,5D,03,
156099,00000120,false,Rx,0,8,F1,FF,FF,FF,90,00,6D,0A,
157108,00000110,false,Rx,0,8,8B,00,00,00,E0,00,57,60,
157109,00000130,false,Rx,0,8,F8,FF,FF,FF,D0,00,5C,53,
158067,00000100,false,Rx,0,8,6F,00,00,00,D0,00,54,84,
158068,00000120,false,Rx,0,8,F1,FF,FF,FF,A0,00,79,0A,
159223,00000110,false,Rx,0,8,5D,00,00,00,F0,00,49,56,
159223,00000130,false,Rx,0,8,18,00,00,00,E0,00,4A,03,
160224,00000100,false,Rx,0,8,6F,00,00,00,E0,00,40,84,
160225,00000120,false,Rx,0,8,F1,FF,FF,FF,B0,00,74,CA,
161202,00000110,false,Rx,0,8,5D,00,00,00,00,00,0D,56,
161202,00000130,false,Rx,0,8,F8,FF,FF,FF,F0,00,45,93,
162193,00000100,false,Rx,0,8,86,00,00,00,F0,00,5B,BD,
162194,00000120,false,Rx,0,8,F1,FF,FF,FF,C0,00,51,0A,
163349,00000110,false,Rx,0,8,74,00,00,00,10,00,07,6F,
163350,00000130,false,Rx,0,8,F8,FF,FF,FF,00,00,01,93,
164351,00000100,false,Rx,0,8,86,00,00,00,00,00,1F,BD,
164351,00000120,false,Rx,0,8,F1,FF,FF,FF,D0,00,5C,CA,
165353,00000110,false,Rx,0,8,74,00,00,00,20,00,13,6F,
165354,00000130,false,Rx,0,8,18,00,00,00,10,00,0E,03,
166319,00000100,false,Rx,0,8,6F,00,00,00,10,00,04,84,
166320,00000120,false,Rx,0,8,F1,FF,FF,FF,E0,00,48,CA,
167475,00000110,false,Rx,0,8,74,00,00,00,30,00,1E,AF,
167475,00000130,false,Rx,0,8,18,00,00,00,20,00,1A,03,
168472,00000100,false,Rx,0,8,6F,00,00,00,20,00,10,84,
168473,00000120,false,Rx,0,8,F1,FF,FF,FF,F0,00,45,0A,
169454,00000110,false,Rx,0,8,74,00,00,00,40,00,3B,6F,
169455,00000150,false,Rx,0,4,FD,F4,40,A7,00,00,00,00,
169455,00000130,false,Rx,0,8,F8,FF,FF,FF,30,00,15,93,
170451,00000100,false,Rx,0,8,58,00,00,00,30,00,19,03,
170452,00000140,false,Rx,0,8,01,00,FF,FF,20,00,18,2E,
170452,00000120,false,Rx,0,8,F1,FF,FF,FF,00,00,01,0A,
171599,00000110,false,Rx,0,8,8B,00,00,00,50,00,22,A0,
171600,00000130,false,Rx,0,8,F8,FF,FF,FF,40,00,30,53,
172604,00000100,false,Rx,0,8,58,00,00,00,40,00,3C,C3,
172604,00000120,false,Rx,0,8,0E,00,00,00,10,00,0C,F5,
173558,00000110,false,Rx,0,8,8B,00,00,00,60,00,36,A0,
173559,00000130,false,Rx,0,8,18,00,00,00,50,00,3F,C3,
174576,00000100,false,Rx,0,8,58,00,00,00,50,00,31,03,
174577,00000120,false,Rx,0,8,0E,00,00,00,20,00,18,F5,
174578,00000110,false,Rx,0,8,8B,00,00,00,70,00,3B,60,
175827,00000050,false,Rx,0,6,40,54,FF,FF,DF,FF,00,00,
175828,00000130,false,Rx,0,8,1E,34,03,00,63,80,9B,75,
175829,00000100,false,Rx,0,8,58,00,00,00,60,00,25,03,
177323,00000120,false,Rx,0,8,0E,00,00,00,30,00,15,35,
177324,00000110,false,Rx,0,8,8B,00,00,00,80,00,7F,60,
178452,00000130,false,Rx,0,8,F8,FF,FF,FF,70,00,24,53,
178453,00000100,false,Rx,0,8,6F,00,00,00,70,00,2C,84,
179469,00000120,false,Rx,0,8,0E,00,00,00,40,00,30,F5,
179470,00000110,false,Rx,0,8,5D,00,00,00,90,00,61,56,
180446,00000130,false,Rx,0,8,F8,FF,FF,FF,80,00,60,53,
180446,00000100,false,Rx,0,8,86,00,00,00,80,00,7E,7D,
181598,00000120,false,Rx,0,8,D5,FF,FF,FF,50,00,3B,EE,
181599,00000110,false,Rx,0,8,5D,00,00,00,A0,00,75,56,
182596,00000130,false,Rx,0,8,F8,FF,FF,FF,90,00,6D,93,
182597,00000100,false,Rx,0,8,6F,00,00,00,90,00,65,44,
183576,00000120,false,Rx,0,8,D5,FF,FF,FF,60,00,2F,EE,
183577,00000110,false,Rx,0,8,5D,00,00,00,B0,00,78,96,
184571,00000130,false,Rx,0,8,F8,FF,FF,FF,A0,00,79,93,
184572,00000100,false,Rx,0,8,6F,00,00,00,A0,00,71,44,
185722,00000120,false,Rx,0,8,0E,00,00,00,70,00,24,F5,
185723,00000110,false,Rx,0,8,5D,00,00,00,C0,00,5D,56,
186722,00000130,false,Rx,0,8,37,00,00,00,B0,00,71,9C,
186723,00000100,false,Rx,0,8,58,00,00,00,B0,00,78,C3,
187702,00000120,false,Rx,0,8,0E,00,00,00,80,00,60,F5,
187703,00000110,false,Rx,0,8,5D,00,00,00,D0,00,50,96,
188727,00000130,false,Rx,0,8,18,00,00,00,C0,00,53,C3,
188727,00000100,false,Rx,0,8,6F,00,00,00,C0,00,59,44,
188728,00000150,false,Rx,0,4,FD,F4,40,A7,00,00,00,00,
189807,00000120,false,Rx,0,8,0E,00,00,00,90,00,6D,35,
189807,00000110,false,Rx,0,8,5D,00,00,00,E0,00,44,96,
190807,00000130,false,Rx,0,8,F8,FF,FF,FF,D0,00,5C,53,
190808,00000100,false,Rx,0,8,58,00,00,00,D0,00,50,C3,
190808,00000140,false,Rx,0,8,01,00,FF,FF,30,00,15,EE,
191809,00000120,false,Rx,0,8,0E,00,00,00,A0,00,79,35,
191809,00000110,false,Rx,0,8,74,00,00,00,F0,00,4E,AF,
192842,00000130,false,Rx,0,8,F8,FF,FF,FF,E0,00,48,53,
192843,00000100,false,Rx,0,8,58,00,00,00,E0,00,44,C3,
193824,00000120,false,Rx,0,8,F1,FF,FF,FF,B0,00,74,CA,
193824,00000110,false,Rx,0,8,74,00,00,00,00,00,0A,AF,
194932,00000130,false,Rx,0,8,18,00,00,00,F0,00,47,C3,
194933,00000100,false,Rx,0,8,6F,00,00,00,F0,00,4D,44,
194933,00000120,false,Rx,0,8,F1,FF,FF,FF,C0,00,51,0A,
196056,00000110,false,Rx,0,8,5D,00,00,00,10,00,00,96,
196057,00000050,false,Rx,0,6,40,54,FF,FF,DF,FF,00,00,
196057,00000130,false,Rx,0,8,FB,95,FF,FF,03,80,18,F9,
197181,00000100,false,Rx,0,8,86,00,00,00,00,00,1F,BD,
197181,00000120,false,Rx,0,8,0E,00,00,00,D0,00,5C,F5,
198226,00000110,false,Rx,0,8,5D,00,00,00,20,00,14,96,
198226,00000130,false,Rx,0,8,76,00,00,00,10,00,06,8D,
199193,00000100,false,Rx,0,8,6F,00,00,00,10,00,04,84,
199193,00000120,false,Rx,0,8,0E,00,00,00,E0,00,48,F5,
200350,00000110,false,Rx,0,8,5D,00,00,00,30,00,19,56,
200351,00000130,false,Rx,0,8,F8,FF,FF,FF,20,00,18,53,
201349,00000100,false,Rx,0,8,6F,00,00,00,20,00,10,84,
201349,00000120,false,Rx,0,8,F1,FF,FF,FF,F0,00,45,0A,
202328,00000110,false,Rx,0,8,5D,00,00,00,40,00,3C,96,
202329,00000130,false,Rx,0,8,B9,FF,FF,FF,30,00,1A,82,
203329,00000100,false,Rx,0,8,6F,00,00,00,30,00,1D,44,
203329,00000120,false,Rx,0,8,F1,FF,FF,FF,00,00,01,0A,
204442,00000110,false,Rx,0,8,5D,00,00,00,50,00,31,56,
204443,00000130,false,Rx,0,8,D9,FF,FF,FF,40,00,36,E2,
205473,00000100,false,Rx,0,8,6F,00,00,00,40,00,38,84,
205474,00000120,false,Rx,0,8,F1,FF,FF,FF,10,00,0C,CA,
206475,00000110,false,Rx,0,8,5D,00,00,00,60,00,25,56,
206476,00000130,false,Rx,0,8,F8,FF,FF,FF,50,00,3D,93,
207452,00000100,false,Rx,0,8,6F,00,00,00,50,00,35,44,
207452,00000120,false,Rx,0,8,F1,FF,FF,FF,20,00,18,CA,
208444,00000110,false,Rx,0,8,74,00,00,00,70,00,2F,6F,
208445,00000130,false,Rx,0,8,F8,FF,FF,FF,60,00,29,93,
209599,00000100,false,Rx,0,8,6F,00,00,00,60,00,21,44,
209600,00000150,false,Rx,0,4,FD,F4,40,A7,00,00,00,00,
209601,00000120,false,Rx,0,8,0E,00,00,00,30,00,15,35,
210577,00000110,false,Rx,0,8,74,00,00,00,80,00,6B,6F,
210578,00000130,false,Rx,0,8,F8,FF,FF,FF,70,00,24,53,
211576,00000100,false,Rx,0,8,58,00,00,00,70,00,28,C3,
211577,00000140,false,Rx,0,8,01,00,FF,FF,40,00,30,2E,
211578,00000120,false,Rx,0,8,0E,00,00,00,40,00,30,F5,
212591,00000110,false,Rx,0,8,74,00,00,00,90,00,66,AF,
212592,00000130,false,Rx,0,8,F8,FF,FF,FF,80,00,60,53,
213724,00000100,false,Rx,0,8,6F,00,00,00,80,00,68,84,
213725,00000120,false,Rx,0,8,0E,00,00,00,50,00,3D,35,
214724,00000110,false,Rx,0,8,74,00,00,00,A0,00,72,AF,
214724,00000130,false,Rx,0,8,18,00,00,00,90,00,6F,C3,
215701,00000100,false,Rx,0,8,6F,00,00,00,90,00,65,44,
215702,00000120,false,Rx,0,8,0E,00,00,00,60,00,29,35,
215702,00000110,false,Rx,0,8,5D,00,00,00,B0,00,78,96,
216817,00000050,false,Rx,0,6,40,54,FF,FF,DF,FF,00,00,
216817,00000130,false,Rx,0,8,F7,BB,F5,FF,A3,80,8B,EB,
216818,00000100,false,Rx,0,8,6F,00,00,00,A0,00,71,44,
218444,00000120,false,Rx,0,8,F1,FF,FF,FF,70,00,24,CA,
218445,00000110,false,Rx,0,8,5D,00,00,00,C0,00,5D,56,
219577,00000130,false,Rx,0,8,95,00,00,00,B0,00,68,DE,
219578,00000100,false,Rx,0,8,86,00,00,00,B0,00,6A,7D,
220577,00000120,false,Rx,0,8,F1,FF,FF,FF,80,00,60,CA,
220577,00000110,false,Rx,0,8,46,00,00,00,D0,00,53,7D,
221568,00000130,false,Rx,0,8,F8,FF,FF,FF,C0,00,51,93,
221569,00000100,false,Rx,0,8,86,00,00,00,C0,00,4F,BD,
222722,00000120,false,Rx,0,8,F1,FF,FF,FF,90,00,6D,0A,
222723,00000110,false,Rx,0,8,46,00,00,00,E0,00,47,7D,
223723,00000130,false,Rx,0,8,D9,FF,FF,FF,D0,00,5A,E2,
223723,00000100,false,Rx,0,8,6F,00,00,00,D0,00,54,84,
224701,00000120,false,Rx,0,8,F1,FF,FF,FF,A0,00,79,0A,
224701,00000110,false,Rx,0,8,5D,00,00,00,F0,00,49,56,
225704,00000130,false,Rx,0,8,D9,FF,FF,FF,E0,00,4E,E2,
225705,00000100,false,Rx,0,8,6F,00,00,00,E0,00,40,84,
226694,00000120,false,Rx,0,8,0E,00,00,00,B0,00,74,F5,
226695,00000110,false,Rx,0,8,5D,00,00,00,00,00,0D,56,
227854,00000130,false,Rx,0,8,D9,FF,FF,FF,F0,00,43,22,
227855,00000100,false,Rx,0,8,6F,00,00,00,F0,00,4D,44,
228826,00000120,false,Rx,0,8,0E,00,00,00,C0,00,51,35,
228827,00000110,false,Rx,0,8,5D,00,00,00,10,00,00,96,
228828,00000150,false,Rx,0,4,FD,F4,40,A7,00,00,00,00,
229826,00000130,false,Rx,0,8,37,00,00,00,00,00,04,5C,
229826,00000100,false,Rx,0,8,58,00,00,00,00,00,0D,03,
230816,00000120,false,Rx,0,8,2A,00,00,00,D0,00,5A,11,
230817,00000110,false,Rx,0,8,5D,00,00,00,20,00,14,96,
231952,00000130,false,Rx,0,8,F8,FF,FF,FF,10,00,0C,53,
231953,00000100,false,Rx,0,8,41,00,00,00,10,00,02,CA,
231953,00000140,false,Rx,0,8,01,00,FF,FF,50,00,3D,EE,
232951,00000120,false,Rx,0,8,2A,00,00,00,E0,00,4E,11,
232952,00000110,false,Rx,0,8,5D,00,00,00,30,00,19,56,
233950,00000130,false,Rx,0,8,18,00,00,00,20,00,1A,03,
233950,00000100,false,Rx,0,8,6F,00,00,00,20,00,10,84,
234945,00000120,false,Rx,0,8,F1,FF,FF,FF,F0,00,45,0A,
234946,00000110,false,Rx,0,8,5D,00,00,00,40,00,3C,96,
235931,00000130,false,Rx,0,8,37,00,00,00,30,00,10,5C,
235931,00000100,false,Rx,0,8,6F,00,00,00,30,00,1D,44,
235932,00000120,false,Rx,0,8,F1,FF,FF,FF,00,00,01,0A,
237203,00000110,false,Rx,0,8,8B,00,00,00,50,00,22,A0,
237204,00000050,false,Rx,0,6,40,54,FF,FF,DF,FF,00,00,
237204,00000130,false,Rx,0,8,67,21,00,00,43,80,84,9B,
238347,00000100,false,Rx,0,8,58,00,00,00,40,00,3C,C3,
238348,00000120,false,Rx,0,8,F1,FF,FF,FF,10,00,0C,CA,
239345,00000110,false,Rx,0,8,8B,00,00,00,60,00,36,A0,
239346,00000130,false,Rx,0,8,D9,FF,FF,FF,50,00,3B,22,
240308,00000100,false,Rx,0,8,6F,00,00,00,50,00,35,44,
240309,00000120,false,Rx,0,8,F1,FF,FF,FF,20,00,18,CA,
241328,00000110,false,Rx,0,8,46,00,00,00,70,00,2B,7D,
241329,00000170,false,Rx,0,8,00,00,00,50,50,81,05,D0,
241329,00000130,false,Rx,0,8,F8,FF,FF,FF,60,00,29,93,
242437,00000100,false,Rx,0,8,86,00,00,00,60,00,37,BD,
242437,00000120,false,Rx,0,8,0E,00,00,00,30,00,15,35,
243452,00000110,false,Rx,0,8,46,00,00,00,80,00,6F,7D,
243452,00000130,false,Rx,0,8,F8,FF,FF,FF,70,00,24,53,
244457,00000100,false,Rx,0,8,58,00,00,00,70,00,28,C3,
244458,00000120,false,Rx,0,8,0E,00,00,00,40,00,30,F5,
245445,00000110,false,Rx,0,8,5D,00,00,00,90,00,61,56,
245446,00000130,false,Rx,0,8,F8,FF,FF,FF,80,00,60,53,
246597,00000100,false,Rx,0,8,6F,00,00,00,80,00,68,84,
246598,00000120,false,Rx,0,8,0E,00,00,00,50,00,3D,35,
247569,00000110,false,Rx,0,8,5D,00,00,00,A0,00,75,56,
247570,00000130,false,Rx,0,8,18,00,00,00,90,00,6F,C3,
248577,00000100,false,Rx,0,8,6F,00,00,00,90,00,65,44,
248578,00000120,false,Rx,0,8,0E,00,00,00,60,00,29,35,
249586,00000110,false,Rx,0,8,5D,00,00,00,B0,00,78,96,
249587,00000150,false,Rx,0,4,FD,F4,40,A7,00,00,00,00,
249587,00000130,false,Rx,0,8,D9,FF,FF,FF,A0,00,7F,22,
250722,00000100,false,Rx,0,8,58,00,00,00,A0,00,75,03,
250723,00000120,false,Rx,0,8,2A,00,00,00,70,00,22,11,
251722,00000110,false,Rx,0,8,5D,00,00,00,C0,00,5D,56,
251723,00000130,false,Rx,0,8,F8,FF,FF,FF,B0,00,74,53,
252694,00000100,false,Rx,0,8,58,00,00,00,B0,00,78,C3,
252694,00000140,false,Rx,0,8,01,00,FF,FF,60,00,29,EE,
252695,00000120,false,Rx,0,8,2A,00,00,00,80,00,66,11,
253694,00000110,false,Rx,0,8,5D,00,00,00,D0,00,50,96,
253695,00000130,false,Rx,0,8,F8,FF,FF,FF,C0,00,51,93,
254693,00000100,false,Rx,0,8,6F,00,00,00,C0,00,59,44,
254694,00000120,false,Rx,0,8,0E,00,00,00,90,00,6D,35,
255819,00000110,false,Rx,0,8,5D,00,00,00,E0,00,44,96,
255820,00000130,false,Rx,0,8,F8,FF,FF,FF,D0,00,5C,53,
256818,00000100,false,Rx,0,8,6F,00,00,00,D0,00,54,84,
256818,00000120,false,Rx,0,8,0E,00,00,00,A0,00,79,35,
256819,00000110,false,Rx,0,8,8B,00,00,00,F0,00,5A,A0,
257942,00000050,false,Rx,0,6,40,54,FF,FF,DF,FF,00,00,
257943,00000130,false,Rx,0,8,3D,34,03,00,E3,80,FD,E6,
257943,00000100,false,Rx,0,8,58,00,00,00,E0,00,44,C3,
259567,00000120,false,Rx,0,8,0E,00,00,00,B0,00,74,F5,
259568,00000110,false,Rx,0,8,8B,00,00,00,00,00,1E,A0,
260687,00000130,false,Rx,0,8,F8,FF,FF,FF,F0,00,45,93,
260688,00000100,false,Rx,0,8,86,00,00,00,F0,00,5B,BD,
261693,00000120,false,Rx,0,8,0E,00,00,00,C0,00,51,35,
261694,00000110,false,Rx,0,8,46,00,00,00,10,00,03,7D,
262694,00000130,false,Rx,0,8,F8,FF,FF,FF,00,00,01,93,
262695,00000100,false,Rx,0,8,6F,00,00,00,00,00,09,44,
263692,00000120,false,Rx,0,8,0E,00,00,00,D0,00,5C,F5,
263693,00000110,false,Rx,0,8,46,00,00,00,20,00,17,7D,
264817,00000130,false,Rx,0,8,18,00,00,00,10,00,0E,03,
264818,00000100,false,Rx,0,8,6F,00,00,00,10,00,04,84,
265818,00000120,false,Rx,0,8,0E,00,00,00,E0,00,48,F5,
265819,00000110,false,Rx,0,8,5D,00,00,00,30,00,19,56,
266819,00000130,false,Rx,0,8,18,00,00,00,20,00,1A,03,
266820,00000100,false,Rx,0,8,6F,00,00,00,20,00,10,84,
267818,00000120,false,Rx,0,8,0E,00,00,00,F0,00,45,35,
267819,00000110,false,Rx,0,8,5D,00,00,00,40,00,3C,96,
268816,00000130,false,Rx,0,8,F8,FF,FF,FF,30,00,15,93,
268817,00000100,false,Rx,0,8,6F,00,00,00,30,00,1D,44,
268817,00000150,false,Rx,0,4,FD,F4,40,A7,00,00,00,00,
269943,00000120,false,Rx,0,8,0E,00,00,00,00,00,01,35,
269944,00000110,false,Rx,0,8,5D,00,00,00,50,00,31,56,
270942,00000130,false,Rx,0,8,F8,FF,FF,FF,40,00,30,53,
270943,00000100,false,Rx,0,8,41,00,00,00,40,00,3E,CA,
271945,00000120,false,Rx,0,8,2A,00,00,00,10,00,0A,11,
271946,00000110,false,Rx,0,8,5D,00,00,00,60,00,25,56,
272942,00000130,false,Rx,0,8,18,00,00,00,50,00,3F,C3,
272943,00000100,false,Rx,0,8,6F,00,00,00,50,00,35,44,
272943,00000140,false,Rx,0,8,01,00,FF,FF,70,00,24,2E,
274067,00000120,false,Rx,0,8,2A,00,00,00,20,00,1E,11,
274068,00000110,false,Rx,0,8,5D,00,00,00,70,00,28,96,
275067,00000130,false,Rx,0,8,18,00,00,00,60,00,2B,C3,
275068,00000100,false,Rx,0,8,6F,00,00,00,60,00,21,44,
276069,00000120,false,Rx,0,8,F1,FF,FF,FF,30,00,15,0A,
276070,00000110,false,Rx,0,8,5D,00,00,00,80,00,6C,96,
277067,00000130,false,Rx,0,8,18,00,00,00,70,00,26,03,
277068,00000100,false,Rx,0,8,6F,00,00,00,70,00,2C,84,
277069,00000120,false,Rx,0,8,F1,FF,FF,FF,40,00,30,CA,
278318,00000110,false,Rx,0,8,5D,00,00,00,90,00,61,56,
278319,00000050,false,Rx,0,6,40,54,FF,FF,DF,FF,00,00,
278320,00000130,false,Rx,0,8,FB,95,FF,FF,83,80,79,39,
279443,00000100,false,Rx,0,8,6F,00,00,00,80,00,68,84,
279444,00000120,false,Rx,0,8,F1,FF,FF,FF,50,00,3D,0A,
280443,00000110,false,Rx,0,8,5D,00,00,00,A0,00,75,56,
280444,00000130,false,Rx,0,8,95,00,00,00,90,00,71,1E,
281442,00000100,false,Rx,0,8,86,00,00,00,90,00,73,BD,
281443,00000120,false,Rx,0,8,F1,FF,FF,FF,60,00,29,0A,
282443,00000110,false,Rx,0,8,46,00,00,00,B0,00,7B,7D,
282444,00000130,false,Rx,0,8,18,00,00,00,A0,00,7B,C3,
283568,00000100,false,Rx,0,8,6F,00,00,00,A0,00,71,44,
283569,00000120,false,Rx,0,8,F1,FF,FF,FF,70,00,24,CA,
284566,00000110,false,Rx,0,8,46,00,00,00,C0,00,5E,BD,
284567,00000130,false,Rx,0,8,F8,FF,FF,FF,B0,00,74,53,
285568,00000100,false,Rx,0,8,6F,00,00,00,B0,00,7C,84,
285569,00000120,false,Rx,0,8,F1,FF,FF,FF,80,00,60,CA,
286566,00000110,false,Rx,0,8,5D,00,00,00,D0,00,50,96,
286566,00000130,false,Rx,0,8,18,00,00,00,C0,00,53,C3,
287563,00000100,false,Rx,0,8,6F,00,00,00,C0,00,59,44,
287564,00000120,false,Rx,0,8,0E,00,00,00,90,00,6D,35,
288681,00000110,false,Rx,0,8,5D,00,00,00,E0,00,44,96,
288682,00000130,false,Rx,0,8,F8,FF,FF,FF,D0,00,5C,53,
289682,00000100,false,Rx,0,8,6F,00,00,00,D0,00,54,84,
289683,00000150,false,Rx,0,4,FD,F4,40,A7,00,00,00,00,
289684,00000120,false,Rx,0,8,0E,00,00,00,A0,00,79,35,
290700,00000110,false,Rx,0,8,74,00,00,00,F0,00,4E,AF,
290701,00000130,false,Rx,0,8,D9,FF,FF,FF,E0,00,4E,E2,
291695,00000100,false,Rx,0,8,58,00,00,00,E0,00,44,C3,
291696,00000120,false,Rx,0,8,0E,00,00,00,B0,00,74,F5,
292822,00000110,false,Rx,0,8,74,00,00,00,00,00,0A,AF,
292822,00000130,false,Rx,0,8,18,00,00,00,F0,00,47,C3,
293817,00000100,false,Rx,0,8,6F,00,00,00,F0,00,4D,44,
293818,00000140,false,Rx,0,8,01,00,FF,FF,80,00,60,2E,
293819,00000120,false,Rx,0,8,0E,00,00,00,C0,00,51,35,
294818,00000110,false,Rx,0,8,5D,00,00,00,10,00,00,96,
294819,00000130,false,Rx,0,8,18,00,00,00,00,00,03,C3,
295819,00000100,false,Rx,0,8,6F,00,00,00,00,00,09,44,
295819,00000120,false,Rx,0,8,F1,FF,FF,FF,D0,00,5C,CA,
296931,00000110,false,Rx,0,8,5D,00,00,00,20,00,14,96,
296932,00000130,false,Rx,0,8,F8,FF,FF,FF,10,00,0C,53,
297931,00000100,false,Rx,0,8,6F,00,00,00,10,00,04,84,
297932,00000120,false,Rx,0,8,F1,FF,FF,FF,E0,00,48,CA,
297932,00000110,false,Rx,0,8,5D,00,00,00,30,00,19,56,
299060,00000050,false,Rx,0,6,40,54,FF,FF,DF,FF,00,00,
299061,00000130,false,Rx,0,8,16,BC,F5,FF,23,80,48,5A,
299061,00000100,false,Rx,0,8,6F,00,00,00,20,00,10,84,
300688,00000120,false,Rx,0,8,F1,FF,FF,FF,F0,00,45,0A,
300689,00000110,false,Rx,0,8,5D,00,00,00,40,00,3C,96,
301807,00000130,false,Rx,0,8,95,00,00,00,30,00,09,1E,
301808,00000100,false,Rx,0,8,86,00,00,00,30,00,0B,BD,
302806,00000120,false,Rx,0,8,F1,FF,FF,FF,00,00,01,0A,
302807,00000110,false,Rx,0,8,5D,00,00,00,50,00,31,56,
302808,00000130,false,Rx,0,8,F8,FF,FF,FF,40,00,30,53,
304054,00000100,false,Rx,0,8,6F,00,00,00,40,00,38,84,
304055,00000120,false,Rx,0,8,F1,FF,FF,FF,10,00,0C,CA,
305071,00000110,false,Rx,0,8,5D,00,00,00,60,00,25,56,
305072,00000130,false,Rx,0,8,D9,FF,FF,FF,50,00,3B,22,
306198,00000100,false,Rx,0,8,6F,00,00,00,50,00,35,44,
306198,00000120,false,Rx,0,8,F1,FF,FF,FF,20,00,18,CA,
307190,00000110,false,Rx,0,8,74,00,00,00,70,00,2F,6F,
307191,00000130,false,Rx,0,8,D9,FF,FF,FF,60,00,2F,22,
308193,00000100,false,Rx,0,8,6F,00,00,00,60,00,21,44,
308194,00000120,false,Rx,0,8,F1,FF,FF,FF,30,00,15,0A,
309193,00000110,false,Rx,0,8,74,00,00,00,80,00,6B,6F,
309194,00000150,false,Rx,0,4,FD,F4,40,A7,00,00,00,00,
309195,00000130,false,Rx,0,8,18,00,00,00,70,00,26,03,
310179,00000100,false,Rx,0,8,58,00,00,00,70,00,28,C3,
310180,00000120,false,Rx,0,8,F1,FF,FF,FF,40,00,30,CA,
311319,00000110,false,Rx,0,8,74,00,00,00,90,00,66,AF,
311320,00000130,false,Rx,0,8,F8,FF,FF,FF,80,00,60,53,
312325,00000100,false,Rx,0,8,41,00,00,00,80,00,6E,CA,
312326,00000120,false,Rx,0,8,F1,FF,FF,FF,50,00,3D,0A,
313317,00000110,false,Rx,0,8,74,00,00,00,A0,00,72,AF,
313318,00000130,false,Rx,0,8,F8,FF,FF,FF,90,00,6D,93,
314305,00000100,false,Rx,0,8,6F,00,00,00,90,00,65,44,
314305,00000140,false,Rx,0,8,01,00,FF,FF,90,00,6D,EE,
314306,00000120,false,Rx,0,8,F1,FF,FF,FF,60,00,29,0A,
315444,00000110,false,Rx,0,8,74,00,00,00,B0,00,7F,6F,
315445,00000130,false,Rx,0,8,F8,FF,FF,FF,A0,00,79,93,
316444,00000100,false,Rx,0,8,6F,00,00,00,A0,00,71,44,
316445,00000120,false,Rx,0,8,0E,00,00,00,70,00,24,F5,
317441,00000110,false,Rx,0,8,74,00,00,00,C0,00,5A,AF,
317442,00000130,false,Rx,0,8,F8,FF,FF,FF,B0,00,74,53,
318441,00000100,false,Rx,0,8,58,00,00,00,B0,00,78,C3,
318442,00000120,false,Rx,0,8,0E,00,00,00,80,00,60,F5,
318443,00000110,false,Rx,0,8,8B,00,00,00,D0,00,43,60,
319691,00000050,false,Rx,0,6,40,54,FF,FF,DF,FF,00,00,
319691,00000130,false,Rx,0,8,67,21,00,00,C3,80,E5,5B,
319692,00000100,false,Rx,0,8,6F,00,00,00,C0,00,59,44,
321316,00000120,false,Rx,0,8,D5,FF,FF,FF,90,00,6B,EE,
321317,00000110,false,Rx,0,8,8B,00,00,00,E0,00,57,60,
322317,00000130,false,Rx,0,8,D9,FF,FF,FF,D0,00,5A,E2,
322318,00000100,false,Rx,0,8,86,00,00,00,D0,00,42,7D,
323314,00000120,false,Rx,0,8,D5,FF,FF,FF,A0,00,7F,EE,
323315,00000110,false,Rx,0,8,5D,00,00,00,F0,00,49,56,
324440,00000130,false,Rx,0,8,D9,FF,FF,FF,E0,00,4E,E2,
324441,00000100,false,Rx,0,8,6F,00,00,00,E0,00,40,84,
325442,00000120,false,Rx,0,8,0E,00,00,00,B0,00,74,F5,
325443,00000110,false,Rx,0,8,5D,00,00,00,00,00,0D,56,
326439,00000130,false,Rx,0,8,18,00,00,00,F0,00,47,C3,
326439,00000100,false,Rx,0,8,6F,00,00,00,F0,00,4D,44,
327441,00000120,false,Rx,0,8,0E,00,00,00,C0,00,51,35,
327441,00000110,false,Rx,0,8,5D,00,00,00,10,00,00,96,
328567,00000130,false,Rx,0,8,D9,FF,FF,FF,00,00,07,22,
328567,00000100,false,Rx,0,8,6F,00,00,00,00,00,09,44,
329566,00000120,false,Rx,0,8,F1,FF,FF,FF,D0,00,5C,CA,
329566,00000110,false,Rx,0,8,5D,00,00,00,20,00,14,96,
329567,00000150,false,Rx,0,4,FD,F4,40,A7,00,00,00,00,
330566,00000130,false,Rx,0,8,37,00,00,00,10,00,09,9C,
330567,00000100,false,Rx,0,8,58,00,00,00,10,00,00,C3,
331566,00000120,false,Rx,0,8,F1,FF,FF,FF,E0,00,48,CA,
331567,00000110,false,Rx,0,8,74,00,00,00,30,00,1E,AF,
332565,00000130,false,Rx,0,8,18,00,00,00,20,00,1A,03,
332566,00000100,false,Rx,0,8,58,00,00,00,20,00,14,C3,
333692,00000120,false,Rx,0,8,0E,00,00,00,F0,00,45,35,
333693,00000110,false,Rx,0,8,74,00,00,00,40,00,3B,6F,
334691,00000130,false,Rx,0,8,F8,FF,FF,FF,30,00,15,93,
334691,00000100,false,Rx,0,8,6F,00,00,00,30,00,1D,44,
334692,00000140,false,Rx,0,8,01,00,FF,FF,A0,00,79,EE,
335692,00000120,false,Rx,0,8,0E,00,00,00,00,00,01,35,
335693,00000110,false,Rx,0,8,5D,00,00,00,50,00,31,56,
336690,00000130,false,Rx,0,8,18,00,00,00,40,00,32,03,
336691,00000100,false,Rx,0,8,6F,00,00,00,40,00,38,84,
337804,00000120,false,Rx,0,8,F1,FF,FF,FF,10,00,0C,CA,
337804,00000110,false,Rx,0,8,5D,00,00,00,60,00,25,56,
338807,00000130,false,Rx,0,8,18,00,00,00,50,00,3F,C3,
338808,00000100,false,Rx,0,8,6F,00,00,00,50,00,35,44,
338809,00000120,false,Rx,0,8,F1,FF,FF,FF,20,00,18,CA,
339931,00000110,false,Rx,0,8,74,00,00,00,70,00,2F,6F,
339932,00000050,false,Rx,0,6,40,54,FF,FF,DF,FF,00,00,
339933,00000130,false,Rx,0,8,5D,34,03,00,63,80,95,86,
341055,00000100,false,Rx,0,8,6F,00,00,00,60,00,21,44,
341056,00000120,false,Rx,0,8,F1,FF,FF,FF,30,00,15,0A,
342056,00000110,false,Rx,0,8,74,00,00,00,80,00,6B,6F,
342057,00000130,false,Rx,0,8,18,00,00,00,70,00,26,03,
343181,00000100,false,Rx,0,8,6F,00,00,00,70,00,2C,84,
343182,00000120,false,Rx,0,8,F1,FF,FF,FF,40,00,30,CA,
344182,00000110,false,Rx,0,8,5D,00,00,00,90,00,61,56,
344183,00000170,false,Rx,0,8,00,00,00,51,50,81,05,4D,
344184,00000130,false,Rx,0,8,F8,FF,FF,FF,80,00,60,53,
345181,00000100,false,Rx,0,8,6F,00,00,00,80,00,68,84,
345182,00000120,false,Rx,0,8,F1,FF,FF,FF,50,00,3D,0A,
346192,00000110,false,Rx,0,8,5D,00,00,00,A0,00,75,56,
346193,00000130,false,Rx,0,8,D9,FF,FF,FF,90,00,6B,22,
347195,00000100,false,Rx,0,8,6F,00,00,00,90,00,65,44,
347196,00000120,false,Rx,0,8,F1,FF,FF,FF,60,00,29,0A,
348306,00000110,false,Rx,0,8,5D,00,00,00,B0,00,78,96,
348307,00000130,false,Rx,0,8,18,00,00,00,A0,00,7B,C3,
349327,00000100,false,Rx,0,8,6F,00,00,00,A0,00,71,44,
349328,00000150,false,Rx,0,4,FD,F4,40,A7,00,00,00,00,
349329,00000120,false,Rx,0,8,0E,00,00,00,70,00,24,F5,
350304,00000110,false,Rx,0,8,5D,00,00,00,C0,00,5D,56,
350305,00000130,false,Rx,0,8,18,00,00,00,B0,00,76,03,
351318,00000100,false,Rx,0,8,58,00,00,00,B0,00,78,C3,
351319,00000120,false,Rx,0,8,0E,00,00,00,80,00,60,F5,
352317,00000110,false,Rx,0,8,74,00,00,00,D0,00,57,6F,
352318,00000130,false,Rx,0,8,F8,FF,FF,FF,C0,00,51,93,
353444,00000100,false,Rx,0,8,58,00,00,00,C0,00,5D,03,
353445,00000120,false,Rx,0,8,0E,00,00,00,90,00,6D,35,
354443,00000110,false,Rx,0,8,74,00,00,00,E0,00,43,6F,
354444,00000130,false,Rx,0,8,F8,FF,FF,FF,D0,00,5C,53,
355442,00000100,false,Rx,0,8,58,00,00,00,D0,00,50,C3,
355443,00000140,false,Rx,0,8,01,00,FF,FF,B0,00,74,2E,
355444,00000120,false,Rx,0,8,0E,00,00,00,A0,00,79,35,
356442,00000110,false,Rx,0,8,5D,00,00,00,F0,00,49,56,
356443,00000130,false,Rx,0,8,18,00,00,00,E0,00,4A,03,
357554,00000100,false,Rx,0,8,6F,00,00,00,E0,00,40,84,
357555,00000120,false,Rx,0,8,0E,00,00,00,B0,00,74,F5,
358569,00000110,false,Rx,0,8,5D,00,00,00,00,00,0D,56,
358570,00000130,false,Rx,0,8,F8,FF,FF,FF,F0,00,45,93,
359567,00000100,false,Rx,0,8,6F,00,00,00,F0,00,4D,44,
359568,00000120,false,Rx,0,8,0E,00,00,00,C0,00,51,35,
360568,00000110,false,Rx,0,8,46,00,00,00,10,00,03,7D,
360568,00000050,false,Rx,0,6,40,54,FF,FF,DF,FF,00,00,
360569,00000130,false,Rx,0,8,FB,95,FF,FF,03,80,18,F9,
361569,00000100,false,Rx,0,8,9D,00,00,00,00,00,1C,56,
361570,00000120,false,Rx,0,8,F1,FF,FF,FF,D0,00,5C,CA,
362693,00000110,false,Rx,0,8,46,00,00,00,20,00,17,7D,
362694,00000130,false,Rx,0,8,95,00,00,00,10,00,10,DE,
363692,00000100,false,Rx,0,8,6F,00,00,00,10,00,04,84,
363693,00000120,false,Rx,0,8,F1,FF,FF,FF,E0,00,48,CA,
364708,00000110,false,Rx,0,8,74,00,00,00,30,00,1E,AF,
364709,00000130,false,Rx,0,8,F8,FF,FF,FF,20,00,18,53,
365693,00000100,false,Rx,0,8,58,00,00,00,20,00,14,C3,
365694,00000120,false,Rx,0,8,0E,00,00,00,F0,00,45,35,
366815,00000110,false,Rx,0,8,74,00,00,00,40,00,3B,6F,
366816,00000130,false,Rx,0,8,D9,FF,FF,FF,30,00,13,22,
367816,00000100,false,Rx,0,8,6F,00,00,00,30,00,1D,44,
367817,00000120,false,Rx,0,8,0E,00,00,00,00,00,01,35,
368819,00000110,false,Rx,0,8,5D,00,00,00,50,00,31,56,
368819,00000150,false,Rx,0,4,FD,F4,40,A7,00,00,00,00,
368820,00000130,false,Rx,0,8,F8,FF,FF,FF,40,00,30,53,
370067,00000100,false,Rx,0,8,58,00,00,00,40,00,3C,C3,
370068,00000120,false,Rx,0,8,0E,00,00,00,10,00,0C,F5,
370069,00000110,false,Rx,0,8,5D,00,00,00,60,00,25,56,
371693,00000130,false,Rx,0,8,D9,FF,FF,FF,50,00,3B,22,
371694,00000100,false,Rx,0,8,58,00,00,00,50,00,31,03,
372692,00000120,false,Rx,0,8,0E,00,00,00,20,00,18,F5,
372693,00000110,false,Rx,0,8,74,00,00,00,70,00,2F,6F,
373688,00000130,false,Rx,0,8,F8,FF,FF,FF,60,00,29,93,
373688,00000100,false,Rx,0,8,6F,00,00,00,60,00,21,44,
374804,00000120,false,Rx,0,8,0E,00,00,00,30,00,15,35,
374805,00000110,false,Rx,0,8,74,00,00,00,80,00,6B,6F,
375816,00000130,false,Rx,0,8,18,00,00,00,70,00,26,03,
375817,00000100,false,Rx,0,8,58,00,00,00,70,00,28,C3,
375818,00000140,false,Rx,0,8,01,00,FF,FF,C0,00,51,EE,
376817,00000120,false,Rx,0,8,0E,00,00,00,40,00,30,F5,
376818,00000110,false,Rx,0,8,46,00,00,00,90,00,62,BD,
377817,00000130,false,Rx,0,8,F8,FF,FF,FF,80,00,60,53,
377818,00000100,false,Rx,0,8,6F,00,00,00,80,00,68,84,
378817,00000120,false,Rx,0,8,F1,FF,FF,FF,50,00,3D,0A,
378818,00000110,false,Rx,0,8,46,00,00,00,A0,00,76,BD,
379942,00000130,false,Rx,0,8,D9,FF,FF,FF,90,00,6B,22,
379943,00000100,false,Rx,0,8,6F,00,00,00,90,00,65,44,
379944,00000120,false,Rx,0,8,F1,FF,FF,FF,60,00,29,0A,
381147,00000110,false,Rx,0,8,46,00,00,00,B0,00,7B,7D,
381147,00000050,false,Rx,0,6,40,54,FF,FF,DF,FF,00,00,
381148,00000130,false,Rx,0,8,D7,BB,F5,FF,A3,80,8C,8B,
382223,00000100,false,Rx,0,8,86,00,00,00,A0,00,67,BD,
382224,00000120,false,Rx,0,8,0E,00,00,00,70,00,24,F5,
383219,00000110,false,Rx,0,8,46,00,00,00,C0,00,5E,BD,
383220,00000130,false,Rx,0,8,95,00,00,00,B0,00,68,DE,
384189,00000100,false,Rx,0,8,6F,00,00,00,B0,00,7C,84,
384190,00000120,false,Rx,0,8,0E,00,00,00,80,00,60,F5,
385344,00000110,false,Rx,0,8,5D,00,00,00,D0,00,50,96,
385345,00000130,false,Rx,0,8,F8,FF,FF,FF,C0,00,51,93,
386344,00000100,false,Rx,0,8,58,00,00,00,C0,00,5D,03,
386345,00000120,false,Rx,0,8,0E,00,00,00,90,00,6D,35,
387322,00000110,false,Rx,0,8,5D,00,00,00,E0,00,44,96,
387323,00000130,false,Rx,0,8,D9,FF,FF,FF,D0,00,5A,E2,
388325,00000100,false,Rx,0,8,6F,00,00,00,D0,00,54,84,
388326,00000120,false,Rx,0,8,0E,00,00,00,A0,00,79,35,
389314,00000110,false,Rx,0,8,5D,00,00,00,F0,00,49,56,
389315,00000150,false,Rx,0,4,FD,F4,40,A7,00,00,00,00,
389315,00000130,false,Rx,0,8,F8,FF,FF,FF,E0,00,48,53,
390472,00000100,false,Rx,0,8,6F,00,00,00,E0,00,40,84,
390473,00000120,false,Rx,0,8,0E,00,00,00,B0,00,74,F5,
391471,00000110,false,Rx,0,8,5D,00,00,00,00,00,0D,56,
391472,00000130,false,Rx,0,8,18,00,00,00,F0,00,47,C3,
392451,00000100,false,Rx,0,8,58,00,00,00,F0,00,49,03,
392452,00000120,false,Rx,0,8,0E,00,00,00,C0,00,51,35,
393441,00000110,false,Rx,0,8,5D,00,00,00,10,00,00,96,
393442,00000130,false,Rx,0,8,D9,FF,FF,FF,00,00,07,22,
394595,00000100,false,Rx,0,8,6F,00,00,00,00,00,09,44,
394596,00000120,false,Rx,0,8,F1,FF,FF,FF,D0,00,5C,CA,
395592,00000110,false,Rx,0,8,5D,00,00,00,20,00,14,96,
395593,00000130,false,Rx,0,8,18,00,00,00,10,00,0E,03,
396572,00000100,false,Rx,0,8,6F,00,00,00,10,00,04,84,
396573,00000140,false,Rx,0,8,01,00,FF,FF,D0,00,5C,2E,
396573,00000120,false,Rx,0,8,F1,FF,FF,FF,E0,00,48,CA,
397556,00000110,false,Rx,0,8,5D,00,00,00,30,00,19,56,
397557,00000130,false,Rx,0,8,F8,FF,FF,FF,20,00,18,53,
398721,00000100,false,Rx,0,8,6F,00,00,00,20,00,10,84,
398722,00000120,false,Rx,0,8,0E,00,00,00,F0,00,45,35,
399726,00000110,false,Rx,0,8,5D,00,00,00,40,00,3C,96,
399726,00000130,false,Rx,0,8,18,00,00,00,30,00,17,C3,
400697,00000100,false,Rx,0,8,6F,00,00,00,30,00,1D,44,
400698,00000120,false,Rx,0,8,0E,00,00,00,00,00,01,35,
400698,00000110,false,Rx,0,8,5D,00,00,00,50,00,31,56,
401819,00000050,false,Rx,0,6,40,54,FF,FF,DF,FF,00,00,
401820,00000130,false,Rx,0,8,67,21,00,00,43,80,84,9B,
401820,00000100,false,Rx,0,8,6F,00,00,00,40,00,38,84,
403441,00000120,false,Rx,0,8,0E,00,00,00,10,00,0C,F5,
403442,00000110,false,Rx,0,8,5D,00,00,00,60,00,25,56,
404575,00000130,false,Rx,0,8,D9,FF,FF,FF,50,00,3B,22,
404575,00000100,false,Rx,0,8,58,00,00,00,50,00,31,03,
405572,00000120,false,Rx,0,8,0E,00,00,00,20,00,18,F5,
405573,00000110,false,Rx,0,8,5D,00,00,00,70,00,28,96,
406591,00000130,false,Rx,0,8,F8,FF,FF,FF,60,00,29,93,
406592,00000100,false,Rx,0,8,6F,00,00,00,60,00,21,44,
407718,00000120,false,Rx,0,8,0E,00,00,00,30,00,15,35,
407718,00000110,false,Rx,0,8,5D,00,00,00,80,00,6C,96,
408720,00000130,false,Rx,0,8,F8,FF,FF,FF,70,00,24,53,
408721,00000100,false,Rx,0,8,6F,00,00,00,70,00,2C,84,
408721,00000150,false,Rx,0,4,FD,F4,40,A7,00,00,00,00,
409845,00000120,false,Rx,0,8,0E,00,00,00,40,00,30,F5,
409846,00000110,false,Rx,0,8,5D,00,00,00,90,00,61,56,
409846,00000130,false,Rx,0,8,F8,FF,FF,FF,80,00,60,53,
410961,00000100,false,Rx,0,8,58,00,00,00,80,00,6C,C3,
410962,00000120,false,Rx,0,8,2A,00,00,00,50,00,3B,D1,
411959,00000110,false,Rx,0,8,5D,00,00,00,A0,00,75,56,
411960,00000130,false,Rx,0,8,18,00,00,00,90,00,6F,C3,
413095,00000100,false,Rx,0,8,58,00,00,00,90,00,61,03,
413095,00000120,false,Rx,0,8,2A,00,00,00,60,00,2F,D1,
414098,00000110,false,Rx,0,8,74,00,00,00,B0,00,7F,6F,
414099,00000130,false,Rx,0,8,F8,FF,FF,FF,A0,00,79,93,
415073,00000100,false,Rx,0,8,58,00,00,00,A0,00,75,03,
415074,00000120,false,Rx,0,8,F1,FF,FF,FF,70,00,24,CA,
416083,00000110,false,Rx,0,8,74,00,00,00,C0,00,5A,AF,
416084,00000130,false,Rx,0,8,F8,FF,FF,FF,B0,00,74,53,
417063,00000100,false,Rx,0,8,6F,00,00,00,B0,00,7C,84,
417065,00000140,false,Rx,0,8,01,00,FF,FF,E0,00,48,2E,
417065,00000120,false,Rx,0,8,F1,FF,FF,FF,80,00,60,CA,
418219,00000110,false,Rx,0,8,5D,00,00,00,D0,00,50,96,
418220,00000130,false,Rx,0,8,B9,FF,FF,FF,C0,00,5E,82,
419197,00000100,false,Rx,0,8,6F,00,00,00,C0,00,59,44,
419198,00000120,false,Rx,0,8,0E,00,00,00,90,00,6D,35,
420205,00000110,false,Rx,0,8,5D,00,00,00,E0,00,44,96,
420205,00000130,false,Rx,0,8,F8,FF,FF,FF,D0,00,5C,53,
421219,00000100,false,Rx,0,8,86,00,00,00,D0,00,42,7D,
421220,00000120,false,Rx,0,8,0E,00,00,00,A0,00,79,35,
421220,00000110,false,Rx,0,8,8B,00,00,00,F0,00,5A,A0,
422468,00000050,false,Rx,0,6,40,54,FF,FF,DF,FF,00,00,
422469,00000130,false,Rx,0,8,5D,34,03,00,E3,80,F4,46,
422470,00000100,false,Rx,0,8,6F,00,00,00,E0,00,40,84,
424095,00000120,false,Rx,0,8,0E,00,00,00,B0,00,74,F5,
424096,00000110,false,Rx,0,8,8B,00,00,00,00,00,1E,A0,
424097,00000210,false,Rx,0,8,75,69,00,05,06,5F,01,03,
425078,00000130,false,Rx,0,8,D9,FF,FF,FF,F0,00,43,22,
425078,00000100,false,Rx,0,8,6F,00,00,00,F0,00,4D,44,
426226,00000120,false,Rx,0,8,0E,00,00,00,C0,00,51,35,
426226,00000110,false,Rx,0,8,74,00,00,00,10,00,07,6F,
427217,00000130,false,Rx,0,8,37,00,00,00,00,00,04,5C,
427217,00000100,false,Rx,0,8,6F,00,00,00,00,00,09,44,
428195,00000120,false,Rx,0,8,0E,00,00,00,D0,00,5C,F5,
428196,00000110,false,Rx,0,8,74,00,00,00,20,00,13,6F,
429199,00000130,false,Rx,0,8,F8,FF,FF,FF,10,00,0C,53,
429199,00000100,false,Rx,0,8,58,00,00,00,10,00,00,C3,
429200,00000150,false,Rx,0,4,FD,F4,40,A7,00,00,00,00,
430347,00000120,false,Rx,0,8,0E,00,00,00,E0,00,48,F5,
430348,00000110,false,Rx,0,8,74,00,00,00,30,00,1E,AF,
431350,00000130,false,Rx,0,8,D9,FF,FF,FF,20,00,1E,E2,
431351,00000100,false,Rx,0,8,58,00,00,00,20,00,14,C3,
432348,00000120,false,Rx,0,8,0E,00,00,00,F0,00,45,35,
432349,00000110,false,Rx,0,8,74,00,00,00,40,00,3B,6F,
433322,00000130,false,Rx,0,8,18,00,00,00,30,00,17,C3,
433323,00000100,false,Rx,0,8,58,00,00,00,30,00,19,03,
434346,00000120,false,Rx,0,8,0E,00,00,00,00,00,01,35,
434347,00000110,false,Rx,0,8,5D,00,00,00,50,00,31,56,
435470,00000130,false,Rx,0,8,F8,FF,FF,FF,40,00,30,53,
435471,00000100,false,Rx,0,8,6F,00,00,00,40,00,38,84,
436455,00000120,false,Rx,0,8,0E,00,00,00,10,00,0C,F5,
436456,00000110,false,Rx,0,8,5D,00,00,00,60,00,25,56,
437445,00000130,false,Rx,0,8,F8,FF,FF,FF,50,00,3D,93,
437446,00000100,false,Rx,0,8,6F,00,00,00,50,00,35,44,
437446,00000140,false,Rx,0,8,01,00,FF,FF,F0,00,45,EE,
438467,00000120,false,Rx,0,8,0E,00,00,00,20,00,18,F5,
438468,00000110,false,Rx,0,8,74,00,00,00,70,00,2F,6F,
439600,00000130,false,Rx,0,8,F8,FF,FF,FF,60,00,29,93,
439600,00000100,false,Rx,0,8,6F,00,00,00,60,00,21,44,
440592,00000120,false,Rx,0,8,F1,FF,FF,FF,30,00,15,0A,
440593,00000110,false,Rx,0,8,74,00,00,00,80,00,6B,6F,
441573,00000130,false,Rx,0,8,D9,FF,FF,FF,70,00,22,E2,
441574,00000100,false,Rx,0,8,86,00,00,00,70,00,3A,7D,
441575,00000120,false,Rx,0,8,F1,FF,FF,FF,40,00,30,CA,
442844,00000110,false,Rx,0,8,5D,00,00,00,90,00,61,56,
442844,00000050,false,Rx,0,6,40,54,FF,FF,DF,FF,00,00,
442845,00000130,false,Rx,0,8,FB,95,FF,FF,83,80,79,39,
443803,00000100,false,Rx,0,8,6F,00,00,00,80,00,68,84,
443804,00000120,false,Rx,0,8,F1,FF,FF,FF,50,00,3D,0A,
444803,00000110,false,Rx,0,8,5D,00,00,00,A0,00,75,56,
444804,00000130,false,Rx,0,8,76,00,00,00,90,00,67,4D,
445950,00000100,false,Rx,0,8,6F,00,00,00,90,00,65,44,
445951,00000120,false,Rx,0,8,F1,FF,FF,FF,60,00,29,0A,
446931,00000110,false,Rx,0,8,74,00,00,00,B0,00,7F,6F,
446932,00000170,false,Rx,0,8,00,00,00,52,50,81,05,F7,
446933,00000130,false,Rx,0,8,F8,FF,FF,FF,A0,00,79,93,
447927,00000100,false,Rx,0,8,6F,00,00,00,A0,00,71,44,
447928,00000120,false,Rx,0,8,0E,00,00,00,70,00,24,F5,
448928,00000110,false,Rx,0,8,74,00,00,00,C0,00,5A,AF,
448929,00000150,false,Rx,0,4,FD,F4,40,A7,00,00,00,00,
448929,00000130,false,Rx,0,8,18,00,00,00,B0,00,76,03,
450052,00000100,false,Rx,0,8,6F,00,00,00,B0,00,7C,84,
450053,00000120,false,Rx,0,8,0E,00,00,00,80,00,60,F5,
451094,00000110,false,Rx,0,8,74,00,00,00,D0,00,57,6F,
451095,00000130,false,Rx,0,8,18,00,00,00,C0,00,53,C3,
452072,00000100,false,Rx,0,8,58,00,00,00,C0,00,5D,03,
452073,00000120,false,Rx,0,8,F1,FF,FF,FF,90,00,6D,0A,
453096,00000110,false,Rx,0,8,74,00,00,00,E0,00,43,6F,
453097,00000130,false,Rx,0,8,37,00,00,00,D0,00,59,9C,
454218,00000100,false,Rx,0,8,6F,00,00,00,D0,00,54,84,
454219,00000120,false,Rx,0,8,F1,FF,FF,FF,A0,00,79,0A,
455219,00000110,false,Rx,0,8,5D,00,00,00,F0,00,49,56,
455220,00000130,false,Rx,0,8,F8,FF,FF,FF,E0,00,48,53,
456196,00000100,false,Rx,0,8,6F,00,00,00,E0,00,40,84,
456197,00000120,false,Rx,0,8,0E,00,00,00,B0,00,74,F5,
457197,00000110,false,Rx,0,8,5D,00,00,00,00,00,0D,56,
457198,00000130,false,Rx,0,8,F8,FF,FF,FF,F0,00,45,93,
458218,00000100,false,Rx,0,8,58,00,00,00,F0,00,49,03,
458219,00000140,false,Rx,0,8,01,00,FF,FF,00,00,01,EE,
458220,00000120,false,Rx,0,8,0E,00,00,00,C0,00,51,35,
459344,00000110,false,Rx,0,8,5D,00,00,00,10,00,00,96,
459345,00000130,false,Rx,0,8,18,00,00,00,00,00,03,C3,
460346,00000100,false,Rx,0,8,6F,00,00,00,00,00,09,44,
460347,00000120,false,Rx,0,8,D5,FF,FF,FF,D0,00,5A,2E,
461322,00000110,false,Rx,0,8,5D,00,00,00,20,00,14,96,
461323,00000130,false,Rx,0,8,37,00,00,00,10,00,09,9C,
462335,00000100,false,Rx,0,8,86,00,00,00,10,00,12,7D,
462335,00000120,false,Rx,0,8,D5,FF,FF,FF,E0,00,4E,2E,
462336,00000110,false,Rx,0,8,5D,00,00,00,30,00,19,56,
463594,00000050,false,Rx,0,6,40,54,FF,FF,DF,FF,00,00,
463595,00000130,false,Rx,0,8,F7,BB,F5,FF,23,80,EA,2B,
463596,00000100,false,Rx,0,8,6F,00,00,00,20,00,10,84,
465201,00000120,false,Rx,0,8,0E,00,00,00,F0,00,45,35,
465202,00000110,false,Rx,0,8,5D,00,00,00,40,00,3C,96,
466196,00000130,false,Rx,0,8,B5,00,00,00,30,00,0E,7E,
466197,00000100,false,Rx,0,8,58,00,00,00,30,00,19,03,
467344,00000120,false,Rx,0,8,0E,00,00,00,00,00,01,35,
467345,00000110,false,Rx,0,8,5D,00,00,00,50,00,31,56,
468344,00000130,false,Rx,0,8,F8,FF,FF,FF,40,00,30,53,
468345,00000100,false,Rx,0,8,6F,00,00,00,40,00,38,84,
469343,00000120,false,Rx,0,8,0E,00,00,00,10,00,0C,F5,
469344,00000110,false,Rx,0,8,5D,00,00,00,60,00,25,56,
469344,00000150,false,Rx,0,4,FD,F4,40,A7,00,00,00,00,
470322,00000130,false,Rx,0,8,D9,FF,FF,FF,50,00,3B,22,
470323,00000100,false,Rx,0,8,6F,00,00,00,50,00,35,44,
471315,00000120,false,Rx,0,8,0E,00,00,00,20,00,18,F5,
471316,00000110,false,Rx,0,8,74,00,00,00,70,00,2F,6F,
472471,00000130,false,Rx,0,8,37,00,00,00,60,00,2C,5C,
472472,00000100,false,Rx,0,8,58,00,00,00,60,00,25,03,
473449,00000120,false,Rx,0,8,0E,00,00,00,30,00,15,35,
473450,00000110,false,Rx,0,8,74,00,00,00,80,00,6B,6F,
474444,00000130,false,Rx,0,8,F8,FF,FF,FF,70,00,24,53,
474445,00000100,false,Rx,0,8,86,00,00,00,70,00,3A,7D,
475457,00000120,false,Rx,0,8,0E,00,00,00,40,00,30,F5,
475458,00000110,false,Rx,0,8,74,00,00,00,90,00,66,AF,
476441,00000130,false,Rx,0,8,D9,FF,FF,FF,80,00,66,E2,
476441,00000100,false,Rx,0,8,6F,00,00,00,80,00,68,84,
477595,00000120,false,Rx,0,8,0E,00,00,00,50,00,3D,35,
477595,00000110,false,Rx,0,8,74,00,00,00,A0,00,72,AF,
478597,00000130,false,Rx,0,8,D9,FF,FF,FF,90,00,6B,22,
478598,00000100,false,Rx,0,8,6F,00,00,00,90,00,65,44,
478599,00000140,false,Rx,0,8,01,00,FF,FF,10,00,0C,2E,
479572,00000120,false,Rx,0,8,0E,00,00,00,60,00,29,35,
479573,00000110,false,Rx,0,8,5D,00,00,00,B0,00,78,96,
480563,00000130,false,Rx,0,8,F8,FF,FF,FF,A0,00,79,93,
480564,00000100,false,Rx,0,8,86,00,00,00,A0,00,67,BD,
481724,00000120,false,Rx,0,8,F1,FF,FF,FF,70,00,24,CA,
481724,00000110,false,Rx,0,8,5D,00,00,00,C0,00,5D,56,
482718,00000130,false,Rx,0,8,F8,FF,FF,FF,B0,00,74,53,
482719,00000100,false,Rx,0,8,6F,00,00,00,B0,00,7C,84,
482720,00000120,false,Rx,0,8,F1,FF,FF,FF,80,00,60,CA,
483945,00000110,false,Rx,0,8,8B,00,00,00,D0,00,43,60,
483946,00000050,false,Rx,0,6,40,54,FF,FF,DF,FF,00,00,
483946,00000130,false,Rx,0,8,67,21,00,00,C3,80,E5,5B,
484945,00000100,false,Rx,0,8,58,00,00,00,C0,00,5D,03,
484945,00000120,false,Rx,0,8,0E,00,00,00,90,00,6D,35,
485960,00000110,false,Rx,0,8,8B,00,00,00,E0,00,57,60,
485960,00000130,false,Rx,0,8,D9,FF,FF,FF,D0,00,5A,E2,
487093,00000100,false,Rx,0,8,6F,00,00,00,D0,00,54,84,
487094,00000120,false,Rx,0,8,0E,00,00,00,A0,00,79,35,
488096,00000110,false,Rx,0,8,74,00,00,00,F0,00,4E,AF,
488096,00000130,false,Rx,0,8,F8,FF,FF,FF,E0,00,48,53,
489096,00000100,false,Rx,0,8,6F,00,00,00,E0,00,40,84,
489097,00000150,false,Rx,0,4,FD,F4,40,A7,00,00,00,00,
489098,00000120,false,Rx,0,8,F1,FF,FF,FF,B0,00,74,CA,
490072,00000110,false,Rx,0,8,74,00,00,00,00,00,0A,AF,
490073,00000130,false,Rx,0,8,D9,FF,FF,FF,F0,00,43,22,
491219,00000100,false,Rx,0,8,58,00,00,00,F0,00,49,03,
491220,00000120,false,Rx,0,8,F1,FF,FF,FF,C0,00,51,0A,
492196,00000110,false,Rx,0,8,74,00,00,00,10,00,07,6F,
492197,00000130,false,Rx,0,8,F8,FF,FF,FF,00,00,01,93,
493180,00000100,false,Rx,0,8,58,00,00,00,00,00,0D,03,
493181,00000120,false,Rx,0,8,0E,00,00,00,D0,00,5C,F5,
494197,00000110,false,Rx,0,8,74,00,00,00,20,00,13,6F,
494198,00000130,false,Rx,0,8,D9,FF,FF,FF,10,00,0A,E2,
495187,00000100,false,Rx,0,8,6F,00,00,00,10,00,04,84,
495187,00000120,false,Rx,0,8,0E,00,00,00,E0,00,48,F5,
496346,00000110,false,Rx,0,8,5D,00,00,00,30,00,19,56,
496347,00000130,false,Rx,0,8,37,00,00,00,20,00,1D,9C,
497344,00000100,false,Rx,0,8,86,00,00,00,20,00,06,7D,
497345,00000120,false,Rx,0,8,0E,00,00,00,F0,00,45,35,
498324,00000110,false,Rx,0,8,5D,00,00,00,40,00,3C,96,
498324,00000130,false,Rx,0,8,F8,FF,FF,FF,30,00,15,93,
499321,00000100,false,Rx,0,8,6F,00,00,00,30,00,1D,44,
499322,00000140,false,Rx,0,8,01,00,FF,FF,20,00,18,2E,
499322,00000120,false,Rx,0,8,0E,00,00,00,00,00,01,35,
500471,00000110,false,Rx,0,8,46,00,00,00,50,00,32,BD,
500471,00000130,false,Rx,0,8,D9,FF,FF,FF,40,00,36,E2,
501428,00000100,false,Rx,0,8,9D,00,00,00,40,00,2D,96,
501429,00000120,false,Rx,0,8,F1,FF,FF,FF,10,00,0C,CA,
502440,00000110,false,Rx,0,8,46,00,00,00,60,00,26,BD,
502441,00000130,false,Rx,0,8,F8,FF,FF,FF,50,00,3D,93,
503440,00000100,false,Rx,0,8,58,00,00,00,50,00,31,03,
503441,00000120,false,Rx,0,8,F1,FF,FF,FF,20,00,18,CA,
503442,00000110,false,Rx,0,8,8B,00,00,00,70,00,3B,60,
504690,00000050,false,Rx,0,6,40,54,FF,FF,DF,FF,00,00,
504691,00000130,false,Rx,0,8,3D,34,03,00,63,80,9C,26,
504692,00000100,false,Rx,0,8,58,00,00,00,60,00,25,03,
506315,00000120,false,Rx,0,8,0E,00,00,00,30,00,15,35,
506316,00000110,false,Rx,0,8,8B,00,00,00,80,00,7F,60,
507315,00000130,false,Rx,0,8,F8,FF,FF,FF,70,00,24,53,
507316,00000100,false,Rx,0,8,6F,00,00,00,70,00,2C,84,
508314,00000120,false,Rx,0,8,0E,00,00,00,40,00,30,F5,
508315,00000110,false,Rx,0,8,74,00,00,00,90,00,66,AF,
509439,00000130,false,Rx,0,8,F8,FF,FF,FF,80,00,60,53,
509439,00000100,false,Rx,0,8,6F,00,00,00,80,00,68,84,
509440,00000150,false,Rx,0,4,FD,F4,40,A7,00,00,00,00,
510441,00000120,false,Rx,0,8,0E,00,00,00,50,00,3D,35,
510441,00000110,false,Rx,0,8,74,00,00,00,A0,00,72,AF,
511441,00000130,false,Rx,0,8,F8,FF,FF,FF,90,00,6D,93,
511441,00000100,false,Rx,0,8,58,00,00,00,90,00,61,03,
512441,00000120,false,Rx,0,8,0E,00,00,00,60,00,29,35,
512442,00000110,false,Rx,0,8,74,00,00,00,B0,00,7F,6F,
513564,00000130,false,Rx,0,8,18,00,00,00,A0,00,7B,C3,
513565,00000100,false,Rx,0,8,6F,00,00,00,A0,00,71,44,
514564,00000120,false,Rx,0,8,F1,FF,FF,FF,70,00,24,CA,
514565,00000110,false,Rx,0,8,74,00,00,00,C0,00,5A,AF,
515565,00000130,false,Rx,0,8,F8,FF,FF,FF,B0,00,74,53,
515566,00000100,false,Rx,0,8,6F,00,00,00,B0,00,7C,84,
516558,00000120,false,Rx,0,8,F1,FF,FF,FF,80,00,60,CA,
516558,00000110,false,Rx,0,8,5D,00,00,00,D0,00,50,96,
517565,00000130,false,Rx,0,8,F8,FF,FF,FF,C0,00,51,93,
517566,00000100,false,Rx,0,8,6F,00,00,00,C0,00,59,44,
518687,00000120,false,Rx,0,8,F1,FF,FF,FF,90,00,6D,0A,
518688,00000110,false,Rx,0,8,5D,00,00,00,E0,00,44,96,
519689,00000130,false,Rx,0,8,D9,FF,FF,FF,D0,00,5A,E2,
519690,00000100,false,Rx,0,8,6F,00,00,00,D0,00,54,84,
519690,00000140,false,Rx,0,8,01,00,FF,FF,30,00,15,EE,
520689,00000120,false,Rx,0,8,F1,FF,FF,FF,A0,00,79,0A,
520690,00000110,false,Rx,0,8,46,00,00,00,F0,00,4A,BD,
521689,00000130,false,Rx,0,8,D9,FF,FF,FF,E0,00,4E,E2,
521690,00000100,false,Rx,0,8,86,00,00,00,E0,00,56,7D,
522689,00000120,false,Rx,0,8,F1,FF,FF,FF,B0,00,74,CA,
522690,00000110,false,Rx,0,8,46,00,00,00,00,00,0E,BD,
523814,00000130,false,Rx,0,8,F8,FF,FF,FF,F0,00,45,93,
523815,00000100,false,Rx,0,8,6F,00,00,00,F0,00,4D,44,
523815,00000120,false,Rx,0,8,F1,FF,FF,FF,C0,00,51,0A,
525065,00000110,false,Rx,0,8,5D,00,00,00,10,00,00,96,
525066,00000050,false,Rx,0,6,40,54,FF,FF,DF,FF,00,00,
525067,00000130,false,Rx,0,8,FB,95,FF,FF,03,80,18,F9,
526064,00000100,false,Rx,0,8,6F,00,00,00,00,00,09,44,
526064,00000120,false,Rx,0,8,0E,00,00,00,D0,00,5C,F5,
527062,00000110,false,Rx,0,8,5D,00,00,00,20,00,14,96,
527062,00000130,false,Rx,0,8,B5,00,00,00,10,00,17,BE,
528186,00000100,false,Rx,0,8,58,00,00,00,10,00,00,C3,
528187,00000120,false,Rx,0,8,0E,00,00,00,E0,00,48,F5,
529188,00000110,false,Rx,0,8,5D,00,00,00,30,00,19,56,
529189,00000150,false,Rx,0,4,FD,F4,40,A7,00,00,00,00,
529189,00000130,false,Rx,0,8,F8,FF,FF,FF,20,00,18,53,
530189,00000100,false,Rx,0,8,58,00,00,00,20,00,14,C3,
530190,00000120,false,Rx,0,8,0E,00,00,00,F0,00,45,35,
531188,00000110,false,Rx,0,8,5D,00,00,00,40,00,3C,96,
531189,00000130,false,Rx,0,8,37,00,00,00,30,00,10,5C,
532313,00000100,false,Rx,0,8,41,00,00,00,30,00,1B,0A,
532314,00000120,false,Rx,0,8,0E,00,00,00,00,00,01,35,
533314,00000110,false,Rx,0,8,74,00,00,00,50,00,36,AF,
533314,00000130,false,Rx,0,8,18,00,00,00,40,00,32,03,
534314,00000100,false,Rx,0,8,86,00,00,00,40,00,2E,7D,
534315,00000120,false,Rx,0,8,F1,FF,FF,FF,10,00,0C,CA,
535312,00000110,false,Rx,0,8,74,00,00,00,60,00,22,AF,
535313,00000130,false,Rx,0,8,D9,FF,FF,FF,50,00,3B,22,
536314,00000100,false,Rx,0,8,6F,00,00,00,50,00,35,44,
536315,00000120,false,Rx,0,8,F1,FF,FF,FF,20,00,18,CA,
537439,00000110,false,Rx,0,8,46,00,00,00,70,00,2B,7D,
537440,00000130,false,Rx,0,8,B9,FF,FF,FF,60,00,26,82,
538440,00000100,false,Rx,0,8,6F,00,00,00,60,00,21,44,
538440,00000120,false,Rx,0,8,F1,FF,FF,FF,30,00,15,0A,
539438,00000110,false,Rx,0,8,46,00,00,00,80,00,6F,7D,
539439,00000130,false,Rx,0,8,D9,FF,FF,FF,70,00,22,E2,
540439,00000100,false,Rx,0,8,6F,00,00,00,70,00,2C,84,
540440,00000140,false,Rx,0,8,01,00,FF,FF,40,00,30,2E,
540440,00000120,false,Rx,0,8,F1,FF,FF,FF,40,00,30,CA,
541438,00000110,false,Rx,0,8,46,00,00,00,90,00,62,BD,
541439,00000130,false,Rx,0,8,18,00,00,00,80,00,62,03,
542562,00000100,false,Rx,0,8,86,00,00,00,80,00,7E,7D,
542563,00000120,false,Rx,0,8,0E,00,00,00,50,00,3D,35,
543564,00000110,false,Rx,0,8,46,00,00,00,A0,00,76,BD,
543565,00000130,false,Rx,0,8,F8,FF,FF,FF,90,00,6D,93,
544566,00000100,false,Rx,0,8,58,00,00,00,90,00,61,03,
544567,00000120,false,Rx,0,8,0E,00,00,00,60,00,29,35,
544567,00000110,false,Rx,0,8,74,00,00,00,B0,00,7F,6F,
545813,00000050,false,Rx,0,6,40,54,FF,FF,DF,FF,00,00,
545814,00000130,false,Rx,0,8,16,BC,F5,FF,A3,80,29,9A,
545815,00000100,false,Rx,0,8,58,00,00,00,A0,00,75,03,
547430,00000120,false,Rx,0,8,0E,00,00,00,70,00,24,F5,
547431,00000110,false,Rx,0,8,74,00,00,00,C0,00,5A,AF,
548430,00000130,false,Rx,0,8,B5,00,00,00,B0,00,6F,BE,
548431,00000100,false,Rx,0,8,58,00,00,00,B0,00,78,C3,
549428,00000120,false,Rx,0,8,0E,00,00,00,80,00,60,F5,
549429,00000110,false,Rx,0,8,5D,00,00,00,D0,00,50,96,
549429,00000150,false,Rx,0,4,FD,F4,40,A7,00,00,00,00,
549431,00000170,false,Rx,0,8,00,00,00,53,50,81,05,6A,
550555,00000130,false,Rx,0,8,F8,FF,FF,FF,C0,00,51,93,
550556,00000100,false,Rx,0,8,58,00,00,00,C0,00,5D,03,
551551,00000120,false,Rx,0,8,2A,00,00,00,90,00,6B,D1,
551552,00000110,false,Rx,0,8,5D,00,00,00,E0,00,44,96,
552563,00000130,false,Rx,0,8,F8,FF,FF,FF,D0,00,5C,53,
552564,00000100,false,Rx,0,8,58,00,00,00,D0,00,50,C3,
553563,00000120,false,Rx,0,8,2A,00,00,00,A0,00,7F,D1,
553563,00000110,false,Rx,0,8,74,00,00,00,F0,00,4E,AF,
554567,00000130,false,Rx,0,8,D9,FF,FF,FF,E0,00,4E,E2,
554569,00000100,false,Rx,0,8,6F,00,00,00,E0,00,40,84,
555688,00000120,false,Rx,0,8,F1,FF,FF,FF,B0,00,74,CA,
555689,00000110,false,Rx,0,8,74,00,00,00,00,00,0A,AF,
556690,00000130,false,Rx,0,8,D9,FF,FF,FF,F0,00,43,22,
556690,00000100,false,Rx,0,8,6F,00,00,00,F0,00,4D,44,
557690,00000120,false,Rx,0,8,F1,FF,FF,FF,C0,00,51,0A,
557690,00000110,false,Rx,0,8,5D,00,00,00,10,00,00,96,
558675,00000130,false,Rx,0,8,F8,FF,FF,FF,00,00,01,93,
558676,00000100,false,Rx,0,8,86,00,00,00,00,00,1F,BD,
559683,00000120,false,Rx,0,8,0E,00,00,00,D0,00,5C,F5,
559684,00000110,false,Rx,0,8,5D,00,00,00,20,00,14,96,
560801,00000130,false,Rx,0,8,F8,FF,FF,FF,10,00,0C,53,
560802,00000100,false,Rx,0,8,86,00,00,00,10,00,12,7D,
560802,00000140,false,Rx,0,8,01,00,FF,FF,50,00,3D,EE,
561815,00000120,false,Rx,0,8,0E,00,00,00,E0,00,48,F5,
561816,00000110,false,Rx,0,8,46,00,00,00,30,00,1A,BD,
562814,00000130,false,Rx,0,8,18,00,00,00,20,00,1A,03,
562815,00000100,false,Rx,0,8,6F,00,00,00,20,00,10,84,
563815,00000120,false,Rx,0,8,0E,00,00,00,F0,00,45,35,
563817,00000110,false,Rx,0,8,46,00,00,00,40,00,3F,7D,
564926,00000130,false,Rx,0,8,18,00,00,00,30,00,17,C3,
564927,00000100,false,Rx,0,8,58,00,00,00,30,00,19,03,
564927,00000120,false,Rx,0,8,0E,00,00,00,00,00,01,35,
566065,00000110,false,Rx,0,8,8B,00,00,00,50,00,22,A0,
566065,00000050,false,Rx,0,6,40,54,FF,FF,DF,FF,00,00,
566066,00000130,false,Rx,0,8,67,21,00,00,43,80,84,9B,
567187,00000100,false,Rx,0,8,58,00,00,00,40,00,3C,C3,
567188,00000120,false,Rx,0,8,0E,00,00,00,10,00,0C,F5,
568188,00000110,false,Rx,0,8,8B,00,00,00,60,00,36,A0,
568189,00000130,false,Rx,0,8,D9,FF,FF,FF,50,00,3B,22,
569187,00000100,false,Rx,0,8,6F,00,00,00,50,00,35,44,
569188,00000150,false,Rx,0,4,FD,F4,40,A7,00,00,00,00,
569188,00000120,false,Rx,0,8,0E,00,00,00,20,00,18,F5,
570312,00000110,false,Rx,0,8,74,00,00,00,70,00,2F,6F,
570313,00000130,false,Rx,0,8,F8,FF,FF,FF,60,00,29,93,
571313,00000100,false,Rx,0,8,58,00,00,00,60,00,25,03,
571314,00000120,false,Rx,0,8,F1,FF,FF,FF,30,00,15,0A,
572313,00000110,false,Rx,0,8,74,00,00,00,80,00,6B,6F,
572314,00000130,false,Rx,0,8,D9,FF,FF,FF,70,00,22,E2,
573314,00000100,false,Rx,0,8,6F,00,00,00,70,00,2C,84,
573315,00000120,false,Rx,0,8,F1,FF,FF,FF,40,00,30,CA,
574314,00000110,false,Rx,0,8,5D,00,00,00,90,00,61,56,
574315,00000130,false,Rx,0,8,F8,FF,FF,FF,80,00,60,53,
575435,00000100,false,Rx,0,8,6F,00,00,00,80,00,68,84,
575436,00000120,false,Rx,0,8,F1,FF,FF,FF,50,00,3D,0A,
576439,00000110,false,Rx,0,8,5D,00,00,00,A0,00,75,56,
576440,00000130,false,Rx,0,8,18,00,00,00,90,00,6F,C3,
577439,00000100,false,Rx,0,8,6F,00,00,00,90,00,65,44,
577440,00000120,false,Rx,0,8,F1,FF,FF,FF,60,00,29,0A,
578436,00000110,false,Rx,0,8,5D,00,00,00,B0,00,78,96,
578437,00000130,false,Rx,0,8,D9,FF,FF,FF,A0,00,7F,22,
579563,00000100,false,Rx,0,8,58,00,00,00,A0,00,75,03,
579564,00000120,false,Rx,0,8,D5,FF,FF,FF,70,00,22,2E,
580564,00000110,false,Rx,0,8,5D,00,00,00,C0,00,5D,56,
580565,00000130,false,Rx,0,8,37,00,00,00,B0,00,71,9C,
581563,00000100,false,Rx,0,8,9D,00,00,00,B0,00,69,96,
581563,00000140,false,Rx,0,8,01,00,FF,FF,60,00,29,EE,
581564,00000120,false,Rx,0,8,D5,FF,FF,FF,80,00,66,2E,
582562,00000110,false,Rx,0,8,5D,00,00,00,D0,00,50,96,
582563,00000130,false,Rx,0,8,18,00,00,00,C0,00,53,C3,
583688,00000100,false,Rx,0,8,6F,00,00,00,C0,00,59,44,
583689,00000120,false,Rx,0,8,0E,00,00,00,90,00,6D,35,
584687,00000110,false,Rx,0,8,5D,00,00,00,E0,00,44,96,
584688,00000130,false,Rx,0,8,F8,FF,FF,FF,D0,00,5C,53,
585687,00000100,false,Rx,0,8,6F,00,00,00,D0,00,54,84,
585688,00000120,false,Rx,0,8,0E,00,00,00,A0,00,79,35,
585689,00000110,false,Rx,0,8,8B,00,00,00,F0,00,5A,A0,
586810,00000050,false,Rx,0,6,40,54,FF,FF,DF,FF,00,00,
586810,00000130,false,Rx,0,8,7C,34,03,00,E3,80,F2,F7,
586811,00000100,false,Rx,0,8,58,00,00,00,E0,00,44,C3,
588437,00000120,false,Rx,0,8,F1,FF,FF,FF,B0,00,74,CA,
588438,00000110,false,Rx,0,8,8B,00,00,00,00,00,1E,A0,
589551,00000130,false,Rx,0,8,D9,FF,FF,FF,F0,00,43,22,
589552,00000100,false,Rx,0,8,58,00,00,00,F0,00,49,03,
589553,00000150,false,Rx,0,4,FD,F4,40,A7,00,00,00,00,
590553,00000120,false,Rx,0,8,F1,FF,FF,FF,C0,00,51,0A,
590555,00000110,false,Rx,0,8,5D,00,00,00,10,00,00,96,
591552,00000130,false,Rx,0,8,F8,FF,FF,FF,00,00,01,93,
591554,00000100,false,Rx,0,8,58,00,00,00,00,00,0D,03,
592677,00000120,false,Rx,0,8,F1,FF,FF,FF,D0,00,5C,CA,
592678,00000110,false,Rx,0,8,5D,00,00,00,20,00,14,96,
593678,00000130,false,Rx,0,8,18,00,00,00,10,00,0E,03,
593679,00000100,false,Rx,0,8,6F,00,00,00,10,00,04,84,
594676,00000120,false,Rx,0,8,F1,FF,FF,FF,E0,00,48,CA,
594677,00000110,false,Rx,0,8,5D,00,00,00,30,00,19,56,
595678,00000130,false,Rx,0,8,B9,FF,FF,FF,20,00,17,42,
595679,00000100,false,Rx,0,8,6F,00,00,00,20,00,10,84,
596689,00000120,false,Rx,0,8,F1,FF,FF,FF,F0,00,45,0A,
596690,00000110,false,Rx,0,8,5D,00,00,00,40,00,3C,96,
597801,00000130,false,Rx,0,8,18,00,00,00,30,00,17,C3,
597802,00000100,false,Rx,0,8,6F,00,00,00,30,00,1D,44,
598801,00000120,false,Rx,0,8,F1,FF,FF,FF,00,00,01,0A,
598802,00000110,false,Rx,0,8,74,00,00,00,50,00,36,AF,
599801,00000130,false,Rx,0,8,18,00,00,00,40,00,32,03,
599802,00000100,false,Rx,0,8,6F,00,00,00,40,00,38,84,
600799,00000120,false,Rx,0,8,F1,FF,FF,FF,10,00,0C,CA,
600800,00000110,false,Rx,0,8,74,00,00,00,60,00,22,AF,
601930,00000130,false,Rx,0,8,37,00,00,00,50,00,38,5C,
601931,00000100,false,Rx,0,8,86,00,00,00,50,00,23,BD,
601932,00000140,false,Rx,0,8,01,00,FF,FF,70,00,24,2E,
602925,00000120,false,Rx,0,8,F1,FF,FF,FF,20,00,18,CA,
602926,00000110,false,Rx,0,8,74,00,00,00,70,00,2F,6F,
603924,00000130,false,Rx,0,8,D9,FF,FF,FF,60,00,2F,22,
603925,00000100,false,Rx,0,8,6F,00,00,00,60,00,21,44,
604926,00000120,false,Rx,0,8,0E,00,00,00,30,00,15,35,
604927,00000110,false,Rx,0,8,74,00,00,00,80,00,6B,6F,
605936,00000130,false,Rx,0,8,F8,FF,FF,FF,70,00,24,53,
605937,00000100,false,Rx,0,8,58,00,00,00,70,00,28,C3,
605937,00000120,false,Rx,0,8,0E,00,00,00,40,00,30,F5,
607188,00000110,false,Rx,0,8,5D,00,00,00,90,00,61,56,
607189,00000050,false,Rx,0,6,40,54,FF,FF,DF,FF,00,00,
607189,00000130,false,Rx,0,8,FB,95,FF,FF,83,80,79,39,
608315,00000100,false,Rx,0,8,6F,00,00,00,80,00,68,84,
608316,00000120,false,Rx,0,8,0E,00,00,00,50,00,3D,35,
609313,00000110,false,Rx,0,8,5D,00,00,00,A0,00,75,56,
609314,00000150,false,Rx,0,4,FD,F4,40,A7,00,00,00,00,
609314,00000130,false,Rx,0,8,95,00,00,00,90,00,71,1E,
610312,00000100,false,Rx,0,8,58,00,00,00,90,00,61,03,
610313,00000120,false,Rx,0,8,0E,00,00,00,60,00,29,35,
611436,00000110,false,Rx,0,8,8B,00,00,00,B0,00,6B,60,
611437,00000130,false,Rx,0,8,F8,FF,FF,FF,A0,00,79,93,
612437,00000100,false,Rx,0,8,58,00,00,00,A0,00,75,03,
612437,00000120,false,Rx,0,8,0E,00,00,00,70,00,24,F5,
613435,00000110,false,Rx,0,8,8B,00,00,00,C0,00,4E,A0,
613436,00000130,false,Rx,0,8,18,00,00,00,B0,00,76,03,
614461,00000100,false,Rx,0,8,6F,00,00,00,B0,00,7C,84,
614462,00000120,false,Rx,0,8,0E,00,00,00,80,00,60,F5,
615440,00000110,false,Rx,0,8,5D,00,00,00,D0,00,50,96,
615441,00000130,false,Rx,0,8,F8,FF,FF,FF,C0,00,51,93,
616565,00000100,false,Rx,0,8,6F,00,00,00,C0,00,59,44,
616566,00000120,false,Rx,0,8,0E,00,00,00,90,00,6D,35,
617564,00000110,false,Rx,0,8,5D,00,00,00,E0,00,44,96,
617565,00000130,false,Rx,0,8,F8,FF,FF,FF,D0,00,5C,53,
618563,00000100,false,Rx,0,8,6F,00,00,00,D0,00,54,84,
618564,00000120,false,Rx,0,8,0E,00,00,00,A0,00,79,35,
619565,00000110,false,Rx,0,8,5D,00,00,00,F0,00,49,56,
619565,00000130,false,Rx,0,8,18,00,00,00,E0,00,4A,03,
620563,00000100,false,Rx,0,8,86,00,00,00,E0,00,56,7D,
620564,00000120,false,Rx,0,8,D5,FF,FF,FF,B0,00,72,2E,
621687,00000110,false,Rx,0,8,5D,00,00,00,00,00,0D,56,
621688,00000130,false,Rx,0,8,F8,FF,FF,FF,F0,00,45,93,
622689,00000100,false,Rx,0,8,6F,00,00,00,F0,00,4D,44,
622690,00000140,false,Rx,0,8,01,00,FF,FF,80,00,60,2E,
622690,00000120,false,Rx,0,8,D5,FF,FF,FF,C0,00,57,EE,
623689,00000110,false,Rx,0,8,5D,00,00,00,10,00,00,96,
623690,00000130,false,Rx,0,8,18,00,00,00,00,00,03,C3,
624813,00000100,false,Rx,0,8,6F,00,00,00,00,00,09,44,
624814,00000120,false,Rx,0,8,0E,00,00,00,D0,00,5C,F5,
625813,00000110,false,Rx,0,8,5D,00,00,00,20,00,14,96,
625813,00000130,false,Rx,0,8,F8,FF,FF,FF,10,00,0C,53,
626812,00000100,false,Rx,0,8,58,00,00,00,10,00,00,C3,
626813,00000120,false,Rx,0,8,0E,00,00,00,E0,00,48,F5,
626813,00000110,false,Rx,0,8,5D,00,00,00,30,00,19,56,
627938,00000050,false,Rx,0,6,40,54,FF,FF,DF,FF,00,00,
627939,00000130,false,Rx,0,8,F7,BB,F5,FF,23,80,EA,2B,
627939,00000100,false,Rx,0,8,6F,00,00,00,20,00,10,84,
629563,00000120,false,Rx,0,8,0E,00,00,00,F0,00,45,35,
629564,00000110,false,Rx,0,8,5D,00,00,00,40,00,3C,96,
629564,00000150,false,Rx,0,4,FD,F4,40,A7,00,00,00,00,
630686,00000130,false,Rx,0,8,95,00,00,00,30,00,09,1E,
630687,00000100,false,Rx,0,8,58,00,00,00,30,00,19,03,
631696,00000120,false,Rx,0,8,0E,00,00,00,00,00,01,35,
631697,00000110,false,Rx,0,8,74,00,00,00,50,00,36,AF,
632686,00000130,false,Rx,0,8,D9,FF,FF,FF,40,00,36,E2,
632687,00000100,false,Rx,0,8,58,00,00,00,40,00,3C,C3,
633801,00000120,false,Rx,0,8,F1,FF,FF,FF,10,00,0C,CA,
633802,00000110,false,Rx,0,8,74,00,00,00,60,00,22,AF,
634800,00000130,false,Rx,0,8,F8,FF,FF,FF,50,00,3D,93,
634801,00000100,false,Rx,0,8,6F,00,00,00,50,00,35,44,
635801,00000120,false,Rx,0,8,F1,FF,FF,FF,20,00,18,CA,
635802,00000110,false,Rx,0,8,5D,00,00,00,70,00,28,96,
636821,00000130,false,Rx,0,8,18,00,00,00,60,00,2B,C3,
636822,00000100,false,Rx,0,8,86,00,00,00,60,00,37,BD,
637839,00000120,false,Rx,0,8,F1,FF,FF,FF,30,00,15,0A,
637840,00000110,false,Rx,0,8,5D,00,00,00,80,00,6C,96,
638942,00000130,false,Rx,0,8,18,00,00,00,70,00,26,03,
638942,00000100,false,Rx,0,8,6F,00,00,00,70,00,2C,84,
639955,00000120,false,Rx,0,8,F1,FF,FF,FF,40,00,30,CA,
639955,00000110,false,Rx,0,8,46,00,00,00,90,00,62,BD,
640938,00000130,false,Rx,0,8,D9,FF,FF,FF,80,00,66,E2,
640939,00000100,false,Rx,0,8,86,00,00,00,80,00,7E,7D,
641941,00000120,false,Rx,0,8,F1,FF,FF,FF,50,00,3D,0A,
641942,00000110,false,Rx,0,8,46,00,00,00,A0,00,76,BD,
642936,00000130,false,Rx,0,8,D9,FF,FF,FF,90,00,6B,22,
642937,00000100,false,Rx,0,8,6F,00,00,00,90,00,65,44,
642938,00000140,false,Rx,0,8,01,00,FF,FF,90,00,6D,EE,
644060,00000120,false,Rx,0,8,F1,FF,FF,FF,60,00,29,0A,
644061,00000110,false,Rx,0,8,5D,00,00,00,B0,00,78,96,
645068,00000130,false,Rx,0,8,18,00,00,00,A0,00,7B,C3,
645069,00000100,false,Rx,0,8,6F,00,00,00,A0,00,71,44,
646069,00000120,false,Rx,0,8,0E,00,00,00,70,00,24,F5,
646070,00000110,false,Rx,0,8,5D,00,00,00,C0,00,5D,56,
647078,00000130,false,Rx,0,8,18,00,00,00,B0,00,76,03,
647079,00000100,false,Rx,0,8,6F,00,00,00,B0,00,7C,84,
647079,00000120,false,Rx,0,8,0E,00,00,00,80,00,60,F5,
648320,00000110,false,Rx,0,8,8B,00,00,00,D0,00,43,60,
648321,00000050,false,Rx,0,6,40,54,FF,FF,DF,FF,00,00,
648322,00000130,false,Rx,0,8,48,21,00,00,C3,80,E2,C4,
649313,00000100,false,Rx,0,8,58,00,00,00,C0,00,5D,03,
649314,00000150,false,Rx,0,4,FD,F4,40,A7,00,00,00,00,
649315,00000120,false,Rx,0,8,0E,00,00,00,90,00,6D,35,
650467,00000110,false,Rx,0,8,8B,00,00,00,E0,00,57,60,
650468,00000130,false,Rx,0,8,9A,FF,FF,FF,D0,00,54,11,
651444,00000100,false,Rx,0,8,58,00,00,00,D0,00,50,C3,
651445,00000120,false,Rx,0,8,0E,00,00,00,A0,00,79,35,
652436,00000110,false,Rx,0,8,74,00,00,00,F0,00,4E,AF,
652437,00000170,false,Rx,0,8,00,00,00,54,50,81,05,9E,
652437,00000130,false,Rx,0,8,37,00,00,00,E0,00,4D,9C,
653592,00000100,false,Rx,0,8,6F,00,00,00,E0,00,40,84,
653593,00000120,false,Rx,0,8,D5,FF,FF,FF,B0,00,72,2E,
654590,00000110,false,Rx,0,8,74,00,00,00,00,00,0A,AF,
654591,00000130,false,Rx,0,8,F8,FF,FF,FF,F0,00,45,93,
655599,00000100,false,Rx,0,8,6F,00,00,00,F0,00,4D,44,
655600,00000120,false,Rx,0,8,D5,FF,FF,FF,C0,00,57,EE,
656563,00000110,false,Rx,0,8,46,00,00,00,10,00,03,7D,
656564,00000130,false,Rx,0,8,F8,FF,FF,FF,00,00,01,93,
657717,00000100,false,Rx,0,8,86,00,00,00,00,00,1F,BD,
657718,00000120,false,Rx,0,8,F1,FF,FF,FF,D0,00,5C,CA,
658713,00000110,false,Rx,0,8,46,00,00,00,20,00,17,7D,
658713,00000130,false,Rx,0,8,D9,FF,FF,FF,10,00,0A,E2,
659693,00000100,false,Rx,0,8,6F,00,00,00,10,00,04,84,
659693,00000120,false,Rx,0,8,F1,FF,FF,FF,E0,00,48,CA,
660696,00000110,false,Rx,0,8,46,00,00,00,30,00,1A,BD,
660697,00000130,false,Rx,0,8,D9,FF,FF,FF,20,00,1E,E2,
661709,00000100,false,Rx,0,8,86,00,00,00,20,00,06,7D,
661710,00000120,false,Rx,0,8,F1,FF,FF,FF,F0,00,45,0A,
662857,00000110,false,Rx,0,8,46,00,00,00,40,00,3F,7D,
662859,00000130,false,Rx,0,8,18,00,00,00,30,00,17,C3,
663828,00000100,false,Rx,0,8,6F,00,00,00,30,00,1D,44,
663830,00000140,false,Rx,0,8,01,00,FF,FF,A0,00,79,EE,
663830,00000120,false,Rx,0,8,F1,FF,FF,FF,00,00,01,0A,
664829,00000110,false,Rx,0,8,5D,00,00,00,50,00,31,56,
664830,00000130,false,Rx,0,8,F8,FF,FF,FF,40,00,30,53,
665829,00000100,false,Rx,0,8,6F,00,00,00,40,00,38,84,
665831,00000120,false,Rx,0,8,0E,00,00,00,10,00,0C,F5,
666956,00000110,false,Rx,0,8,5D,00,00,00,60,00,25,56,
666957,00000130,false,Rx,0,8,18,00,00,00,50,00,3F,C3,
667956,00000100,false,Rx,0,8,58,00,00,00,50,00,31,03,
667958,00000120,false,Rx,0,8,0E,00,00,00,20,00,18,F5,
667958,00000110,false,Rx,0,8,A2,00,00,00,70,00,3C,99,
669099,00000050,false,Rx,0,6,40,54,FF,FF,DF,FF,00,00,
669100,00000150,false,Rx,0,4,FD,F4,40,A7,00,00,00,00,
669101,00000130,false,Rx,0,8,5D,34,03,00,63,80,95,86,
669102,00000100,false,Rx,0,8,58,00,00,00,60,00,25,03,
670711,00000120,false,Rx,0,8,0E,00,00,00,30,00,15,35,
670713,00000110,false,Rx,0,8,A2,00,00,00,80,00,78,99,
671862,00000130,false,Rx,0,8,F8,FF,FF,FF,70,00,24,53,
671863,00000100,false,Rx,0,8,41,00,00,00,70,00,2A,CA,
672859,00000120,false,Rx,0,8,0E,00,00,00,40,00,30,F5,
672861,00000110,false,Rx,0,8,5D,00,00,00,90,00,61,56,
673835,00000130,false,Rx,0,8,F8,FF,FF,FF,80,00,60,53,
673836,00000100,false,Rx,0,8,6F,00,00,00,80,00,68,84,
674834,00000120,false,Rx,0,8,0E,00,00,00,50,00,3D,35,
674835,00000110,false,Rx,0,8,5D,00,00,00,A0,00,75,56,
675955,00000130,false,Rx,0,8,F8,FF,FF,FF,90,00,6D,93,
675956,00000100,false,Rx,0,8,58,00,00,00,90,00,61,03,
676963,00000120,false,Rx,0,8,0E,00,00,00,60,00,29,35,
676964,00000110,false,Rx,0,8,5D,00,00,00,B0,00,78,96,
677941,00000130,false,Rx,0,8,18,00,00,00,A0,00,7B,C3,
677942,00000100,false,Rx,0,8,6F,00,00,00,A0,00,71,44,
678956,00000120,false,Rx,0,8,0E,00,00,00,70,00,24,F5,
678957,00000110,false,Rx,0,8,5D,00,00,00,C0,00,5D,56,
679955,00000130,false,Rx,0,8,18,00,00,00,B0,00,76,03,
679956,00000100,false,Rx,0,8,6F,00,00,00,B0,00,7C,84,
681108,00000120,false,Rx,0,8,0E,00,00,00,80,00,60,F5,
681110,00000110,false,Rx,0,8,2F,00,00,00,D0,00,5A,44,
682088,00000130,false,Rx,0,8,18,00,00,00,C0,00,53,C3,
682089,00000100,false,Rx,0,8,6F,00,00,00,C0,00,59,44,
683087,00000120,false,Rx,0,8,0E,00,00,00,90,00,6D,35,
683088,00000110,false,Rx,0,8,2F,00,00,00,E0,00,4E,44,
684106,00000130,false,Rx,0,8,18,00,00,00,D0,00,5E,03,
684107,00000100,false,Rx,0,8,6F,00,00,00,D0,00,54,84,
684108,00000140,false,Rx,0,8,01,00,FF,FF,B0,00,74,2E,
685236,00000120,false,Rx,0,8,0E,00,00,00,A0,00,79,35,
685238,00000110,false,Rx,0,8,5D,00,00,00,F0,00,49,56,
686236,00000130,false,Rx,0,8,D9,FF,FF,FF,E0,00,4E,E2,
686237,00000100,false,Rx,0,8,58,00,00,00,E0,00,44,C3,
687208,00000120,false,Rx,0,8,0E,00,00,00,B0,00,74,F5,
687210,00000110,false,Rx,0,8,5D,00,00,00,00,00,0D,56,
688209,00000130,false,Rx,0,8,D9,FF,FF,FF,F0,00,43,22,
688210,00000100,false,Rx,0,8,6F,00,00,00,F0,00,4D,44,
688211,00000120,false,Rx,0,8,0E,00,00,00,C0,00,51,35,
689462,00000110,false,Rx,0,8,5D,00,00,00,10,00,00,96,
689463,00000050,false,Rx,0,6,40,54,FF,FF,DF,FF,00,00,
689464,00000150,false,Rx,0,4,FD,F4,40,A7,00,00,00,00,
689465,00000130,false,Rx,0,8,FB,95,FF,FF,03,80,18,F9,
690455,00000100,false,Rx,0,8,58,00,00,00,00,00,0D,03,
690456,00000120,false,Rx,0,8,2A,00,00,00,D0,00,5A,11,
691609,00000110,false,Rx,0,8,5D,00,00,00,20,00,14,96,
691610,00000130,false,Rx,0,8,95,00,00,00,10,00,10,DE,
692594,00000100,false,Rx,0,8,58,00,00,00,10,00,00,C3,
692596,00000120,false,Rx,0,8,2A,00,00,00,E0,00,4E,11,
693578,00000110,false,Rx,0,8,5D,00,00,00,30,00,19,56,
693579,00000130,false,Rx,0,8,B9,FF,FF,FF,20,00,17,42,
694734,00000100,false,Rx,0,8,58,00,00,00,20,00,14,C3,
694735,00000120,false,Rx,0,8,0E,00,00,00,F0,00,45,35,
695734,00000110,false,Rx,0,8,5D,00,00,00,40,00,3C,96,
695735,00000130,false,Rx,0,8,D9,FF,FF,FF,30,00,13,22,
696735,00000100,false,Rx,0,8,6F,00,00,00,30,00,1D,44,
696737,00000120,false,Rx,0,8,0E,00,00,00,00,00,01,35,
697704,00000110,false,Rx,0,8,5D,00,00,00,50,00,31,56,
697705,00000130,false,Rx,0,8,18,00,00,00,40,00,32,03,
698699,00000100,false,Rx,0,8,6F,00,00,00,40,00,38,84,
698700,00000120,false,Rx,0,8,F1,FF,FF,FF,10,00,0C,CA,
699829,00000110,false,Rx,0,8,5D,00,00,00,60,00,25,56,
699830,00000130,false,Rx,0,8,F8,FF,FF,FF,50,00,3D,93,
700838,00000100,false,Rx,0,8,6F,00,00,00,50,00,35,44,
700839,00000120,false,Rx,0,8,F1,FF,FF,FF,20,00,18,CA,
701834,00000110,false,Rx,0,8,46,00,00,00,70,00,2B,7D,
701836,00000130,false,Rx,0,8,F8,FF,FF,FF,60,00,29,93,
702835,00000100,false,Rx,0,8,86,00,00,00,60,00,37,BD,
702836,00000120,false,Rx,0,8,0E,00,00,00,30,00,15,35,
703952,00000110,false,Rx,0,8,46,00,00,00,80,00,6F,7D,
703953,00000130,false,Rx,0,8,F8,FF,FF,FF,70,00,24,53,
704955,00000100,false,Rx,0,8,6F,00,00,00,70,00,2C,84,
704957,00000140,false,Rx,0,8,01,00,FF,FF,C0,00,51,EE,
704957,00000120,false,Rx,0,8,0E,00,00,00,40,00,30,F5,
705953,00000110,false,Rx,0,8,5D,00,00,00,90,00,61,56,
705955,00000130,false,Rx,0,8,F8,FF,FF,FF,80,00,60,53,
706985,00000100,false,Rx,0,8,6F,00,00,00,80,00,68,84,
706986,00000120,false,Rx,0,8,2A,00,00,00,50,00,3B,D1,
707957,00000110,false,Rx,0,8,5D,00,00,00,A0,00,75,56,
707958,00000130,false,Rx,0,8,D9,FF,FF,FF,90,00,6B,22,
709111,00000100,false,Rx,0,8,58,00,00,00,90,00,61,03,
709113,00000150,false,Rx,0,4,FD,F4,40,A7,00,00,00,00,
709113,00000120,false,Rx,0,8,2A,00,00,00,60,00,2F,D1,
709114,00000110,false,Rx,0,8,5D,00,00,00,B0,00,78,96,
710210,00000050,false,Rx,0,6,40,54,FF,FF,DF,FF,00,00,
710212,00000130,false,Rx,0,8,D7,BB,F5,FF,A3,80,8C,8B,
710212,00000100,false,Rx,0,8,41,00,00,00,A0,00,77,0A,
711848,00000120,false,Rx,0,8,0E,00,00,00,70,00,24,F5,
711849,00000110,false,Rx,0,8,5D,00,00,00,C0,00,5D,56,
712928,00000130,false,Rx,0,8,95,00,00,00,B0,00,68,DE,
712930,00000100,false,Rx,0,8,58,00,00,00,B0,00,78,C3,
713928,00000120,false,Rx,0,8,0E,00,00,00,80,00,60,F5,
713929,00000110,false,Rx,0,8,5D,00,00,00,D0,00,50,96,
714954,00000130,false,Rx,0,8,F8,FF,FF,FF,C0,00,51,93,
714956,00000100,false,Rx,0,8,58,00,00,00,C0,00,5D,03,
715955,00000120,false,Rx,0,8,F1,FF,FF,FF,90,00,6D,0A,
715956,00000110,false,Rx,0,8,5D,00,00,00,E0,00,44,96,
717109,00000130,false,Rx,0,8,F8,FF,FF,FF,D0,00,5C,53,
717110,00000100,false,Rx,0,8,86,00,00,00,D0,00,42,7D,
718087,00000120,false,Rx,0,8,F1,FF,FF,FF,A0,00,79,0A,
718088,00000110,false,Rx,0,8,5D,00,00,00,F0,00,49,56,
719084,00000130,false,Rx,0,8,18,00,00,00,E0,00,4A,03,
719085,00000100,false,Rx,0,8,6F,00,00,00,E0,00,40,84,
720074,00000120,false,Rx,0,8,F1,FF,FF,FF,B0,00,74,CA,
720076,00000110,false,Rx,0,8,5D,00,00,00,00,00,0D,56,
721079,00000130,false,Rx,0,8,F8,FF,FF,FF,F0,00,45,93,
721080,00000100,false,Rx,0,8,86,00,00,00,F0,00,5B,BD,
722235,00000120,false,Rx,0,8,F1,FF,FF,FF,C0,00,51,0A,
722236,00000110,false,Rx,0,8,46,00,00,00,10,00,03,7D,
723229,00000130,false,Rx,0,8,18,00,00,00,00,00,03,C3,
723231,00000100,false,Rx,0,8,6F,00,00,00,00,00,09,44,
724191,00000120,false,Rx,0,8,0E,00,00,00,D0,00,5C,F5,
724192,00000110,false,Rx,0,8,46,00,00,00,20,00,17,7D,
725211,00000130,false,Rx,0,8,F8,FF,FF,FF,10,00,0C,53,
725212,00000100,false,Rx,0,8,6F,00,00,00,10,00,04,84,
725213,00000140,false,Rx,0,8,01,00,FF,FF,D0,00,5C,2E,
726360,00000120,false,Rx,0,8,0E,00,00,00,E0,00,48,F5,
726361,00000110,false,Rx,0,8,5D,00,00,00,30,00,19,56,
727360,00000130,false,Rx,0,8,F8,FF,FF,FF,20,00,18,53,
727362,00000100,false,Rx,0,8,58,00,00,00,20,00,14,C3,
728326,00000120,false,Rx,0,8,0E,00,00,00,F0,00,45,35,
728328,00000110,false,Rx,0,8,5D,00,00,00,40,00,3C,96,
729334,00000130,false,Rx,0,8,F8,FF,FF,FF,30,00,15,93,
729336,00000100,false,Rx,0,8,58,00,00,00,30,00,19,03,
729336,00000150,false,Rx,0,4,FD,F4,40,A7,00,00,00,00,
729337,00000120,false,Rx,0,8,0E,00,00,00,00,00,01,35,
730584,00000110,false,Rx,0,8,8B,00,00,00,50,00,22,A0,
730585,00000050,false,Rx,0,6,40,54,FF,FF,DF,FF,00,00,
730586,00000130,false,Rx,0,8,67,21,00,00,43,80,84,9B,
731580,00000100,false,Rx,0,8,58,00,00,00,40,00,3C,C3,
731581,00000120,false,Rx,0,8,0E,00,00,00,10,00,0C,F5,
732703,00000110,false,Rx,0,8,8B,00,00,00,60,00,36,A0,
732704,00000130,false,Rx,0,8,D9,FF,FF,FF,50,00,3B,22,
733708,00000100,false,Rx,0,8,6F,00,00,00,50,00,35,44,
733710,00000120,false,Rx,0,8,0E,00,00,00,20,00,18,F5,
734711,00000110,false,Rx,0,8,5D,00,00,00,70,00,28,96,
734712,00000130,false,Rx,0,8,18,00,00,00,60,00,2B,C3,
735703,00000100,false,Rx,0,8,58,00,00,00,60,00,25,03,
735704,00000120,false,Rx,0,8,0E,00,00,00,30,00,15,35,
736827,00000110,false,Rx,0,8,5D,00,00,00,80,00,6C,96,
736828,00000130,false,Rx,0,8,D9,FF,FF,FF,70,00,22,E2,
737836,00000100,false,Rx,0,8,6F,00,00,00,70,00,2C,84,
737838,00000120,false,Rx,0,8,0E,00,00,00,40,00,30,F5,
738834,00000110,false,Rx,0,8,74,00,00,00,90,00,66,AF,
738835,00000130,false,Rx,0,8,D9,FF,FF,FF,80,00,66,E2,
739840,00000100,false,Rx,0,8,6F,00,00,00,80,00,68,84,
739841,00000120,false,Rx,0,8,F1,FF,FF,FF,50,00,3D,0A,
740828,00000110,false,Rx,0,8,74,00,00,00,A0,00,72,AF,
740829,00000130,false,Rx,0,8,18,00,00,00,90,00,6F,C3,
741984,00000100,false,Rx,0,8,86,00,00,00,90,00,73,BD,
741985,00000120,false,Rx,0,8,F1,FF,FF,FF,60,00,29,0A,
742939,00000110,false,Rx,0,8,5D,00,00,00,B0,00,78,96,
742940,00000130,false,Rx,0,8,D9,FF,FF,FF,A0,00,7F,22,
743954,00000100,false,Rx,0,8,6F,00,00,00,A0,00,71,44,
743956,00000120,false,Rx,0,8,F1,FF,FF,FF,70,00,24,CA,
744952,00000110,false,Rx,0,8,5D,00,00,00,C0,00,5D,56,
744954,00000130,false,Rx,0,8,F8,FF,FF,FF,B0,00,74,53,
746110,00000100,false,Rx,0,8,6F,00,00,00,B0,00,7C,84,
746111,00000140,false,Rx,0,8,01,00,FF,FF,E0,00,48,2E,
746111,00000120,false,Rx,0,8,F1,FF,FF,FF,80,00,60,CA,
747110,00000110,false,Rx,0,8,74,00,00,00,D0,00,57,6F,
747111,00000130,false,Rx,0,8,F8,FF,FF,FF,C0,00,51,93,
748081,00000100,false,Rx,0,8,6F,00,00,00,C0,00,59,44,
748082,00000120,false,Rx,0,8,0E,00,00,00,90,00,6D,35,
749078,00000110,false,Rx,0,8,74,00,00,00,E0,00,43,6F,
749079,00000150,false,Rx,0,4,FD,F4,40,A7,00,00,00,00,
749080,00000130,false,Rx,0,8,37,00,00,00,D0,00,59,9C,
750078,00000100,false,Rx,0,8,6F,00,00,00,D0,00,54,84,
750080,00000120,false,Rx,0,8,0E,00,00,00,A0,00,79,35,
750081,00000110,false,Rx,0,8,A2,00,00,00,F0,00,5D,59,
751329,00000050,false,Rx,0,6,40,54,FF,FF,DF,FF,00,00,
751330,00000130,false,Rx,0,8,5D,34,03,00,E3,80,F4,46,
751331,00000100,false,Rx,0,8,41,00,00,00,E0,00,46,CA,
752954,00000120,false,Rx,0,8,F1,FF,FF,FF,B0,00,74,CA,
752955,00000110,false,Rx,0,8,A2,00,00,00,00,00,19,59,
753952,00000130,false,Rx,0,8,D9,FF,FF,FF,F0,00,43,22,
753953,00000100,false,Rx,0,8,6F,00,00,00,F0,00,4D,44,
755078,00000120,false,Rx,0,8,F1,FF,FF,FF,C0,00,51,0A,
755080,00000110,false,Rx,0,8,74,00,00,00,10,00,07,6F,
755080,00000170,false,Rx,0,8,00,00,00,55,50,81,05,03,
756077,00000130,false,Rx,0,8,D9,FF,FF,FF,00,00,07,22,
756078,00000100,false,Rx,0,8,58,00,00,00,00,00,0D,03,
757075,00000120,false,Rx,0,8,0E,00,00,00,D0,00,5C,F5,
757077,00000110,false,Rx,0,8,74,00,00,00,20,00,13,6F,
758076,00000130,false,Rx,0,8,D9,FF,FF,FF,10,00,0A,E2,
758078,00000100,false,Rx,0,8,6F,00,00,00,10,00,04,84,
759201,00000120,false,Rx,0,8,0E,00,00,00,E0,00,48,F5,
759202,00000110,false,Rx,0,8,5D,00,00,00,30,00,19,56,
760202,00000130,false,Rx,0,8,F8,FF,FF,FF,20,00,18,53,
760204,00000100,false,Rx,0,8,86,00,00,00,20,00,06,7D,
761203,00000120,false,Rx,0,8,F1,FF,FF,FF,F0,00,45,0A,
761204,00000110,false,Rx,0,8,5D,00,00,00,40,00,3C,96,
762202,00000130,false,Rx,0,8,F8,FF,FF,FF,30,00,15,93,
762203,00000100,false,Rx,0,8,86,00,00,00,30,00,0B,BD,
763329,00000120,false,Rx,0,8,F1,FF,FF,FF,00,00,01,0A,
763330,00000110,false,Rx,0,8,5D,00,00,00,50,00,31,56,
764327,00000130,false,Rx,0,8,F8,FF,FF,FF,40,00,30,53,
764329,00000100,false,Rx,0,8,6F,00,00,00,40,00,38,84,
765328,00000120,false,Rx,0,8,F1,FF,FF,FF,10,00,0C,CA,
765329,00000110,false,Rx,0,8,5D,00,00,00,60,00,25,56,
766326,00000130,false,Rx,0,8,F8,FF,FF,FF,50,00,3D,93,
766328,00000100,false,Rx,0,8,58,00,00,00,50,00,31,03,
766328,00000140,false,Rx,0,8,01,00,FF,FF,F0,00,45,EE,
767325,00000120,false,Rx,0,8,F1,FF,FF,FF,20,00,18,CA,
767326,00000110,false,Rx,0,8,5D,00,00,00,70,00,28,96,
768450,00000130,false,Rx,0,8,D9,FF,FF,FF,60,00,2F,22,
768452,00000100,false,Rx,0,8,58,00,00,00,60,00,25,03,
769452,00000120,false,Rx,0,8,0E,00,00,00,30,00,15,35,
769453,00000110,false,Rx,0,8,5D,00,00,00,80,00,6C,96,
769454,00000150,false,Rx,0,4,FD,F4,40,A7,00,00,00,00,
770453,00000130,false,Rx,0,8,18,00,00,00,70,00,26,03,
770454,00000100,false,Rx,0,8,58,00,00,00,70,00,28,C3,
770455,00000120,false,Rx,0,8,0E,00,00,00,40,00,30,F5,
771702,00000110,false,Rx,0,8,74,00,00,00,90,00,66,AF,
771703,00000050,false,Rx,0,6,40,54,FF,FF,DF,FF,00,00,
771704,00000130,false,Rx,0,8,FB,95,FF,FF,83,80,79,39,
772702,00000100,false,Rx,0,8,58,00,00,00,80,00,6C,C3,
772704,00000120,false,Rx,0,8,0E,00,00,00,50,00,3D,35,
773700,00000110,false,Rx,0,8,74,00,00,00,A0,00,72,AF,
773702,00000130,false,Rx,0,8,76,00,00,00,90,00,67,4D,
774825,00000100,false,Rx,0,8,6F,00,00,00,90,00,65,44,
774827,00000120,false,Rx,0,8,0E,00,00,00,60,00,29,35,
775827,00000110,false,Rx,0,8,5D,00,00,00,B0,00,78,96,
775828,00000130,false,Rx,0,8,F8,FF,FF,FF,A0,00,79,93,
776828,00000100,false,Rx,0,8,6F,00,00,00,A0,00,71,44,
776830,00000120,false,Rx,0,8,F1,FF,FF,FF,70,00,24,CA,
777826,00000110,false,Rx,0,8,5D,00,00,00,C0,00,5D,56,
777828,00000130,false,Rx,0,8,F8,FF,FF,FF,B0,00,74,53,
778953,00000100,false,Rx,0,8,6F,00,00,00,B0,00,7C,84,
778954,00000120,false,Rx,0,8,F1,FF,FF,FF,80,00,60,CA,
779953,00000110,false,Rx,0,8,5D,00,00,00,D0,00,50,96,
779955,00000130,false,Rx,0,8,18,00,00,00,C0,00,53,C3,
780952,00000100,false,Rx,0,8,6F,00,00,00,C0,00,59,44,
780953,00000120,false,Rx,0,8,F1,FF,FF,FF,90,00,6D,0A,
781953,00000110,false,Rx,0,8,5D,00,00,00,E0,00,44,96,
781955,00000130,false,Rx,0,8,F8,FF,FF,FF,D0,00,5C,53,
783075,00000100,false,Rx,0,8,6F,00,00,00,D0,00,54,84,
783077,00000120,false,Rx,0,8,F1,FF,FF,FF,A0,00,79,0A,
784078,00000110,false,Rx,0,8,5D,00,00,00,F0,00,49,56,
784080,00000130,false,Rx,0,8,18,00,00,00,E0,00,4A,03,
785077,00000100,false,Rx,0,8,6F,00,00,00,E0,00,40,84,
785079,00000120,false,Rx,0,8,0E,00,00,00,B0,00,74,F5,
786076,00000110,false,Rx,0,8,5D,00,00,00,00,00,0D,56,
786078,00000130,false,Rx,0,8,F8,FF,FF,FF,F0,00,45,93,
787077,00000100,false,Rx,0,8,58,00,00,00,F0,00,49,03,
787078,00000140,false,Rx,0,8,01,00,FF,FF,00,00,01,EE,
787079,00000120,false,Rx,0,8,0E,00,00,00,C0,00,51,35,
788203,00000110,false,Rx,0,8,74,00,00,00,10,00,07,6F,
788204,00000130,false,Rx,0,8,F8,FF,FF,FF,00,00,01,93,
789201,00000100,false,Rx,0,8,58,00,00,00,00,00,0D,03,
789202,00000150,false,Rx,0,4,FD,F4,40,A7,00,00,00,00,
789203,00000120,false,Rx,0,8,0E,00,00,00,D0,00,5C,F5,
790202,00000110,false,Rx,0,8,74,00,00,00,20,00,13,6F,
790204,00000130,false,Rx,0,8,18,00,00,00,10,00,0E,03,
791203,00000100,false,Rx,0,8,58,00,00,00,10,00,00,C3,
791205,00000120,false,Rx,0,8,0E,00,00,00,E0,00,48,F5,
791206,00000110,false,Rx,0,8,74,00,00,00,30,00,1E,AF,
792451,00000050,false,Rx,0,6,40,54,FF,FF,DF,FF,00,00,
792453,00000130,false,Rx,0,8,F7,BB,F5,FF,23,80,EA,2B,
792453,00000100,false,Rx,0,8,6F,00,00,00,20,00,10,84,
794077,00000120,false,Rx,0,8,0E,00,00,00,F0,00,45,35,
794078,00000110,false,Rx,0,8,74,00,00,00,40,00,3B,6F,
795076,00000130,false,Rx,0,8,B5,00,00,00,30,00,0E,7E,
795077,00000100,false,Rx,0,8,58,00,00,00,30,00,19,03,
796198,00000120,false,Rx,0,8,0E,00,00,00,00,00,01,35,
796200,00000110,false,Rx,0,8,74,00,00,00,50,00,36,AF,
797192,00000130,false,Rx,0,8,18,00,00,00,40,00,32,03,
797193,00000100,false,Rx,0,8,6F,00,00,00,40,00,38,84,
798204,00000120,false,Rx,0,8,0E,00,00,00,10,00,0C,F5,
798206,00000110,false,Rx,0,8,74,00,00,00,60,00,22,AF,
799194,00000130,false,Rx,0,8,D9,FF,FF,FF,50,00,3B,22,
799195,00000100,false,Rx,0,8,6F,00,00,00,50,00,35,44,
800180,00000120,false,Rx,0,8,0E,00,00,00,20,00,18,F5,
800181,00000110,false,Rx,0,8,5D,00,00,00,70,00,28,96,
801299,00000130,false,Rx,0,8,F8,FF,FF,FF,60,00,29,93,
801299,00000100,false,Rx,0,8,86,00,00,00,60,00,37,BD,
802302,00000120,false,Rx,0,8,F1,FF,FF,FF,30,00,15,0A,
802304,00000110,false,Rx,0,8,5D,00,00,00,80,00,6C,96,
803316,00000130,false,Rx,0,8,37,00,00,00,70,00,21,9C,
803317,00000100,false,Rx,0,8,6F,00,00,00,70,00,2C,84,
804304,00000120,false,Rx,0,8,F1,FF,FF,FF,40,00,30,CA,
804306,00000110,false,Rx,0,8,5D,00,00,00,90,00,61,56,
805424,00000130,false,Rx,0,8,F8,FF,FF,FF,80,00,60,53,
805425,00000100,false,Rx,0,8,6F,00,00,00,80,00,68,84,
806433,00000120,false,Rx,0,8,F1,FF,FF,FF,50,00,3D,0A,
806435,00000110,false,Rx,0,8,5D,00,00,00,A0,00,75,56,
807436,00000130,false,Rx,0,8,D9,FF,FF,FF,90,00,6B,22,
807437,00000100,false,Rx,0,8,58,00,00,00,90,00,61,03,
807438,00000140,false,Rx,0,8,01,00,FF,FF,10,00,0C,2E,
808435,00000120,false,Rx,0,8,F1,FF,FF,FF,60,00,29,0A,
808436,00000110,false,Rx,0,8,74,00,00,00,B0,00,7F,6F,
809557,00000130,false,Rx,0,8,18,00,00,00,A0,00,7B,C3,
809558,00000100,false,Rx,0,8,6F,00,00,00,A0,00,71,44,
809559,00000150,false,Rx,0,4,FD,F4,40,A7,00,00,00,00,
810562,00000120,false,Rx,0,8,0E,00,00,00,70,00,24,F5,
810563,00000110,false,Rx,0,8,74,00,00,00,C0,00,5A,AF,
811559,00000130,false,Rx,0,8,37,00,00,00,B0,00,71,9C,
811560,00000100,false,Rx,0,8,41,00,00,00,B0,00,7A,CA,
811561,00000120,false,Rx,0,8,0E,00,00,00,80,00,60,F5,
812807,00000110,false,Rx,0,8,8B,00,00,00,D0,00,43,60,
812808,00000050,false,Rx,0,6,40,54,FF,FF,DF,FF,00,00,
812809,00000130,false,Rx,0,8,67,21,00,00,C3,80,E5,5B,
813808,00000100,false,Rx,0,8,6F,00,00,00,C0,00,59,44,
813809,00000120,false,Rx,0,8,F1,FF,FF,FF,90,00,6D,0A,
814811,00000110,false,Rx,0,8,8B,00,00,00,E0,00,57,60,
814812,00000130,false,Rx,0,8,18,00,00,00,D0,00,5E,03,
816026,00000100,false,Rx,0,8,6F,00,00,00,D0,00,54,84,
816026,00000120,false,Rx,0,8,F1,FF,FF,FF,A0,00,79,0A,
816933,00000110,false,Rx,0,8,46,00,00,00,F0,00,4A,BD,
816934,00000130,false,Rx,0,8,D9,FF,FF,FF,E0,00,4E,E2,
817934,00000100,false,Rx,0,8,6F,00,00,00,E0,00,40,84,
817935,00000120,false,Rx,0,8,F1,FF,FF,FF,B0,00,74,CA,
818932,00000110,false,Rx,0,8,46,00,00,00,00,00,0E,BD,
818932,00000130,false,Rx,0,8,18,00,00,00,F0,00,47,C3,
820059,00000100,false,Rx,0,8,6F,00,00,00,F0,00,4D,44,
820061,00000120,false,Rx,0,8,F1,FF,FF,FF,C0,00,51,0A,
821059,00000110,false,Rx,0,8,46,00,00,00,10,00,03,7D,
821060,00000130,false,Rx,0,8,F8,FF,FF,FF,00,00,01,93,
822059,00000100,false,Rx,0,8,86,00,00,00,00,00,1F,BD,
822060,00000120,false,Rx,0,8,0E,00,00,00,D0,00,5C,F5,
823058,00000110,false,Rx,0,8,46,00,00,00,20,00,17,7D,
823058,00000130,false,Rx,0,8,F8,FF,FF,FF,10,00,0C,53,
824184,00000100,false,Rx,0,8,6F,00,00,00,10,00,04,84,
824185,00000120,false,Rx,0,8,0E,00,00,00,E0,00,48,F5,
825184,00000110,false,Rx,0,8,5D,00,00,00,30,00,19,56,
825184,00000130,false,Rx,0,8,18,00,00,00,20,00,1A,03,
826201,00000100,false,Rx,0,8,6F,00,00,00,20,00,10,84,
826202,00000120,false,Rx,0,8,0E,00,00,00,F0,00,45,35,
827200,00000110,false,Rx,0,8,5D,00,00,00,40,00,3C,96,
827201,00000130,false,Rx,0,8,D9,FF,FF,FF,30,00,13,22,
828199,00000100,false,Rx,0,8,6F,00,00,00,30,00,1D,44,
828200,00000140,false,Rx,0,8,01,00,FF,FF,20,00,18,2E,
828201,00000120,false,Rx,0,8,0E,00,00,00,00,00,01,35,
829324,00000110,false,Rx,0,8,5D,00,00,00,50,00,31,56,
829325,00000150,false,Rx,0,4,FD,F4,40,A7,00,00,00,00,
829326,00000130,false,Rx,0,8,F8,FF,FF,FF,40,00,30,53,
830323,00000100,false,Rx,0,8,6F,00,00,00,40,00,38,84,
830325,00000120,false,Rx,0,8,0E,00,00,00,10,00,0C,F5,
831324,00000110,false,Rx,0,8,5D,00,00,00,60,00,25,56,
831325,00000130,false,Rx,0,8,18,00,00,00,50,00,3F,C3,
832323,00000100,false,Rx,0,8,58,00,00,00,50,00,31,03,
832324,00000120,false,Rx,0,8,0E,00,00,00,20,00,18,F5,
832325,00000110,false,Rx,0,8,8B,00,00,00,70,00,3B,60,
833574,00000050,false,Rx,0,6,40,54,FF,FF,DF,FF,00,00,
833575,00000130,false,Rx,0,8,5D,34,03,00,63,80,95,86,
833576,00000100,false,Rx,0,8,6F,00,00,00,60,00,21,44,
835189,00000120,false,Rx,0,8,0E,00,00,00,30,00,15,35,
835191,00000110,false,Rx,0,8,8B,00,00,00,80,00,7F,60,
836175,00000130,false,Rx,0,8,D9,FF,FF,FF,70,00,22,E2,
836176,00000100,false,Rx,0,8,6F,00,00,00,70,00,2C,84,
837191,00000120,false,Rx,0,8,0E,00,00,00,40,00,30,F5,
837191,00000110,false,Rx,0,8,5D,00,00,00,90,00,61,56,
838296,00000130,false,Rx,0,8,F8,FF,FF,FF,80,00,60,53,
838297,00000100,false,Rx,0,8,6F,00,00,00,80,00,68,84,
839309,00000120,false,Rx,0,8,0E,00,00,00,50,00,3D,35,
839310,00000110,false,Rx,0,8,5D,00,00,00,A0,00,75,56,
840312,00000130,false,Rx,0,8,D9,FF,FF,FF,90,00,6B,22,
840313,00000100,false,Rx,0,8,86,00,00,00,90,00,73,BD,
841320,00000120,false,Rx,0,8,0E,00,00,00,60,00,29,35,
841322,00000110,false,Rx,0,8,46,00,00,00,B0,00,7B,7D,
842435,00000130,false,Rx,0,8,F8,FF,FF,FF,A0,00,79,93,
842436,00000100,false,Rx,0,8,6F,00,00,00,A0,00,71,44,
843425,00000120,false,Rx,0,8,F1,FF,FF,FF,70,00,24,CA,
843426,00000110,false,Rx,0,8,46,00,00,00,C0,00,5E,BD,
844442,00000130,false,Rx,0,8,18,00,00,00,B0,00,76,03,
844443,00000100,false,Rx,0,8,6F,00,00,00,B0,00,7C,84,
845422,00000120,false,Rx,0,8,F1,FF,FF,FF,80,00,60,CA,
845423,00000110,false,Rx,0,8,5D,00,00,00,D0,00,50,96,
846423,00000130,false,Rx,0,8,F8,FF,FF,FF,C0,00,51,93,
846424,00000100,false,Rx,0,8,6F,00,00,00,C0,00,59,44,
847548,00000120,false,Rx,0,8,F1,FF,FF,FF,90,00,6D,0A,
847549,00000110,false,Rx,0,8,5D,00,00,00,E0,00,44,96,
848557,00000130,false,Rx,0,8,F8,FF,FF,FF,D0,00,5C,53,
848558,00000100,false,Rx,0,8,58,00,00,00,D0,00,50,C3,
848559,00000140,false,Rx,0,8,01,00,FF,FF,30,00,15,EE,
849560,00000120,false,Rx,0,8,F1,FF,FF,FF,A0,00,79,0A,
849561,00000110,false,Rx,0,8,5D,00,00,00,F0,00,49,56,
849561,00000150,false,Rx,0,4,FD,F4,40,A7,00,00,00,00,
850558,00000130,false,Rx,0,8,18,00,00,00,E0,00,4A,03,
850559,00000100,false,Rx,0,8,58,00,00,00,E0,00,44,C3,
851681,00000120,false,Rx,0,8,0E,00,00,00,B0,00,74,F5,
851682,00000110,false,Rx,0,8,5D,00,00,00,00,00,0D,56,
852683,00000130,false,Rx,0,8,D9,FF,FF,FF,F0,00,43,22,
852684,00000100,false,Rx,0,8,6F,00,00,00,F0,00,4D,44,
852685,00000120,false,Rx,0,8,0E,00,00,00,C0,00,51,35,
853935,00000110,false,Rx,0,8,5D,00,00,00,10,00,00,96,
853936,00000050,false,Rx,0,6,40,54,FF,FF,DF,FF,00,00,
853936,00000130,false,Rx,0,8,FB,95,FF,FF,03,80,18,F9,
854936,00000100,false,Rx,0,8,58,00,00,00,00,00,0D,03,
854937,00000120,false,Rx,0,8,F1,FF,FF,FF,D0,00,5C,CA,
855936,00000110,false,Rx,0,8,5D,00,00,00,20,00,14,96,
855937,00000130,false,Rx,0,8,56,00,00,00,10,00,01,ED,
857060,00000100,false,Rx,0,8,6F,00,00,00,10,00,04,84,
857061,00000120,false,Rx,0,8,F1,FF,FF,FF,E0,00,48,CA,
858056,00000110,false,Rx,0,8,74,00,00,00,30,00,1E,AF,
858057,00000170,false,Rx,0,8,00,00,00,56,50,81,05,B9,
858057,00000130,false,Rx,0,8,D9,FF,FF,FF,20,00,1E,E2,
859059,00000100,false,Rx,0,8,6F,00,00,00,20,00,10,84,
859060,00000120,false,Rx,0,8,F1,FF,FF,FF,F0,00,45,0A,
860059,00000110,false,Rx,0,8,74,00,00,00,40,00,3B,6F,
