Time Stamp,ID,Extended,Dir,Bus,LEN,D1,D2,D3,D4,D5,D6,D7,D8
14653634,00000135,false,Rx,0,8,B0,00,00,00,10,00,17,EB,
14653636,00000110,false,Rx,0,8,00,00,00,00,13,00,0D,2B,
14654631,00000135,false,Rx,0,8,AF,00,00,00,20,00,01,84,
14654632,00000110,false,Rx,0,8,00,00,00,00,23,00,19,2B,
14655622,00000130,false,Rx,0,8,18,00,00,00,10,00,0E,03,
14655623,00000100,false,Rx,0,8,6F,00,00,00,10,00,04,84,
14656631,00000120,false,Rx,0,8,00,00,00,00,13,00,0D,2B,
14656632,00000110,false,Rx,0,8,94,11,00,00,30,00,F4,CC,
14656633,00000050,false,Rx,0,6,41,54,FF,E9,57,FF,00,00,
14657780,00000130,false,Rx,0,8,D7,BB,F5,FF,23,80,ED,4B,
14657781,00000100,false,Rx,0,8,6F,00,00,00,20,00,10,84,
14658781,00000120,false,Rx,0,8,82,13,00,00,20,00,82,3A,
14658782,00000110,false,Rx,0,8,94,11,00,00,40,00,D1,0C,
14658783,00000210,false,Rx,0,8,75,69,00,05,06,5F,01,03,
14659775,00000130,false,Rx,0,8,95,00,00,00,30,00,09,1E,
14659778,00000100,false,Rx,0,8,86,00,00,00,30,00,0B,BD,
14660756,00000120,false,Rx,0,8,82,13,00,00,30,00,8F,FA,
14660757,00000110,false,Rx,0,8,94,11,00,00,50,00,DC,CC,
14661905,00000130,false,Rx,0,8,18,00,00,00,40,00,32,03,
14661907,00000100,false,Rx,0,8,86,00,00,00,40,00,2E,7D,
14662902,00000120,false,Rx,0,8,9F,13,00,00,40,00,A9,B7,
14662903,00000110,false,Rx,0,8,94,11,00,00,60,00,C8,CC,
14663879,00000130,false,Rx,0,8,F8,FF,FF,FF,50,00,3D,93,
14663881,00000100,false,Rx,0,8,6F,00,00,00,50,00,35,44,
14664882,00000120,false,Rx,0,8,9F,13,00,00,50,00,A4,77,
14664883,00000110,false,Rx,0,8,94,11,00,00,70,00,C5,0C,
14665874,00000130,false,Rx,0,8,F8,FF,FF,FF,60,00,29,93,
14665876,00000100,false,Rx,0,8,58,00,00,00,60,00,25,03,
14666999,00000120,false,Rx,0,8,9F,13,00,00,60,00,B0,77,
14667001,00000110,false,Rx,0,8,94,11,00,00,80,00,81,0C,
14668004,00000130,false,Rx,0,8,37,00,00,00,70,00,21,9C,
14668006,00000100,false,Rx,0,8,58,00,00,00,70,00,28,C3,
14669005,00000120,false,Rx,0,8,9F,13,00,00,70,00,BD,B7,
14669006,00000110,false,Rx,0,8,7D,11,00,00,90,00,9A,35,
14670000,00000130,false,Rx,0,8,37,00,00,00,80,00,65,9C,
14670001,00000100,false,Rx,0,8,58,00,00,00,80,00,6C,C3,
14671154,00000120,false,Rx,0,8,82,13,00,00,80,00,FA,3A,
14671156,00000110,false,Rx,0,8,7D,11,00,00,A0,00,8E,35,
14672155,00000130,false,Rx,0,8,D9,FF,FF,FF,90,00,6B,22,
14672156,00000100,false,Rx,0,8,71,00,00,00,90,00,66,FA,
14672156,00000140,false,Rx,0,8,00,00,00,00,11,11,CC,47,
14673131,00000120,false,Rx,0,8,82,13,00,00,90,00,F7,FA,
14673132,00000110,false,Rx,0,8,99,11,00,00,B0,00,94,11,
14674145,00000130,false,Rx,0,8,F8,FF,FF,FF,A0,00,79,93,
14674147,00000100,false,Rx,0,8,71,00,00,00,A0,00,72,FA,
14675126,00000120,false,Rx,0,8,77,13,00,00,A0,00,F7,5F,
14675128,00000110,false,Rx,0,8,99,11,00,00,C0,00,B1,D1,
14676280,00000130,false,Rx,0,8,18,00,00,00,B0,00,76,03,
14676282,00000100,false,Rx,0,8,88,00,00,00,B0,00,6B,53,
14677281,00000120,false,Rx,0,8,77,13,00,00,B0,00,FA,9F,
14677283,00000110,false,Rx,0,8,C7,11,00,00,D0,00,B1,6F,
14677283,00000050,false,Rx,0,6,41,5C,FF,EB,5F,FF,00,00,
14678257,00000130,false,Rx,0,8,4D,21,00,00,C3,80,E2,91,
14678258,00000100,false,Rx,0,8,71,00,00,00,C0,00,5A,FA,
14679271,00000120,false,Rx,0,8,77,13,00,00,C0,00,DF,5F,
14679273,00000110,false,Rx,0,8,C7,11,00,00,E0,00,A5,6F,
14680382,00000130,false,Rx,0,8,F8,FF,FF,FF,D0,00,5C,53,
14680383,00000100,false,Rx,0,8,88,00,00,00,D0,00,43,53,
14681381,00000120,false,Rx,0,8,77,13,00,00,D0,00,D2,9F,
14681382,00000110,false,Rx,0,8,82,11,00,00,F0,00,A6,3A,
14682381,00000130,false,Rx,0,8,F8,FF,FF,FF,E0,00,48,53,
14682382,00000100,false,Rx,0,8,71,00,00,00,E0,00,43,3A,
14683527,00000120,false,Rx,0,8,77,13,00,00,E0,00,C6,9F,
14683529,00000110,false,Rx,0,8,82,11,00,00,00,00,E2,3A,
14684498,00000130,false,Rx,0,8,D9,FF,FF,FF,F0,00,43,22,
14684500,00000100,false,Rx,0,8,5A,00,00,00,F0,00,48,E1,
14685506,00000120,false,Rx,0,8,77,13,00,00,F0,00,CB,5F,
14685508,00000110,false,Rx,0,8,99,11,00,00,10,00,EC,11,
14686524,00000130,false,Rx,0,8,18,00,00,00,00,00,03,C3,
14686525,00000100,false,Rx,0,8,5A,00,00,00,00,00,0C,E1,
14687641,00000120,false,Rx,0,8,93,13,00,00,00,00,98,BB,
14687643,00000110,false,Rx,0,8,99,11,00,00,20,00,F8,11,
14688620,00000130,false,Rx,0,8,18,00,00,00,10,00,0E,03,
14688621,00000100,false,Rx,0,8,5A,00,00,00,10,00,01,21,
14689621,00000120,false,Rx,0,8,93,13,00,00,10,00,95,7B,
14689623,00000110,false,Rx,0,8,99,11,00,00,30,00,F5,D1,
14690628,00000130,false,Rx,0,8,F8,FF,FF,FF,20,00,18,53,
14690629,00000100,false,Rx,0,8,71,00,00,00,20,00,13,3A,
14691630,00000120,false,Rx,0,8,93,13,00,00,20,00,81,7B,
14691631,00000110,false,Rx,0,8,99,11,00,00,40,00,D0,11,
14692777,00000130,false,Rx,0,8,F8,FF,FF,FF,30,00,15,93,
14692778,00000100,false,Rx,0,8,5A,00,00,00,30,00,18,E1,
14692779,00000140,false,Rx,0,8,01,00,FF,FF,20,00,18,2E,
14693776,00000120,false,Rx,0,8,93,13,00,00,30,00,8C,BB,
14693777,00000110,false,Rx,0,8,B0,11,00,00,50,00,DA,28,
14694756,00000130,false,Rx,0,8,37,00,00,00,40,00,35,9C,
14694757,00000100,false,Rx,0,8,71,00,00,00,40,00,3B,3A,
14695755,00000120,false,Rx,0,8,77,13,00,00,40,00,BE,9F,
14695756,00000110,false,Rx,0,8,B0,11,00,00,60,00,CE,28,
14696745,00000130,false,Rx,0,8,F8,FF,FF,FF,50,00,3D,93,
14696746,00000100,false,Rx,0,8,5A,00,00,00,50,00,30,E1,
14696747,00000120,false,Rx,0,8,77,13,00,00,50,00,B3,5F,
14698003,00000110,false,Rx,0,8,B0,11,00,00,70,00,C3,E8,
14698005,00000050,false,Rx,0,6,41,5C,FF,EB,5F,FF,00,00,
14698005,00000130,false,Rx,0,8,B8,34,03,00,63,80,83,B3,
14699152,00000100,false,Rx,0,8,71,00,00,00,60,00,22,FA,
14699153,00000120,false,Rx,0,8,77,13,00,00,60,00,A7,5F,
14700153,00000110,false,Rx,0,8,B0,11,00,00,80,00,87,E8,
14700154,00000130,false,Rx,0,8,F8,FF,FF,FF,70,00,24,53,
14701146,00000100,false,Rx,0,8,71,00,00,00,70,00,2F,3A,
14701147,00000120,false,Rx,0,8,77,13,00,00,70,00,AA,9F,
14702122,00000110,false,Rx,0,8,99,11,00,00,90,00,8D,D1,
14702123,00000130,false,Rx,0,8,D9,FF,FF,FF,80,00,66,E2,
14703277,00000100,false,Rx,0,8,71,00,00,00,80,00,6B,3A,
14703279,00000120,false,Rx,0,8,77,13,00,00,80,00,EE,9F,
14704256,00000110,false,Rx,0,8,99,11,00,00,A0,00,99,D1,
14704257,00000130,false,Rx,0,8,18,00,00,00,90,00,6F,C3,
14705249,00000100,false,Rx,0,8,5A,00,00,00,90,00,60,E1,
14705250,00000120,false,Rx,0,8,77,13,00,00,90,00,E3,5F,
14706254,00000110,false,Rx,0,8,99,11,00,00,B0,00,94,11,
14706255,00000130,false,Rx,0,8,D9,FF,FF,FF,A0,00,7F,22,
14707373,00000100,false,Rx,0,8,71,00,00,00,A0,00,72,FA,
14707375,00000120,false,Rx,0,8,77,13,00,00,A0,00,F7,5F,
14708382,00000110,false,Rx,0,8,99,11,00,00,C0,00,B1,D1,
14708383,00000130,false,Rx,0,8,F8,FF,FF,FF,B0,00,74,53,
14709380,00000100,false,Rx,0,8,5A,00,00,00,B0,00,79,21,
14709382,00000120,false,Rx,0,8,77,13,00,00,B0,00,FA,9F,
14710386,00000110,false,Rx,0,8,B0,11,00,00,D0,00,BB,E8,
14710388,00000130,false,Rx,0,8,D9,FF,FF,FF,C0,00,57,22,
14711528,00000100,false,Rx,0,8,5A,00,00,00,C0,00,5C,E1,
14711529,00000120,false,Rx,0,8,77,13,00,00,C0,00,DF,5F,
14712507,00000110,false,Rx,0,8,B0,11,00,00,E0,00,AF,E8,
14712508,00000130,false,Rx,0,8,D9,FF,FF,FF,D0,00,5A,E2,
14713506,00000100,false,Rx,0,8,71,00,00,00,D0,00,57,3A,
14713507,00000140,false,Rx,0,8,01,00,FF,FF,30,00,15,EE,
14713508,00000120,false,Rx,0,8,77,13,00,00,D0,00,D2,9F,
14714505,00000110,false,Rx,0,8,99,11,00,00,F0,00,A5,D1,
14714506,00000130,false,Rx,0,8,F8,FF,FF,FF,E0,00,48,53,
14715496,00000100,false,Rx,0,8,88,00,00,00,E0,00,57,53,
14715497,00000120,false,Rx,0,8,93,13,00,00,E0,00,D1,7B,
14716619,00000110,false,Rx,0,8,99,11,00,00,00,00,E1,D1,
14716620,00000130,false,Rx,0,8,18,00,00,00,F0,00,47,C3,
14717638,00000100,false,Rx,0,8,88,00,00,00,F0,00,5A,93,
14717639,00000120,false,Rx,0,8,93,13,00,00,F0,00,DC,BB,
14717640,00000110,false,Rx,0,8,99,11,00,00,10,00,EC,11,
14718746,00000050,false,Rx,0,6,41,5C,FF,EB,5F,FF,00,00,
14718748,00000130,false,Rx,0,8,EB,95,FF,FF,03,80,1A,69,
14718748,00000100,false,Rx,0,8,9F,00,00,00,00,00,1D,B4,
14720386,00000120,false,Rx,0,8,93,13,00,00,00,00,98,BB,
14720387,00000110,false,Rx,0,8,99,11,00,00,20,00,F8,11,
14721504,00000130,false,Rx,0,8,D5,00,00,00,10,00,1E,1E,
14721506,00000100,false,Rx,0,8,88,00,00,00,10,00,13,53,
14722504,00000120,false,Rx,0,8,93,13,00,00,10,00,95,7B,
14722506,00000110,false,Rx,0,8,B0,11,00,00,30,00,F2,28,
14723506,00000130,false,Rx,0,8,F8,FF,FF,FF,20,00,18,53,
14723508,00000100,false,Rx,0,8,71,00,00,00,20,00,13,3A,
14724498,00000120,false,Rx,0,8,77,13,00,00,20,00,96,9F,
14724500,00000110,false,Rx,0,8,B0,11,00,00,40,00,D7,E8,
14725663,00000130,false,Rx,0,8,18,00,00,00,30,00,17,C3,
14725664,00000100,false,Rx,0,8,5A,00,00,00,30,00,18,E1,
14726636,00000120,false,Rx,0,8,77,13,00,00,30,00,9B,5F,
14726638,00000110,false,Rx,0,8,99,11,00,00,50,00,DD,D1,
14727628,00000130,false,Rx,0,8,18,00,00,00,40,00,32,03,
14727629,00000100,false,Rx,0,8,5A,00,00,00,40,00,3D,21,
14728633,00000120,false,Rx,0,8,77,13,00,00,40,00,BE,9F,
14728635,00000110,false,Rx,0,8,99,11,00,00,60,00,C9,D1,
14729780,00000130,false,Rx,0,8,18,00,00,00,50,00,3F,C3,
14729781,00000100,false,Rx,0,8,5A,00,00,00,50,00,30,E1,
14730784,00000120,false,Rx,0,8,77,13,00,00,50,00,B3,5F,
14730785,00000110,false,Rx,0,8,99,11,00,00,70,00,C4,11,
14731757,00000130,false,Rx,0,8,18,00,00,00,60,00,2B,C3,
14731758,00000100,false,Rx,0,8,5A,00,00,00,60,00,24,E1,
14732753,00000120,false,Rx,0,8,77,13,00,00,60,00,A7,5F,
14732754,00000110,false,Rx,0,8,99,11,00,00,80,00,80,11,
14733875,00000130,false,Rx,0,8,F8,FF,FF,FF,70,00,24,53,
14733877,00000100,false,Rx,0,8,71,00,00,00,70,00,2F,3A,
14733877,00000140,false,Rx,0,8,01,00,FF,FF,40,00,30,2E,
14734903,00000120,false,Rx,0,8,77,13,00,00,70,00,AA,9F,
14734904,00000110,false,Rx,0,8,99,11,00,00,90,00,8D,D1,
14735897,00000130,false,Rx,0,8,F8,FF,FF,FF,80,00,60,53,
14735898,00000100,false,Rx,0,8,71,00,00,00,80,00,6B,3A,
14736872,00000120,false,Rx,0,8,77,13,00,00,80,00,EE,9F,
14736874,00000110,false,Rx,0,8,99,11,00,00,A0,00,99,D1,
14737873,00000130,false,Rx,0,8,F8,FF,FF,FF,90,00,6D,93,
14737874,00000100,false,Rx,0,8,88,00,00,00,90,00,72,93,
14737875,00000120,false,Rx,0,8,77,13,00,00,90,00,E3,5F,
14739129,00000110,false,Rx,0,8,99,11,00,00,B0,00,94,11,
14739130,00000050,false,Rx,0,6,41,5C,FF,FB,5F,FF,00,00,
14739131,00000130,false,Rx,0,8,6B,BA,F5,FF,A3,80,AB,B7,
14740122,00000100,false,Rx,0,8,88,00,00,00,A0,00,66,93,
14740123,00000120,false,Rx,0,8,B0,13,00,00,A0,00,E7,E8,
14741247,00000110,false,Rx,0,8,99,11,00,00,C0,00,B1,D1,
14741248,00000130,false,Rx,0,8,95,00,00,00,B0,00,68,DE,
14742255,00000100,false,Rx,0,8,71,00,00,00,B0,00,7F,3A,
14742256,00000120,false,Rx,0,8,B0,13,00,00,B0,00,EA,28,
14743248,00000110,false,Rx,0,8,B0,11,00,00,D0,00,BB,E8,
14743249,00000130,false,Rx,0,8,F8,FF,FF,FF,C0,00,51,93,
14744372,00000100,false,Rx,0,8,5A,00,00,00,C0,00,5C,E1,
14744373,00000120,false,Rx,0,8,93,13,00,00,C0,00,C8,BB,
14745405,00000110,false,Rx,0,8,B0,11,00,00,E0,00,AF,E8,
14745406,00000130,false,Rx,0,8,F8,FF,FF,FF,D0,00,5C,53,
14746379,00000100,false,Rx,0,8,5A,00,00,00,D0,00,51,21,
14746380,00000120,false,Rx,0,8,93,13,00,00,D0,00,C5,7B,
14747372,00000110,false,Rx,0,8,99,11,00,00,F0,00,A5,D1,
14747373,00000130,false,Rx,0,8,F8,FF,FF,FF,E0,00,48,53,
14748529,00000100,false,Rx,0,8,71,00,00,00,E0,00,43,3A,
14748531,00000120,false,Rx,0,8,5A,13,00,00,E0,00,C0,E2,
14749531,00000110,false,Rx,0,8,99,11,00,00,00,00,E1,D1,
14749532,00000130,false,Rx,0,8,F8,FF,FF,FF,F0,00,45,93,
14750506,00000100,false,Rx,0,8,5A,00,00,00,F0,00,48,E1,
14750507,00000120,false,Rx,0,8,5A,13,00,00,F0,00,CD,22,
14751517,00000110,false,Rx,0,8,82,11,00,00,10,00,EF,FA,
14751518,00000130,false,Rx,0,8,18,00,00,00,00,00,03,C3,
14752634,00000100,false,Rx,0,8,5A,00,00,00,00,00,0C,E1,
14752635,00000120,false,Rx,0,8,77,13,00,00,00,00,8F,5F,
14753643,00000110,false,Rx,0,8,82,11,00,00,20,00,FB,FA,
14753645,00000130,false,Rx,0,8,37,00,00,00,10,00,09,9C,
14754633,00000100,false,Rx,0,8,71,00,00,00,10,00,07,3A,
14754635,00000140,false,Rx,0,8,01,00,FF,FF,50,00,3D,EE,
14754635,00000120,false,Rx,0,8,77,13,00,00,10,00,82,9F,
14755642,00000110,false,Rx,0,8,99,11,00,00,30,00,F5,D1,
14755643,00000130,false,Rx,0,8,18,00,00,00,20,00,1A,03,
14756611,00000100,false,Rx,0,8,71,00,00,00,20,00,13,3A,
14756612,00000120,false,Rx,0,8,77,13,00,00,20,00,96,9F,
14757773,00000110,false,Rx,0,8,99,11,00,00,40,00,D0,11,
14757774,00000130,false,Rx,0,8,18,00,00,00,30,00,17,C3,
14758745,00000100,false,Rx,0,8,71,00,00,00,30,00,1E,FA,
14758747,00000120,false,Rx,0,8,77,13,00,00,30,00,9B,5F,
14758747,00000110,false,Rx,0,8,C7,11,00,00,50,00,D0,AF,
14759882,00000050,false,Rx,0,6,41,5C,FF,FB,5F,FF,00,00,
14759883,00000130,false,Rx,0,8,4D,21,00,00,43,80,83,51,
14759884,00000100,false,Rx,0,8,71,00,00,00,40,00,3B,3A,
14761504,00000120,false,Rx,0,8,93,13,00,00,40,00,A9,7B,
14761505,00000110,false,Rx,0,8,C7,11,00,00,60,00,C4,AF,
14762654,00000130,false,Rx,0,8,F8,FF,FF,FF,50,00,3D,93,
14762656,00000100,false,Rx,0,8,71,00,00,00,50,00,36,FA,
14763633,00000120,false,Rx,0,8,93,13,00,00,50,00,A4,BB,
14763635,00000110,false,Rx,0,8,99,11,00,00,70,00,C4,11,
14764647,00000130,false,Rx,0,8,18,00,00,00,60,00,2B,C3,
14764648,00000100,false,Rx,0,8,5A,00,00,00,60,00,24,E1,
14765628,00000120,false,Rx,0,8,93,13,00,00,60,00,B0,BB,
14765630,00000110,false,Rx,0,8,99,11,00,00,80,00,80,11,
14766782,00000130,false,Rx,0,8,18,00,00,00,70,00,26,03,
14766783,00000100,false,Rx,0,8,71,00,00,00,70,00,2F,3A,
14767778,00000120,false,Rx,0,8,93,13,00,00,70,00,BD,7B,
14767779,00000110,false,Rx,0,8,99,11,00,00,90,00,8D,D1,
14768753,00000130,false,Rx,0,8,F8,FF,FF,FF,80,00,60,53,
14768754,00000100,false,Rx,0,8,5A,00,00,00,80,00,6D,21,
14769754,00000120,false,Rx,0,8,93,13,00,00,80,00,F9,7B,
14769755,00000110,false,Rx,0,8,99,11,00,00,A0,00,99,D1,
14770903,00000130,false,Rx,0,8,18,00,00,00,90,00,6F,C3,
14770904,00000100,false,Rx,0,8,5A,00,00,00,90,00,60,E1,
14771881,00000120,false,Rx,0,8,93,13,00,00,90,00,F4,BB,
14771883,00000110,false,Rx,0,8,99,11,00,00,B0,00,94,11,
14772881,00000130,false,Rx,0,8,18,00,00,00,A0,00,7B,C3,
14772882,00000100,false,Rx,0,8,71,00,00,00,A0,00,72,FA,
14773877,00000120,false,Rx,0,8,93,13,00,00,A0,00,E0,BB,
14773879,00000110,false,Rx,0,8,99,11,00,00,C0,00,B1,D1,
14774870,00000130,false,Rx,0,8,18,00,00,00,B0,00,76,03,
14774872,00000100,false,Rx,0,8,71,00,00,00,B0,00,7F,3A,
14774872,00000140,false,Rx,0,8,01,00,FF,FF,60,00,29,EE,
14776027,00000120,false,Rx,0,8,93,13,00,00,B0,00,ED,7B,
14776028,00000110,false,Rx,0,8,B0,11,00,00,D0,00,BB,E8,
14777004,00000130,false,Rx,0,8,18,00,00,00,C0,00,53,C3,
14777006,00000100,false,Rx,0,8,71,00,00,00,C0,00,5A,FA,
14778006,00000120,false,Rx,0,8,93,13,00,00,C0,00,C8,BB,
14778008,00000110,false,Rx,0,8,B0,11,00,00,E0,00,AF,E8,
14778996,00000130,false,Rx,0,8,18,00,00,00,D0,00,5E,03,
14778998,00000100,false,Rx,0,8,88,00,00,00,D0,00,43,53,
14778998,00000120,false,Rx,0,8,93,13,00,00,D0,00,C5,7B,
14780256,00000110,false,Rx,0,8,C7,11,00,00,F0,00,A8,AF,
14780257,00000050,false,Rx,0,6,41,5C,FF,FB,5F,FF,00,00,
14780258,00000130,false,Rx,0,8,99,34,03,00,E3,80,E4,C2,
14781406,00000100,false,Rx,0,8,88,00,00,00,E0,00,57,53,
14781407,00000120,false,Rx,0,8,77,13,00,00,E0,00,C6,9F,
14782402,00000110,false,Rx,0,8,C7,11,00,00,00,00,EC,AF,
14782403,00000130,false,Rx,0,8,B9,FF,FF,FF,F0,00,4A,82,
14783387,00000100,false,Rx,0,8,71,00,00,00,F0,00,4E,FA,
14783389,00000120,false,Rx,0,8,77,13,00,00,F0,00,CB,5F,
14784371,00000110,false,Rx,0,8,99,11,00,00,10,00,EC,11,
14784373,00000130,false,Rx,0,8,D9,FF,FF,FF,00,00,07,22,
14785527,00000100,false,Rx,0,8,71,00,00,00,00,00,0A,FA,
14785529,00000120,false,Rx,0,8,93,13,00,00,00,00,98,BB,
14786528,00000110,false,Rx,0,8,99,11,00,00,20,00,F8,11,
14786529,00000130,false,Rx,0,8,37,00,00,00,10,00,09,9C,
14787504,00000100,false,Rx,0,8,5A,00,00,00,10,00,01,21,
14787505,00000120,false,Rx,0,8,93,13,00,00,10,00,95,7B,
14788522,00000110,false,Rx,0,8,B0,11,00,00,30,00,F2,28,
14788524,00000130,false,Rx,0,8,F8,FF,FF,FF,20,00,18,53,
14789637,00000100,false,Rx,0,8,43,00,00,00,20,00,17,28,
14789639,00000120,false,Rx,0,8,93,13,00,00,20,00,81,7B,
14790621,00000110,false,Rx,0,8,B0,11,00,00,40,00,D7,E8,
14790622,00000130,false,Rx,0,8,18,00,00,00,30,00,17,C3,
14791612,00000100,false,Rx,0,8,5A,00,00,00,30,00,18,E1,
14791613,00000120,false,Rx,0,8,93,13,00,00,30,00,8C,BB,
14792621,00000110,false,Rx,0,8,99,11,00,00,50,00,DD,D1,
14792623,00000130,false,Rx,0,8,F8,FF,FF,FF,40,00,30,53,
14793746,00000100,false,Rx,0,8,71,00,00,00,40,00,3B,3A,
14793747,00000120,false,Rx,0,8,93,13,00,00,40,00,A9,7B,
14794746,00000110,false,Rx,0,8,99,11,00,00,60,00,C9,D1,
14794748,00000130,false,Rx,0,8,18,00,00,00,50,00,3F,C3,
14795780,00000100,false,Rx,0,8,71,00,00,00,50,00,36,FA,
14795782,00000140,false,Rx,0,8,01,00,FF,FF,70,00,24,2E,
14795782,00000120,false,Rx,0,8,93,13,00,00,50,00,A4,BB,
14796777,00000110,false,Rx,0,8,99,11,00,00,70,00,C4,11,
14796778,00000130,false,Rx,0,8,D9,FF,FF,FF,60,00,2F,22,
14797754,00000100,false,Rx,0,8,71,00,00,00,60,00,22,FA,
14797756,00000120,false,Rx,0,8,77,13,00,00,60,00,A7,5F,
14798903,00000110,false,Rx,0,8,99,11,00,00,80,00,80,11,
14798905,00000130,false,Rx,0,8,18,00,00,00,70,00,26,03,
14799897,00000100,false,Rx,0,8,88,00,00,00,70,00,3B,53,
14799899,00000120,false,Rx,0,8,77,13,00,00,70,00,AA,9F,
14799899,00000110,false,Rx,0,8,99,11,00,00,90,00,8D,D1,
14801005,00000050,false,Rx,0,6,41,5C,FF,FB,5F,FF,00,00,
14801006,00000130,false,Rx,0,8,EB,95,FF,FF,83,80,7B,A9,
14801007,00000100,false,Rx,0,8,88,00,00,00,80,00,7F,53,
14802630,00000120,false,Rx,0,8,93,13,00,00,80,00,F9,7B,
14802631,00000110,false,Rx,0,8,99,11,00,00,A0,00,99,D1,
14803780,00000130,false,Rx,0,8,76,00,00,00,90,00,67,4D,
14803781,00000100,false,Rx,0,8,5A,00,00,00,90,00,60,E1,
14804765,00000120,false,Rx,0,8,93,13,00,00,90,00,F4,BB,
14804766,00000110,false,Rx,0,8,99,11,00,00,B0,00,94,11,
14805746,00000130,false,Rx,0,8,D9,FF,FF,FF,A0,00,7F,22,
14805748,00000100,false,Rx,0,8,5A,00,00,00,A0,00,74,E1,
14806744,00000120,false,Rx,0,8,77,13,00,00,A0,00,F7,5F,
14806746,00000110,false,Rx,0,8,99,11,00,00,C0,00,B1,D1,
14807880,00000130,false,Rx,0,8,D9,FF,FF,FF,B0,00,72,E2,
14807881,00000100,false,Rx,0,8,5A,00,00,00,B0,00,79,21,
14808904,00000120,false,Rx,0,8,77,13,00,00,B0,00,FA,9F,
14808905,00000110,false,Rx,0,8,B0,11,00,00,D0,00,BB,E8,
14809881,00000130,false,Rx,0,8,18,00,00,00,C0,00,53,C3,
14809882,00000100,false,Rx,0,8,43,00,00,00,C0,00,5E,E8,
14810869,00000120,false,Rx,0,8,77,13,00,00,C0,00,DF,5F,
14810870,00000110,false,Rx,0,8,B0,11,00,00,E0,00,AF,E8,
14812028,00000130,false,Rx,0,8,D9,FF,FF,FF,D0,00,5A,E2,
14812029,00000100,false,Rx,0,8,5A,00,00,00,D0,00,51,21,
14813031,00000120,false,Rx,0,8,77,13,00,00,D0,00,D2,9F,
14813032,00000110,false,Rx,0,8,99,11,00,00,F0,00,A5,D1,
14814031,00000130,false,Rx,0,8,D9,FF,FF,FF,E0,00,4E,E2,
14814032,00000100,false,Rx,0,8,71,00,00,00,E0,00,43,3A,
14815003,00000120,false,Rx,0,8,77,13,00,00,E0,00,C6,9F,
14815005,00000110,false,Rx,0,8,99,11,00,00,00,00,E1,D1,
14815996,00000130,false,Rx,0,8,D9,FF,FF,FF,F0,00,43,22,
14815997,00000100,false,Rx,0,8,71,00,00,00,F0,00,4E,FA,
14815998,00000140,false,Rx,0,8,01,00,FF,FF,80,00,60,2E,
14817150,00000120,false,Rx,0,8,77,13,00,00,F0,00,CB,5F,
14817152,00000110,false,Rx,0,8,99,11,00,00,10,00,EC,11,
14818156,00000130,false,Rx,0,8,F8,FF,FF,FF,00,00,01,93,
14818158,00000100,false,Rx,0,8,88,00,00,00,00,00,1E,93,
14819124,00000120,false,Rx,0,8,93,13,00,00,00,00,98,BB,
14819126,00000110,false,Rx,0,8,99,11,00,00,20,00,F8,11,
14820120,00000130,false,Rx,0,8,18,00,00,00,10,00,0E,03,
14820121,00000100,false,Rx,0,8,71,00,00,00,10,00,07,3A,
14820122,00000120,false,Rx,0,8,93,13,00,00,10,00,95,7B,
14821379,00000110,false,Rx,0,8,82,11,00,00,30,00,F6,3A,
14821380,00000050,false,Rx,0,6,41,5C,FF,FB,5F,FF,00,00,
14821381,00000130,false,Rx,0,8,4C,BA,F5,FF,23,80,CC,A0,
14822372,00000100,false,Rx,0,8,71,00,00,00,20,00,13,3A,
14822373,00000120,false,Rx,0,8,93,13,00,00,20,00,81,7B,
14823527,00000110,false,Rx,0,8,82,11,00,00,40,00,D3,FA,
14823529,00000210,false,Rx,0,8,75,69,00,05,06,5F,01,03,
14823529,00000130,false,Rx,0,8,95,00,00,00,30,00,09,1E,
14824503,00000100,false,Rx,0,8,71,00,00,00,30,00,1E,FA,
14824505,00000120,false,Rx,0,8,93,13,00,00,30,00,8C,BB,
14825498,00000110,false,Rx,0,8,99,11,00,00,50,00,DD,D1,
14825499,00000130,false,Rx,0,8,F8,FF,FF,FF,40,00,30,53,
14826620,00000100,false,Rx,0,8,5A,00,00,00,40,00,3D,21,
14826622,00000120,false,Rx,0,8,5A,13,00,00,40,00,B8,E2,
14827610,00000110,false,Rx,0,8,99,11,00,00,60,00,C9,D1,
14827612,00000130,false,Rx,0,8,18,00,00,00,50,00,3F,C3,
14828634,00000100,false,Rx,0,8,5A,00,00,00,50,00,30,E1,
14828636,00000120,false,Rx,0,8,5A,13,00,00,50,00,B5,22,
14829618,00000110,false,Rx,0,8,99,11,00,00,70,00,C4,11,
14829619,00000130,false,Rx,0,8,18,00,00,00,60,00,2B,C3,
14830774,00000100,false,Rx,0,8,5A,00,00,00,60,00,24,E1,
14830775,00000120,false,Rx,0,8,93,13,00,00,60,00,B0,BB,
14831783,00000110,false,Rx,0,8,99,11,00,00,80,00,80,11,
14831784,00000130,false,Rx,0,8,B9,FF,FF,FF,70,00,2B,42,
14832756,00000100,false,Rx,0,8,71,00,00,00,70,00,2F,3A,
14832758,00000120,false,Rx,0,8,93,13,00,00,70,00,BD,7B,
14833753,00000110,false,Rx,0,8,99,11,00,00,90,00,8D,D1,
14833754,00000130,false,Rx,0,8,F8,FF,FF,FF,80,00,60,53,
14834902,00000100,false,Rx,0,8,71,00,00,00,80,00,6B,3A,
14834903,00000120,false,Rx,0,8,93,13,00,00,80,00,F9,7B,
14835903,00000110,false,Rx,0,8,99,11,00,00,A0,00,99,D1,
14835904,00000130,false,Rx,0,8,F8,FF,FF,FF,90,00,6D,93,
14836850,00000100,false,Rx,0,8,71,00,00,00,90,00,66,FA,
14836851,00000140,false,Rx,0,8,01,00,FF,FF,90,00,6D,EE,
14836851,00000120,false,Rx,0,8,93,13,00,00,90,00,F4,BB,
14837871,00000110,false,Rx,0,8,99,11,00,00,B0,00,94,11,
14837873,00000130,false,Rx,0,8,37,00,00,00,A0,00,7C,5C,
14838870,00000100,false,Rx,0,8,88,00,00,00,A0,00,66,93,
14838872,00000120,false,Rx,0,8,93,13,00,00,A0,00,E0,BB,
14840027,00000110,false,Rx,0,8,99,11,00,00,C0,00,B1,D1,
14840029,00000130,false,Rx,0,8,37,00,00,00,B0,00,71,9C,
14841029,00000100,false,Rx,0,8,88,00,00,00,B0,00,6B,53,
14841030,00000120,false,Rx,0,8,93,13,00,00,B0,00,ED,7B,
14841031,00000110,false,Rx,0,8,C7,11,00,00,D0,00,B1,6F,
14842126,00000050,false,Rx,0,6,41,5C,FF,FB,5F,FF,00,00,
14842127,00000130,false,Rx,0,8,4D,21,00,00,C3,80,E2,91,
14842128,00000100,false,Rx,0,8,71,00,00,00,C0,00,5A,FA,
14843776,00000120,false,Rx,0,8,77,13,00,00,C0,00,DF,5F,
14843777,00000110,false,Rx,0,8,C7,11,00,00,E0,00,A5,6F,
14844904,00000130,false,Rx,0,8,F8,FF,FF,FF,D0,00,5C,53,
14844905,00000100,false,Rx,0,8,5A,00,00,00,D0,00,51,21,
14845904,00000120,false,Rx,0,8,77,13,00,00,D0,00,D2,9F,
14845905,00000110,false,Rx,0,8,99,11,00,00,F0,00,A5,D1,
14846878,00000130,false,Rx,0,8,F8,FF,FF,FF,E0,00,48,53,
14846879,00000100,false,Rx,0,8,71,00,00,00,E0,00,43,3A,
14847868,00000120,false,Rx,0,8,77,13,00,00,E0,00,C6,9F,
14847869,00000110,false,Rx,0,8,99,11,00,00,00,00,E1,D1,
14849026,00000130,false,Rx,0,8,F8,FF,FF,FF,F0,00,45,93,
14849027,00000100,false,Rx,0,8,5A,00,00,00,F0,00,48,E1,
14850027,00000120,false,Rx,0,8,77,13,00,00,F0,00,CB,5F,
14850028,00000110,false,Rx,0,8,99,11,00,00,10,00,EC,11,
14851004,00000130,false,Rx,0,8,37,00,00,00,00,00,04,5C,
14851005,00000100,false,Rx,0,8,5A,00,00,00,00,00,0C,E1,
14851993,00000120,false,Rx,0,8,5A,13,00,00,00,00,89,22,
14851994,00000110,false,Rx,0,8,99,11,00,00,20,00,F8,11,
14853152,00000130,false,Rx,0,8,F8,FF,FF,FF,10,00,0C,53,
14853153,00000100,false,Rx,0,8,5A,00,00,00,10,00,01,21,
14854152,00000120,false,Rx,0,8,5A,13,00,00,10,00,84,E2,
14854153,00000110,false,Rx,0,8,99,11,00,00,30,00,F5,D1,
14855128,00000130,false,Rx,0,8,F8,FF,FF,FF,20,00,18,53,
14855130,00000100,false,Rx,0,8,71,00,00,00,20,00,13,3A,
14856140,00000120,false,Rx,0,8,77,13,00,00,20,00,96,9F,
14856141,00000110,false,Rx,0,8,99,11,00,00,40,00,D0,11,
14857115,00000130,false,Rx,0,8,D9,FF,FF,FF,30,00,13,22,
14857116,00000100,false,Rx,0,8,88,00,00,00,30,00,0A,93,
14857117,00000140,false,Rx,0,8,01,00,FF,FF,A0,00,79,EE,
14858245,00000120,false,Rx,0,8,77,13,00,00,30,00,9B,5F,
14858246,00000110,false,Rx,0,8,99,11,00,00,50,00,DD,D1,
14859252,00000130,false,Rx,0,8,D9,FF,FF,FF,40,00,36,E2,
14859253,00000100,false,Rx,0,8,71,00,00,00,40,00,3B,3A,
14860254,00000120,false,Rx,0,8,77,13,00,00,40,00,BE,9F,
14860255,00000110,false,Rx,0,8,99,11,00,00,60,00,C9,D1,
14861254,00000130,false,Rx,0,8,F8,FF,FF,FF,50,00,3D,93,
14861256,00000100,false,Rx,0,8,71,00,00,00,50,00,36,FA,
14861256,00000120,false,Rx,0,8,77,13,00,00,50,00,B3,5F,
14862503,00000110,false,Rx,0,8,B0,11,00,00,70,00,C3,E8,
14862504,00000050,false,Rx,0,6,41,5C,FF,FB,5F,FF,00,00,
14862505,00000130,false,Rx,0,8,B8,34,03,00,63,80,83,B3,
14863527,00000100,false,Rx,0,8,5A,00,00,00,60,00,24,E1,
14863528,00000120,false,Rx,0,8,93,13,00,00,60,00,B0,BB,
14864642,00000110,false,Rx,0,8,B0,11,00,00,80,00,87,E8,
14864644,00000130,false,Rx,0,8,B9,FF,FF,FF,70,00,2B,42,
14865638,00000100,false,Rx,0,8,71,00,00,00,70,00,2F,3A,
14865639,00000120,false,Rx,0,8,93,13,00,00,70,00,BD,7B,
14866633,00000110,false,Rx,0,8,99,11,00,00,90,00,8D,D1,
14866635,00000170,false,Rx,0,8,00,00,00,01,00,00,00,68,
14866635,00000130,false,Rx,0,8,D9,FF,FF,FF,80,00,66,E2,
14867774,00000100,false,Rx,0,8,43,00,00,00,80,00,6F,28,
14867776,00000120,false,Rx,0,8,77,13,00,00,80,00,EE,9F,
14868722,00000110,false,Rx,0,8,99,11,00,00,A0,00,99,D1,
14868723,00000130,false,Rx,0,8,D9,FF,FF,FF,90,00,6B,22,
14869754,00000100,false,Rx,0,8,5A,00,00,00,90,00,60,E1,
14869755,00000120,false,Rx,0,8,77,13,00,00,90,00,E3,5F,
14870751,00000110,false,Rx,0,8,B0,11,00,00,B0,00,93,E8,
14870752,00000130,false,Rx,0,8,18,00,00,00,A0,00,7B,C3,
14871904,00000100,false,Rx,0,8,71,00,00,00,A0,00,72,FA,
14871906,00000120,false,Rx,0,8,77,13,00,00,A0,00,F7,5F,
14872900,00000110,false,Rx,0,8,B0,11,00,00,C0,00,B6,28,
14872902,00000130,false,Rx,0,8,D9,FF,FF,FF,B0,00,72,E2,
14873878,00000100,false,Rx,0,8,71,00,00,00,B0,00,7F,3A,
14873879,00000120,false,Rx,0,8,77,13,00,00,B0,00,FA,9F,
14874878,00000110,false,Rx,0,8,B0,11,00,00,D0,00,BB,E8,
14874880,00000130,false,Rx,0,8,18,00,00,00,C0,00,53,C3,
14875869,00000100,false,Rx,0,8,71,00,00,00,C0,00,5A,FA,
14875870,00000120,false,Rx,0,8,93,13,00,00,C0,00,C8,BB,
14877027,00000110,false,Rx,0,8,B0,11,00,00,E0,00,AF,E8,
14877028,00000130,false,Rx,0,8,F8,FF,FF,FF,D0,00,5C,53,
14878026,00000100,false,Rx,0,8,71,00,00,00,D0,00,57,3A,
14878027,00000140,false,Rx,0,8,01,00,FF,FF,B0,00,74,2E,
14878027,00000120,false,Rx,0,8,93,13,00,00,D0,00,C5,7B,
14879021,00000110,false,Rx,0,8,99,11,00,00,F0,00,A5,D1,
14879022,00000130,false,Rx,0,8,D9,FF,FF,FF,E0,00,4E,E2,
14879997,00000100,false,Rx,0,8,71,00,00,00,E0,00,43,3A,
14879998,00000120,false,Rx,0,8,77,13,00,00,E0,00,C6,9F,
14881000,00000110,false,Rx,0,8,99,11,00,00,00,00,E1,D1,
14881001,00000130,false,Rx,0,8,18,00,00,00,F0,00,47,C3,
14882118,00000100,false,Rx,0,8,71,00,00,00,F0,00,4E,FA,
14882119,00000120,false,Rx,0,8,77,13,00,00,F0,00,CB,5F,
14882120,00000110,false,Rx,0,8,99,11,00,00,10,00,EC,11,
14883246,00000050,false,Rx,0,6,41,5C,FF,FB,5F,FF,00,00,
14883247,00000130,false,Rx,0,8,EB,95,FF,FF,03,80,1A,69,
14883247,00000100,false,Rx,0,8,5A,00,00,00,00,00,0C,E1,
14884877,00000120,false,Rx,0,8,93,13,00,00,00,00,98,BB,
14884878,00000110,false,Rx,0,8,99,11,00,00,20,00,F8,11,
14886028,00000130,false,Rx,0,8,56,00,00,00,10,00,01,ED,
14886029,00000100,false,Rx,0,8,5A,00,00,00,10,00,01,21,
14887027,00000120,false,Rx,0,8,93,13,00,00,10,00,95,7B,
14887029,00000110,false,Rx,0,8,99,11,00,00,30,00,F5,D1,
14888004,00000130,false,Rx,0,8,D9,FF,FF,FF,20,00,1E,E2,
14888006,00000100,false,Rx,0,8,5A,00,00,00,20,00,15,21,
14889002,00000120,false,Rx,0,8,93,13,00,00,20,00,81,7B,
14889004,00000110,false,Rx,0,8,99,11,00,00,40,00,D0,11,
14890152,00000130,false,Rx,0,8,F8,FF,FF,FF,30,00,15,93,
14890153,00000100,false,Rx,0,8,71,00,00,00,30,00,1E,FA,
14891147,00000120,false,Rx,0,8,93,13,00,00,30,00,8C,BB,
14891148,00000110,false,Rx,0,8,B0,11,00,00,50,00,DA,28,
14892128,00000130,false,Rx,0,8,18,00,00,00,40,00,32,03,
14892129,00000100,false,Rx,0,8,5A,00,00,00,40,00,3D,21,
14893133,00000120,false,Rx,0,8,77,13,00,00,40,00,BE,9F,
14893134,00000110,false,Rx,0,8,B0,11,00,00,60,00,CE,28,
14894120,00000130,false,Rx,0,8,D9,FF,FF,FF,50,00,3B,22,
14894122,00000100,false,Rx,0,8,71,00,00,00,50,00,36,FA,
14895246,00000120,false,Rx,0,8,77,13,00,00,50,00,B3,5F,
14895248,00000110,false,Rx,0,8,99,11,00,00,70,00,C4,11,
14896253,00000130,false,Rx,0,8,D9,FF,FF,FF,60,00,2F,22,
14896255,00000100,false,Rx,0,8,71,00,00,00,60,00,22,FA,
14897252,00000120,false,Rx,0,8,77,13,00,00,60,00,A7,5F,
14897253,00000110,false,Rx,0,8,99,11,00,00,80,00,80,11,
14898254,00000130,false,Rx,0,8,F8,FF,FF,FF,70,00,24,53,
14898255,00000100,false,Rx,0,8,88,00,00,00,70,00,3B,53,
14898256,00000140,false,Rx,0,8,01,00,FF,FF,C0,00,51,EE,
14899401,00000120,false,Rx,0,8,77,13,00,00,70,00,AA,9F,
14899402,00000110,false,Rx,0,8,99,11,00,00,90,00,8D,D1,
14900379,00000130,false,Rx,0,8,D9,FF,FF,FF,80,00,66,E2,
14900380,00000100,false,Rx,0,8,88,00,00,00,80,00,7F,53,
14901370,00000120,false,Rx,0,8,93,13,00,00,80,00,F9,7B,
14901371,00000110,false,Rx,0,8,99,11,00,00,A0,00,99,D1,
14902372,00000130,false,Rx,0,8,18,00,00,00,90,00,6F,C3,
14902373,00000100,false,Rx,0,8,5A,00,00,00,90,00,60,E1,
14902374,00000120,false,Rx,0,8,93,13,00,00,90,00,F4,BB,
14903622,00000110,false,Rx,0,8,82,11,00,00,B0,00,97,FA,
14903623,00000050,false,Rx,0,6,41,5C,FF,FB,5F,FF,00,00,
14903624,00000130,false,Rx,0,8,6B,BA,F5,FF,A3,80,AB,B7,
14904621,00000100,false,Rx,0,8,71,00,00,00,A0,00,72,FA,
14904622,00000120,false,Rx,0,8,77,13,00,00,A0,00,F7,5F,
14905745,00000110,false,Rx,0,8,82,11,00,00,C0,00,B2,3A,
14905746,00000130,false,Rx,0,8,76,00,00,00,B0,00,7E,8D,
14906746,00000100,false,Rx,0,8,71,00,00,00,B0,00,7F,3A,
14906747,00000120,false,Rx,0,8,77,13,00,00,B0,00,FA,9F,
14907747,00000110,false,Rx,0,8,B0,11,00,00,D0,00,BB,E8,
14907748,00000130,false,Rx,0,8,F8,FF,FF,FF,C0,00,51,93,
14908869,00000100,false,Rx,0,8,5A,00,00,00,C0,00,5C,E1,
14908871,00000120,false,Rx,0,8,93,13,00,00,C0,00,C8,BB,
14909872,00000110,false,Rx,0,8,B0,11,00,00,E0,00,AF,E8,
14909873,00000130,false,Rx,0,8,18,00,00,00,D0,00,5E,03,
14910872,00000100,false,Rx,0,8,5A,00,00,00,D0,00,51,21,
14910874,00000120,false,Rx,0,8,93,13,00,00,D0,00,C5,7B,
14911856,00000110,false,Rx,0,8,99,11,00,00,F0,00,A5,D1,
14911857,00000130,false,Rx,0,8,F8,FF,FF,FF,E0,00,48,53,
14912873,00000100,false,Rx,0,8,71,00,00,00,E0,00,43,3A,
14912875,00000120,false,Rx,0,8,93,13,00,00,E0,00,D1,7B,
14913981,00000110,false,Rx,0,8,99,11,00,00,00,00,E1,D1,
14913982,00000130,false,Rx,0,8,18,00,00,00,F0,00,47,C3,
14914981,00000100,false,Rx,0,8,71,00,00,00,F0,00,4E,FA,
14914982,00000120,false,Rx,0,8,93,13,00,00,F0,00,DC,BB,
14915978,00000110,false,Rx,0,8,99,11,00,00,10,00,EC,11,
14915979,00000130,false,Rx,0,8,D9,FF,FF,FF,00,00,07,22,
14916978,00000100,false,Rx,0,8,71,00,00,00,00,00,0A,FA,
14916979,00000120,false,Rx,0,8,93,13,00,00,00,00,98,BB,
14918103,00000110,false,Rx,0,8,99,11,00,00,20,00,F8,11,
14918104,00000130,false,Rx,0,8,F8,FF,FF,FF,10,00,0C,53,
14919103,00000100,false,Rx,0,8,71,00,00,00,10,00,07,3A,
14919104,00000140,false,Rx,0,8,01,00,FF,FF,D0,00,5C,2E,
14919105,00000120,false,Rx,0,8,93,13,00,00,10,00,95,7B,
14920102,00000110,false,Rx,0,8,B0,11,00,00,30,00,F2,28,
14920103,00000130,false,Rx,0,8,D9,FF,FF,FF,20,00,1E,E2,
14921103,00000100,false,Rx,0,8,71,00,00,00,20,00,13,3A,
14921104,00000120,false,Rx,0,8,93,13,00,00,20,00,81,7B,
14922103,00000110,false,Rx,0,8,B0,11,00,00,40,00,D7,E8,
14922105,00000130,false,Rx,0,8,18,00,00,00,30,00,17,C3,
14923228,00000100,false,Rx,0,8,71,00,00,00,30,00,1E,FA,
14923228,00000120,false,Rx,0,8,93,13,00,00,30,00,8C,BB,
14923229,00000110,false,Rx,0,8,C7,11,00,00,50,00,D0,AF,
14924352,00000050,false,Rx,0,6,41,5C,FF,FB,5F,FF,00,00,
14924353,00000130,false,Rx,0,8,6C,21,00,00,43,80,85,E0,
14924354,00000100,false,Rx,0,8,5A,00,00,00,40,00,3D,21,
14925977,00000120,false,Rx,0,8,77,13,00,00,40,00,BE,9F,
14925978,00000110,false,Rx,0,8,C7,11,00,00,60,00,C4,AF,
14927102,00000130,false,Rx,0,8,B9,FF,FF,FF,50,00,32,82,
14927103,00000100,false,Rx,0,8,5A,00,00,00,50,00,30,E1,
14928103,00000120,false,Rx,0,8,77,13,00,00,50,00,B3,5F,
14928104,00000110,false,Rx,0,8,99,11,00,00,70,00,C4,11,
14929103,00000130,false,Rx,0,8,18,00,00,00,60,00,2B,C3,
14929104,00000100,false,Rx,0,8,5A,00,00,00,60,00,24,E1,
14930102,00000120,false,Rx,0,8,77,13,00,00,60,00,A7,5F,
14930103,00000110,false,Rx,0,8,99,11,00,00,80,00,80,11,
14931226,00000130,false,Rx,0,8,18,00,00,00,70,00,26,03,
14931227,00000100,false,Rx,0,8,71,00,00,00,70,00,2F,3A,
14932221,00000120,false,Rx,0,8,77,13,00,00,70,00,AA,9F,
14932222,00000110,false,Rx,0,8,99,11,00,00,90,00,8D,D1,
14933231,00000130,false,Rx,0,8,F8,FF,FF,FF,80,00,60,53,
14933232,00000100,false,Rx,0,8,71,00,00,00,80,00,6B,3A,
14934228,00000120,false,Rx,0,8,77,13,00,00,80,00,EE,9F,
14934229,00000110,false,Rx,0,8,99,11,00,00,A0,00,99,D1,
14935229,00000130,false,Rx,0,8,F8,FF,FF,FF,90,00,6D,93,
14935230,00000100,false,Rx,0,8,71,00,00,00,90,00,66,FA,
14936352,00000120,false,Rx,0,8,77,13,00,00,90,00,E3,5F,
14936353,00000110,false,Rx,0,8,99,11,00,00,B0,00,94,11,
14937352,00000130,false,Rx,0,8,F8,FF,FF,FF,A0,00,79,93,
14937353,00000100,false,Rx,0,8,71,00,00,00,A0,00,72,FA,
14938350,00000120,false,Rx,0,8,93,13,00,00,A0,00,E0,BB,
14938351,00000110,false,Rx,0,8,99,11,00,00,C0,00,B1,D1,
14939352,00000130,false,Rx,0,8,18,00,00,00,B0,00,76,03,
14939353,00000100,false,Rx,0,8,88,00,00,00,B0,00,6B,53,
14939353,00000140,false,Rx,0,8,01,00,FF,FF,E0,00,48,2E,
14940477,00000120,false,Rx,0,8,93,13,00,00,B0,00,ED,7B,
14940478,00000110,false,Rx,0,8,99,11,00,00,D0,00,BC,11,
14941477,00000130,false,Rx,0,8,F8,FF,FF,FF,C0,00,51,93,
14941478,00000100,false,Rx,0,8,71,00,00,00,C0,00,5A,FA,
14942477,00000120,false,Rx,0,8,77,13,00,00,C0,00,DF,5F,
14942478,00000110,false,Rx,0,8,99,11,00,00,E0,00,A8,11,
14943475,00000130,false,Rx,0,8,F8,FF,FF,FF,D0,00,5C,53,
14943476,00000100,false,Rx,0,8,5A,00,00,00,D0,00,51,21,
14943477,00000120,false,Rx,0,8,77,13,00,00,D0,00,D2,9F,
14944717,00000110,false,Rx,0,8,C7,11,00,00,F0,00,A8,AF,
14944718,00000050,false,Rx,0,6,41,5C,FF,FB,5F,FF,00,00,
14944718,00000130,false,Rx,0,8,99,34,03,00,E3,80,E4,C2,
14945716,00000100,false,Rx,0,8,5A,00,00,00,E0,00,45,21,
14945717,00000120,false,Rx,0,8,77,13,00,00,E0,00,C6,9F,
14946719,00000110,false,Rx,0,8,C7,11,00,00,00,00,EC,AF,
14946721,00000130,false,Rx,0,8,D9,FF,FF,FF,F0,00,43,22,
14947843,00000100,false,Rx,0,8,5A,00,00,00,F0,00,48,E1,
14947844,00000120,false,Rx,0,8,77,13,00,00,F0,00,CB,5F,
14948842,00000110,false,Rx,0,8,82,11,00,00,10,00,EF,FA,
14948843,00000130,false,Rx,0,8,F8,FF,FF,FF,00,00,01,93,
14949967,00000100,false,Rx,0,8,5A,00,00,00,00,00,0C,E1,
14949968,00000120,false,Rx,0,8,77,13,00,00,00,00,8F,5F,
14950995,00000110,false,Rx,0,8,82,11,00,00,20,00,FB,FA,
14950997,00000130,false,Rx,0,8,F8,FF,FF,FF,10,00,0C,53,
14951994,00000100,false,Rx,0,8,71,00,00,00,10,00,07,3A,
14951995,00000120,false,Rx,0,8,77,13,00,00,10,00,82,9F,
14952977,00000110,false,Rx,0,8,99,11,00,00,30,00,F5,D1,
14952978,00000130,false,Rx,0,8,F8,FF,FF,FF,20,00,18,53,
14953967,00000100,false,Rx,0,8,71,00,00,00,20,00,13,3A,
14953968,00000120,false,Rx,0,8,93,13,00,00,20,00,81,7B,
14955103,00000110,false,Rx,0,8,99,11,00,00,40,00,D0,11,
14955104,00000130,false,Rx,0,8,F8,FF,FF,FF,30,00,15,93,
14956102,00000100,false,Rx,0,8,71,00,00,00,30,00,1E,FA,
14956103,00000120,false,Rx,0,8,93,13,00,00,30,00,8C,BB,
14957103,00000110,false,Rx,0,8,99,11,00,00,50,00,DD,D1,
14957104,00000130,false,Rx,0,8,F8,FF,FF,FF,40,00,30,53,
14958102,00000100,false,Rx,0,8,71,00,00,00,40,00,3B,3A,
14958103,00000120,false,Rx,0,8,93,13,00,00,40,00,A9,7B,
14959227,00000110,false,Rx,0,8,99,11,00,00,60,00,C9,D1,
14959228,00000130,false,Rx,0,8,F8,FF,FF,FF,50,00,3D,93,
14960224,00000100,false,Rx,0,8,88,00,00,00,50,00,22,93,
14960226,00000140,false,Rx,0,8,01,00,FF,FF,F0,00,45,EE,
14960226,00000120,false,Rx,0,8,93,13,00,00,50,00,A4,BB,
14961227,00000110,false,Rx,0,8,99,11,00,00,70,00,C4,11,
14961228,00000130,false,Rx,0,8,F8,FF,FF,FF,60,00,29,93,
14962227,00000100,false,Rx,0,8,71,00,00,00,60,00,22,FA,
14962228,00000120,false,Rx,0,8,77,13,00,00,60,00,A7,5F,
14963221,00000110,false,Rx,0,8,99,11,00,00,80,00,80,11,
14963223,00000130,false,Rx,0,8,D9,FF,FF,FF,70,00,22,E2,
14964354,00000100,false,Rx,0,8,5A,00,00,00,70,00,29,21,
14964355,00000120,false,Rx,0,8,77,13,00,00,70,00,AA,9F,
14964356,00000110,false,Rx,0,8,99,11,00,00,90,00,8D,D1,
14965477,00000050,false,Rx,0,6,41,5C,FF,FB,5F,FF,00,00,
14965478,00000130,false,Rx,0,8,EB,95,FF,FF,83,80,7B,A9,
14965479,00000100,false,Rx,0,8,71,00,00,00,80,00,6B,3A,
14967107,00000120,false,Rx,0,8,93,13,00,00,80,00,F9,7B,
14967107,00000110,false,Rx,0,8,99,11,00,00,A0,00,99,D1,
14968101,00000130,false,Rx,0,8,95,00,00,00,90,00,71,1E,
14968102,00000100,false,Rx,0,8,71,00,00,00,90,00,66,FA,
14969231,00000120,false,Rx,0,8,93,13,00,00,90,00,F4,BB,
14969232,00000110,false,Rx,0,8,99,11,00,00,B0,00,94,11,
14969232,00000170,false,Rx,0,8,00,00,00,52,50,41,05,D4,
14970226,00000130,false,Rx,0,8,F8,FF,FF,FF,A0,00,79,93,
14970227,00000100,false,Rx,0,8,5A,00,00,00,A0,00,74,E1,
14971227,00000120,false,Rx,0,8,77,13,00,00,A0,00,F7,5F,
14971228,00000110,false,Rx,0,8,99,11,00,00,C0,00,B1,D1,
14972351,00000130,false,Rx,0,8,18,00,00,00,B0,00,76,03,
14972352,00000100,false,Rx,0,8,71,00,00,00,B0,00,7F,3A,
14973349,00000120,false,Rx,0,8,77,13,00,00,B0,00,FA,9F,
14973349,00000110,false,Rx,0,8,B0,11,00,00,D0,00,BB,E8,
14974350,00000130,false,Rx,0,8,D9,FF,FF,FF,C0,00,57,22,
14974351,00000100,false,Rx,0,8,71,00,00,00,C0,00,5A,FA,
14975352,00000120,false,Rx,0,8,77,13,00,00,C0,00,DF,5F,
14975353,00000110,false,Rx,0,8,B0,11,00,00,E0,00,AF,E8,
14976351,00000130,false,Rx,0,8,D9,FF,FF,FF,D0,00,5A,E2,
14976351,00000100,false,Rx,0,8,71,00,00,00,D0,00,57,3A,
14977477,00000120,false,Rx,0,8,77,13,00,00,D0,00,D2,9F,
14977477,00000110,false,Rx,0,8,99,11,00,00,F0,00,A5,D1,
14978476,00000130,false,Rx,0,8,B9,FF,FF,FF,E0,00,47,42,
14978477,00000100,false,Rx,0,8,88,00,00,00,E0,00,57,53,
14979476,00000120,false,Rx,0,8,93,13,00,00,E0,00,D1,7B,
14979477,00000110,false,Rx,0,8,99,11,00,00,00,00,E1,D1,
14980476,00000130,false,Rx,0,8,18,00,00,00,F0,00,47,C3,
14980477,00000100,false,Rx,0,8,88,00,00,00,F0,00,5A,93,
14980477,00000140,false,Rx,0,8,01,00,FF,FF,00,00,01,EE,
14981602,00000120,false,Rx,0,8,93,13,00,00,F0,00,DC,BB,
14981602,00000110,false,Rx,0,8,B0,11,00,00,10,00,EB,E8,
14982602,00000130,false,Rx,0,8,F8,FF,FF,FF,00,00,01,93,
14982603,00000100,false,Rx,0,8,5A,00,00,00,00,00,0C,E1,
14983602,00000120,false,Rx,0,8,93,13,00,00,00,00,98,BB,
14983603,00000110,false,Rx,0,8,B0,11,00,00,20,00,FF,E8,
14984602,00000130,false,Rx,0,8,18,00,00,00,10,00,0E,03,
14984602,00000100,false,Rx,0,8,5A,00,00,00,10,00,01,21,
14984603,00000120,false,Rx,0,8,93,13,00,00,10,00,95,7B,
14985851,00000110,false,Rx,0,8,99,11,00,00,30,00,F5,D1,
14985851,00000050,false,Rx,0,6,41,5C,FF,FB,5F,FF,00,00,
14985852,00000130,false,Rx,0,8,2C,BA,F5,FF,23,80,C5,00,
14986863,00000100,false,Rx,0,8,5A,00,00,00,20,00,15,21,
14986864,00000120,false,Rx,0,8,77,13,00,00,20,00,96,9F,
14987841,00000110,false,Rx,0,8,99,11,00,00,40,00,D0,11,
14987842,00000210,false,Rx,0,8,75,69,00,05,06,5F,01,03,
14987842,00000130,false,Rx,0,8,95,00,00,00,30,00,09,1E,
14988970,00000100,false,Rx,0,8,5A,00,00,00,30,00,18,E1,
14988971,00000120,false,Rx,0,8,77,13,00,00,30,00,9B,5F,
14989967,00000110,false,Rx,0,8,82,11,00,00,50,00,DE,3A,
14989968,00000130,false,Rx,0,8,F8,FF,FF,FF,40,00,30,53,
14990965,00000100,false,Rx,0,8,5A,00,00,00,40,00,3D,21,
14990966,00000120,false,Rx,0,8,5A,13,00,00,40,00,B8,E2,
14992093,00000110,false,Rx,0,8,82,11,00,00,60,00,CA,3A,
14992094,00000130,false,Rx,0,8,F8,FF,FF,FF,50,00,3D,93,
14993090,00000100,false,Rx,0,8,71,00,00,00,50,00,36,FA,
14993091,00000120,false,Rx,0,8,5A,13,00,00,50,00,B5,22,
14994090,00000110,false,Rx,0,8,B0,11,00,00,70,00,C3,E8,
14994091,00000130,false,Rx,0,8,F8,FF,FF,FF,60,00,29,93,
14995107,00000100,false,Rx,0,8,71,00,00,00,60,00,22,FA,
14995109,00000120,false,Rx,0,8,77,13,00,00,60,00,A7,5F,
14996228,00000110,false,Rx,0,8,B0,11,00,00,80,00,87,E8,
14996229,00000130,false,Rx,0,8,18,00,00,00,70,00,26,03,
14997216,00000100,false,Rx,0,8,88,00,00,00,70,00,3B,53,
14997218,00000120,false,Rx,0,8,77,13,00,00,70,00,AA,9F,
14998227,00000110,false,Rx,0,8,B0,11,00,00,90,00,8A,28,
14998228,00000130,false,Rx,0,8,18,00,00,00,80,00,62,03,
14999227,00000100,false,Rx,0,8,88,00,00,00,80,00,7F,53,
14999228,00000120,false,Rx,0,8,77,13,00,00,80,00,EE,9F,
15000353,00000110,false,Rx,0,8,B0,11,00,00,A0,00,9E,28,
15000354,00000130,false,Rx,0,8,F8,FF,FF,FF,90,00,6D,93,
15001354,00000100,false,Rx,0,8,88,00,00,00,90,00,72,93,
15001355,00000140,false,Rx,0,8,01,00,FF,FF,10,00,0C,2E,
15001356,00000120,false,Rx,0,8,77,13,00,00,90,00,E3,5F,
15002351,00000110,false,Rx,0,8,B0,11,00,00,B0,00,93,E8,
15002352,00000130,false,Rx,0,8,F8,FF,FF,FF,A0,00,79,93,
15003352,00000100,false,Rx,0,8,5A,00,00,00,A0,00,74,E1,
15003353,00000120,false,Rx,0,8,77,13,00,00,A0,00,F7,5F,
15004351,00000110,false,Rx,0,8,B0,11,00,00,C0,00,B6,28,
15004353,00000130,false,Rx,0,8,18,00,00,00,B0,00,76,03,
15005477,00000100,false,Rx,0,8,5A,00,00,00,B0,00,79,21,
15005478,00000120,false,Rx,0,8,77,13,00,00,B0,00,FA,9F,
15005479,00000110,false,Rx,0,8,C7,11,00,00,D0,00,B1,6F,
15006607,00000050,false,Rx,0,6,41,5C,FF,FB,5F,FF,00,00,
15006608,00000130,false,Rx,0,8,4D,21,00,00,C3,80,E2,91,
15006609,00000100,false,Rx,0,8,5A,00,00,00,C0,00,5C,E1,
15008229,00000120,false,Rx,0,8,77,13,00,00,C0,00,DF,5F,
15008230,00000110,false,Rx,0,8,C7,11,00,00,E0,00,A5,6F,
15009351,00000130,false,Rx,0,8,99,FF,FF,FF,D0,00,54,22,
15009352,00000100,false,Rx,0,8,71,00,00,00,D0,00,57,3A,
15010352,00000120,false,Rx,0,8,77,13,00,00,D0,00,D2,9F,
15010353,00000110,false,Rx,0,8,99,11,00,00,F0,00,A5,D1,
15011385,00000130,false,Rx,0,8,F8,FF,FF,FF,E0,00,48,53,
15011386,00000100,false,Rx,0,8,71,00,00,00,E0,00,43,3A,
15012354,00000120,false,Rx,0,8,77,13,00,00,E0,00,C6,9F,
15012354,00000110,false,Rx,0,8,99,11,00,00,00,00,E1,D1,
15013356,00000130,false,Rx,0,8,D9,FF,FF,FF,F0,00,43,22,
15013357,00000100,false,Rx,0,8,71,00,00,00,F0,00,4E,FA,
15014477,00000120,false,Rx,0,8,77,13,00,00,F0,00,CB,5F,
15014477,00000110,false,Rx,0,8,99,11,00,00,10,00,EC,11,
15015477,00000130,false,Rx,0,8,D9,FF,FF,FF,00,00,07,22,
15015478,00000100,false,Rx,0,8,71,00,00,00,00,00,0A,FA,
15016459,00000120,false,Rx,0,8,77,13,00,00,00,00,8F,5F,
15016460,00000110,false,Rx,0,8,99,11,00,00,20,00,F8,11,
15017476,00000130,false,Rx,0,8,F8,FF,FF,FF,10,00,0C,53,
15017476,00000100,false,Rx,0,8,71,00,00,00,10,00,07,3A,
15018586,00000120,false,Rx,0,8,77,13,00,00,10,00,82,9F,
15018587,00000110,false,Rx,0,8,99,11,00,00,30,00,F5,D1,
15019600,00000130,false,Rx,0,8,F8,FF,FF,FF,20,00,18,53,
15019601,00000100,false,Rx,0,8,88,00,00,00,20,00,07,53,
15020599,00000120,false,Rx,0,8,77,13,00,00,20,00,96,9F,
15020600,00000110,false,Rx,0,8,99,11,00,00,40,00,D0,11,
15021598,00000130,false,Rx,0,8,18,00,00,00,30,00,17,C3,
15021598,00000100,false,Rx,0,8,71,00,00,00,30,00,1E,FA,
15021599,00000140,false,Rx,0,8,01,00,FF,FF,20,00,18,2E,
15022709,00000120,false,Rx,0,8,77,13,00,00,30,00,9B,5F,
15022710,00000110,false,Rx,0,8,B0,11,00,00,50,00,DA,28,
15023736,00000130,false,Rx,0,8,F8,FF,FF,FF,40,00,30,53,
15023737,00000100,false,Rx,0,8,71,00,00,00,40,00,3B,3A,
15024739,00000120,false,Rx,0,8,93,13,00,00,40,00,A9,7B,
15024740,00000110,false,Rx,0,8,B0,11,00,00,60,00,CE,28,
15025728,00000130,false,Rx,0,8,F8,FF,FF,FF,50,00,3D,93,
15025729,00000100,false,Rx,0,8,5A,00,00,00,50,00,30,E1,
15025729,00000120,false,Rx,0,8,93,13,00,00,50,00,A4,BB,
15026966,00000110,false,Rx,0,8,C7,11,00,00,70,00,C9,6F,
15026967,00000050,false,Rx,0,6,41,5C,FF,FB,5F,FF,00,00,
15026967,00000130,false,Rx,0,8,99,34,03,00,63,80,85,02,
15027977,00000100,false,Rx,0,8,5A,00,00,00,60,00,24,E1,
15027978,00000120,false,Rx,0,8,93,13,00,00,60,00,B0,BB,
15028977,00000110,false,Rx,0,8,C7,11,00,00,80,00,8D,6F,
15028978,00000130,false,Rx,0,8,D9,FF,FF,FF,70,00,22,E2,
15030102,00000100,false,Rx,0,8,5A,00,00,00,70,00,29,21,
15030103,00000120,false,Rx,0,8,93,13,00,00,70,00,BD,7B,
15031110,00000110,false,Rx,0,8,99,11,00,00,90,00,8D,D1,
15031111,00000130,false,Rx,0,8,F8,FF,FF,FF,80,00,60,53,
15032100,00000100,false,Rx,0,8,71,00,00,00,80,00,6B,3A,
15032101,00000120,false,Rx,0,8,77,13,00,00,80,00,EE,9F,
15033225,00000110,false,Rx,0,8,99,11,00,00,A0,00,99,D1,
15033226,00000130,false,Rx,0,8,18,00,00,00,90,00,6F,C3,
15034226,00000100,false,Rx,0,8,71,00,00,00,90,00,66,FA,
15034227,00000120,false,Rx,0,8,77,13,00,00,90,00,E3,5F,
15035226,00000110,false,Rx,0,8,99,11,00,00,B0,00,94,11,
15035226,00000130,false,Rx,0,8,F8,FF,FF,FF,A0,00,79,93,
15036226,00000100,false,Rx,0,8,88,00,00,00,A0,00,66,93,
15036226,00000120,false,Rx,0,8,93,13,00,00,A0,00,E0,BB,
15037225,00000110,false,Rx,0,8,99,11,00,00,C0,00,B1,D1,
15037226,00000130,false,Rx,0,8,18,00,00,00,B0,00,76,03,
15038351,00000100,false,Rx,0,8,71,00,00,00,B0,00,7F,3A,
15038351,00000120,false,Rx,0,8,93,13,00,00,B0,00,ED,7B,
15039351,00000110,false,Rx,0,8,99,11,00,00,D0,00,BC,11,
15039352,00000130,false,Rx,0,8,D9,FF,FF,FF,C0,00,57,22,
15040355,00000100,false,Rx,0,8,88,00,00,00,C0,00,4E,93,
15040355,00000120,false,Rx,0,8,93,13,00,00,C0,00,C8,BB,
15041509,00000110,false,Rx,0,8,99,11,00,00,E0,00,A8,11,
15041509,00000130,false,Rx,0,8,D9,FF,FF,FF,D0,00,5A,E2,
15042508,00000100,false,Rx,0,8,71,00,00,00,D0,00,57,3A,
15042509,00000140,false,Rx,0,8,01,00,FF,FF,30,00,15,EE,
15042509,00000120,false,Rx,0,8,93,13,00,00,D0,00,C5,7B,
15043504,00000110,false,Rx,0,8,99,11,00,00,F0,00,A5,D1,
15043505,00000130,false,Rx,0,8,D9,FF,FF,FF,E0,00,4E,E2,
15044482,00000100,false,Rx,0,8,71,00,00,00,E0,00,43,3A,
15044483,00000120,false,Rx,0,8,77,13,00,00,E0,00,C6,9F,
15045496,00000110,false,Rx,0,8,99,11,00,00,00,00,E1,D1,
15045497,00000130,false,Rx,0,8,F8,FF,FF,FF,F0,00,45,93,
15046475,00000100,false,Rx,0,8,71,00,00,00,F0,00,4E,FA,
15046476,00000120,false,Rx,0,8,77,13,00,00,F0,00,CB,5F,
15046476,00000110,false,Rx,0,8,B0,11,00,00,10,00,EB,E8,
15047731,00000050,false,Rx,0,6,41,5C,FF,FB,5F,FF,00,00,
15047732,00000130,false,Rx,0,8,EB,95,FF,FF,03,80,1A,69,
15047732,00000100,false,Rx,0,8,5A,00,00,00,00,00,0C,E1,
15049380,00000120,false,Rx,0,8,77,13,00,00,00,00,8F,5F,
15049381,00000110,false,Rx,0,8,B0,11,00,00,20,00,FF,E8,
15050351,00000130,false,Rx,0,8,76,00,00,00,10,00,06,8D,
15050352,00000100,false,Rx,0,8,5A,00,00,00,10,00,01,21,
15051512,00000120,false,Rx,0,8,77,13,00,00,10,00,82,9F,
15051513,00000110,false,Rx,0,8,99,11,00,00,30,00,F5,D1,
15052483,00000130,false,Rx,0,8,D9,FF,FF,FF,20,00,1E,E2,
15052484,00000100,false,Rx,0,8,71,00,00,00,20,00,13,3A,
15053482,00000120,false,Rx,0,8,77,13,00,00,20,00,96,9F,
15053483,00000110,false,Rx,0,8,99,11,00,00,40,00,D0,11,
15054479,00000130,false,Rx,0,8,D9,FF,FF,FF,30,00,13,22,
15054479,00000100,false,Rx,0,8,71,00,00,00,30,00,1E,FA,
15055608,00000120,false,Rx,0,8,77,13,00,00,30,00,9B,5F,
15055608,00000110,false,Rx,0,8,B0,11,00,00,50,00,DA,28,
15056608,00000130,false,Rx,0,8,F8,FF,FF,FF,40,00,30,53,
15056609,00000100,false,Rx,0,8,71,00,00,00,40,00,3B,3A,
15057610,00000120,false,Rx,0,8,93,13,00,00,40,00,A9,7B,
15057611,00000110,false,Rx,0,8,B0,11,00,00,60,00,CE,28,
15058608,00000130,false,Rx,0,8,D9,FF,FF,FF,50,00,3B,22,
15058609,00000100,false,Rx,0,8,88,00,00,00,50,00,22,93,
15059753,00000120,false,Rx,0,8,93,13,00,00,50,00,A4,BB,
15059753,00000110,false,Rx,0,8,99,11,00,00,70,00,C4,11,
15060754,00000130,false,Rx,0,8,F8,FF,FF,FF,60,00,29,93,
15060755,00000100,false,Rx,0,8,88,00,00,00,60,00,36,93,
15061755,00000120,false,Rx,0,8,77,13,00,00,60,00,A7,5F,
15061755,00000110,false,Rx,0,8,99,11,00,00,80,00,80,11,
15062732,00000130,false,Rx,0,8,18,00,00,00,70,00,26,03,
15062733,00000100,false,Rx,0,8,88,00,00,00,70,00,3B,53,
15062733,00000140,false,Rx,0,8,01,00,FF,FF,40,00,30,2E,
15063880,00000120,false,Rx,0,8,77,13,00,00,70,00,AA,9F,
15063881,00000110,false,Rx,0,8,99,11,00,00,90,00,8D,D1,
15064884,00000130,false,Rx,0,8,F8,FF,FF,FF,80,00,60,53,
15064885,00000100,false,Rx,0,8,71,00,00,00,80,00,6B,3A,
15065877,00000120,false,Rx,0,8,93,13,00,00,80,00,F9,7B,
15065878,00000110,false,Rx,0,8,99,11,00,00,A0,00,99,D1,
15066856,00000130,false,Rx,0,8,F8,FF,FF,FF,90,00,6D,93,
15066856,00000100,false,Rx,0,8,5A,00,00,00,90,00,60,E1,
15066857,00000120,false,Rx,0,8,93,13,00,00,90,00,F4,BB,
15068136,00000110,false,Rx,0,8,99,11,00,00,B0,00,94,11,
15068137,00000050,false,Rx,0,6,41,5C,FF,FB,5F,FF,00,00,
15068137,00000130,false,Rx,0,8,4C,BA,F5,FF,A3,80,AD,60,
15069117,00000100,false,Rx,0,8,5A,00,00,00,A0,00,74,E1,
15069117,00000120,false,Rx,0,8,93,13,00,00,A0,00,E0,BB,
15070255,00000110,false,Rx,0,8,99,11,00,00,C0,00,B1,D1,
15070255,00000130,false,Rx,0,8,76,00,00,00,B0,00,7E,8D,
15071252,00000100,false,Rx,0,8,5A,00,00,00,B0,00,79,21,
15071252,00000120,false,Rx,0,8,93,13,00,00,B0,00,ED,7B,
15072233,00000110,false,Rx,0,8,99,11,00,00,D0,00,BC,11,
15072234,00000170,false,Rx,0,8,00,00,00,53,50,81,05,6A,
15072235,00000130,false,Rx,0,8,B9,FF,FF,FF,C0,00,5E,82,
15073214,00000100,false,Rx,0,8,71,00,00,00,C0,00,5A,FA,
15073215,00000120,false,Rx,0,8,77,13,00,00,C0,00,DF,5F,
15074340,00000110,false,Rx,0,8,99,11,00,00,E0,00,A8,11,
15074341,00000130,false,Rx,0,8,F8,FF,FF,FF,D0,00,5C,53,
15075357,00000100,false,Rx,0,8,88,00,00,00,D0,00,43,53,
15075357,00000120,false,Rx,0,8,77,13,00,00,D0,00,D2,9F,
15076357,00000110,false,Rx,0,8,99,11,00,00,F0,00,A5,D1,
15076358,00000130,false,Rx,0,8,F8,FF,FF,FF,E0,00,48,53,
15077366,00000100,false,Rx,0,8,88,00,00,00,E0,00,57,53,
15077367,00000120,false,Rx,0,8,93,13,00,00,E0,00,D1,7B,
15078380,00000110,false,Rx,0,8,99,11,00,00,00,00,E1,D1,
15078381,00000130,false,Rx,0,8,F8,FF,FF,FF,F0,00,45,93,
15079506,00000100,false,Rx,0,8,71,00,00,00,F0,00,4E,FA,
15079507,00000120,false,Rx,0,8,93,13,00,00,F0,00,DC,BB,
15080480,00000110,false,Rx,0,8,99,11,00,00,10,00,EC,11,
15080482,00000130,false,Rx,0,8,D9,FF,FF,FF,00,00,07,22,
15081490,00000100,false,Rx,0,8,71,00,00,00,00,00,0A,FA,
15081491,00000120,false,Rx,0,8,77,13,00,00,00,00,8F,5F,
15082478,00000110,false,Rx,0,8,99,11,00,00,20,00,F8,11,
15082479,00000130,false,Rx,0,8,D9,FF,FF,FF,10,00,0A,E2,
15083617,00000100,false,Rx,0,8,71,00,00,00,10,00,07,3A,
15083618,00000140,false,Rx,0,8,01,00,FF,FF,50,00,3D,EE,
15083619,00000120,false,Rx,0,8,77,13,00,00,10,00,82,9F,
15084608,00000110,false,Rx,0,8,99,11,00,00,30,00,F5,D1,
15084609,00000130,false,Rx,0,8,F8,FF,FF,FF,20,00,18,53,
15085612,00000100,false,Rx,0,8,5A,00,00,00,20,00,15,21,
15085613,00000120,false,Rx,0,8,77,13,00,00,20,00,96,9F,
15086610,00000110,false,Rx,0,8,99,11,00,00,40,00,D0,11,
15086611,00000130,false,Rx,0,8,37,00,00,00,30,00,10,5C,
15087606,00000100,false,Rx,0,8,43,00,00,00,30,00,1A,E8,
15087607,00000120,false,Rx,0,8,77,13,00,00,30,00,9B,5F,
15087608,00000110,false,Rx,0,8,C7,11,00,00,50,00,D0,AF,
15088878,00000050,false,Rx,0,6,41,5C,FF,FB,5F,FF,00,00,
15088879,00000130,false,Rx,0,8,4D,21,00,00,43,80,83,51,
15088880,00000100,false,Rx,0,8,5A,00,00,00,40,00,3D,21,
15090483,00000120,false,Rx,0,8,93,13,00,00,40,00,A9,7B,
15090484,00000110,false,Rx,0,8,C7,11,00,00,60,00,C4,AF,
15091474,00000130,false,Rx,0,8,99,FF,FF,FF,50,00,35,E2,
15091475,00000100,false,Rx,0,8,71,00,00,00,50,00,36,FA,
15092615,00000120,false,Rx,0,8,93,13,00,00,50,00,A4,BB,
15092616,00000110,false,Rx,0,8,99,11,00,00,70,00,C4,11,
15093611,00000130,false,Rx,0,8,D9,FF,FF,FF,60,00,2F,22,
15093612,00000100,false,Rx,0,8,71,00,00,00,60,00,22,FA,
15094610,00000120,false,Rx,0,8,77,13,00,00,60,00,A7,5F,
15094611,00000110,false,Rx,0,8,99,11,00,00,80,00,80,11,
15095610,00000130,false,Rx,0,8,18,00,00,00,70,00,26,03,
15095611,00000100,false,Rx,0,8,71,00,00,00,70,00,2F,3A,
15096753,00000120,false,Rx,0,8,77,13,00,00,70,00,AA,9F,
15096754,00000110,false,Rx,0,8,99,11,00,00,90,00,8D,D1,
15097752,00000130,false,Rx,0,8,37,00,00,00,80,00,65,9C,
15097753,00000100,false,Rx,0,8,88,00,00,00,80,00,7F,53,
15098754,00000120,false,Rx,0,8,77,13,00,00,80,00,EE,9F,
15098754,00000110,false,Rx,0,8,99,11,00,00,A0,00,99,D1,
15099733,00000130,false,Rx,0,8,F8,FF,FF,FF,90,00,6D,93,
15099734,00000100,false,Rx,0,8,88,00,00,00,90,00,72,93,
15100880,00000120,false,Rx,0,8,77,13,00,00,90,00,E3,5F,
15100881,00000110,false,Rx,0,8,99,11,00,00,B0,00,94,11,
15101885,00000130,false,Rx,0,8,F8,FF,FF,FF,A0,00,79,93,
15101886,00000100,false,Rx,0,8,71,00,00,00,A0,00,72,FA,
15102877,00000120,false,Rx,0,8,77,13,00,00,A0,00,F7,5F,
15102878,00000110,false,Rx,0,8,99,11,00,00,C0,00,B1,D1,
15103859,00000130,false,Rx,0,8,F8,FF,FF,FF,B0,00,74,53,
15103860,00000100,false,Rx,0,8,71,00,00,00,B0,00,7F,3A,
15103860,00000140,false,Rx,0,8,01,00,FF,FF,60,00,29,EE,
15105004,00000120,false,Rx,0,8,77,13,00,00,B0,00,FA,9F,
15105005,00000110,false,Rx,0,8,99,11,00,00,D0,00,BC,11,
15106005,00000130,false,Rx,0,8,F8,FF,FF,FF,C0,00,51,93,
15106005,00000100,false,Rx,0,8,5A,00,00,00,C0,00,5C,E1,
15107004,00000120,false,Rx,0,8,93,13,00,00,C0,00,C8,BB,
15107005,00000110,false,Rx,0,8,99,11,00,00,E0,00,A8,11,
15107983,00000130,false,Rx,0,8,18,00,00,00,D0,00,5E,03,
15107984,00000100,false,Rx,0,8,5A,00,00,00,D0,00,51,21,
15107985,00000120,false,Rx,0,8,93,13,00,00,D0,00,C5,7B,
15109256,00000110,false,Rx,0,8,C7,11,00,00,F0,00,A8,AF,
15109257,00000050,false,Rx,0,6,41,5C,FF,FB,5F,FF,00,00,
15109257,00000130,false,Rx,0,8,B8,34,03,00,E3,80,E2,73,
15110233,00000100,false,Rx,0,8,5A,00,00,00,E0,00,45,21,
15110234,00000120,false,Rx,0,8,77,13,00,00,E0,00,C6,9F,
15111225,00000110,false,Rx,0,8,C7,11,00,00,00,00,EC,AF,
15111225,00000130,false,Rx,0,8,F8,FF,FF,FF,F0,00,45,93,
15112359,00000100,false,Rx,0,8,71,00,00,00,F0,00,4E,FA,
15112360,00000120,false,Rx,0,8,77,13,00,00,F0,00,CB,5F,
15113358,00000110,false,Rx,0,8,99,11,00,00,10,00,EC,11,
15113359,00000130,false,Rx,0,8,D9,FF,FF,FF,00,00,07,22,
15114373,00000100,false,Rx,0,8,5A,00,00,00,00,00,0C,E1,
15114373,00000120,false,Rx,0,8,77,13,00,00,00,00,8F,5F,
15115505,00000110,false,Rx,0,8,99,11,00,00,20,00,F8,11,
15115506,00000130,false,Rx,0,8,D9,FF,FF,FF,10,00,0A,E2,
15116503,00000100,false,Rx,0,8,71,00,00,00,10,00,07,3A,
15116504,00000120,false,Rx,0,8,77,13,00,00,10,00,82,9F,
15117491,00000110,false,Rx,0,8,99,11,00,00,30,00,F5,D1,
15117492,00000130,false,Rx,0,8,37,00,00,00,20,00,1D,9C,
15118485,00000100,false,Rx,0,8,88,00,00,00,20,00,07,53,
15118486,00000120,false,Rx,0,8,77,13,00,00,20,00,96,9F,
15119475,00000110,false,Rx,0,8,99,11,00,00,40,00,D0,11,
15119476,00000130,false,Rx,0,8,18,00,00,00,30,00,17,C3,
15120610,00000100,false,Rx,0,8,88,00,00,00,30,00,0A,93,
15120611,00000120,false,Rx,0,8,77,13,00,00,30,00,9B,5F,
15121611,00000110,false,Rx,0,8,B0,11,00,00,50,00,DA,28,
15121612,00000130,false,Rx,0,8,F8,FF,FF,FF,40,00,30,53,
15122607,00000100,false,Rx,0,8,71,00,00,00,40,00,3B,3A,
15122608,00000120,false,Rx,0,8,93,13,00,00,40,00,A9,7B,
15123604,00000110,false,Rx,0,8,B0,11,00,00,60,00,CE,28,
15123604,00000130,false,Rx,0,8,18,00,00,00,50,00,3F,C3,
15124726,00000100,false,Rx,0,8,71,00,00,00,50,00,36,FA,
15124727,00000140,false,Rx,0,8,01,00,FF,FF,70,00,24,2E,
15124728,00000120,false,Rx,0,8,93,13,00,00,50,00,A4,BB,
15125755,00000110,false,Rx,0,8,99,11,00,00,70,00,C4,11,
15125756,00000130,false,Rx,0,8,F8,FF,FF,FF,60,00,29,93,
15126730,00000100,false,Rx,0,8,5A,00,00,00,60,00,24,E1,
15126731,00000120,false,Rx,0,8,77,13,00,00,60,00,A7,5F,
15127738,00000110,false,Rx,0,8,99,11,00,00,80,00,80,11,
15127739,00000130,false,Rx,0,8,18,00,00,00,70,00,26,03,
15128851,00000100,false,Rx,0,8,5A,00,00,00,70,00,29,21,
15128852,00000120,false,Rx,0,8,77,13,00,00,70,00,AA,9F,
15128852,00000110,false,Rx,0,8,B0,11,00,00,90,00,8A,28,
15130002,00000050,false,Rx,0,6,41,5C,FF,FB,5F,FF,00,00,
15130003,00000130,false,Rx,0,8,EB,95,FF,FF,83,80,7B,A9,
15130004,00000100,false,Rx,0,8,5A,00,00,00,80,00,6D,21,
15131587,00000120,false,Rx,0,8,77,13,00,00,80,00,EE,9F,
15131588,00000110,false,Rx,0,8,B0,11,00,00,A0,00,9E,28,
15132587,00000130,false,Rx,0,8,76,00,00,00,90,00,67,4D,
15132588,00000100,false,Rx,0,8,5A,00,00,00,90,00,60,E1,
15133754,00000120,false,Rx,0,8,77,13,00,00,90,00,E3,5F,
15133755,00000110,false,Rx,0,8,99,11,00,00,B0,00,94,11,
15134731,00000130,false,Rx,0,8,D9,FF,FF,FF,A0,00,7F,22,
15134732,00000100,false,Rx,0,8,5A,00,00,00,A0,00,74,E1,
15135711,00000120,false,Rx,0,8,77,13,00,00,A0,00,F7,5F,
15135712,00000110,false,Rx,0,8,99,11,00,00,C0,00,B1,D1,
15136712,00000130,false,Rx,0,8,F8,FF,FF,FF,B0,00,74,53,
15136712,00000100,false,Rx,0,8,71,00,00,00,B0,00,7F,3A,
15137856,00000120,false,Rx,0,8,77,13,00,00,B0,00,FA,9F,
15137857,00000110,false,Rx,0,8,99,11,00,00,D0,00,BC,11,
15138880,00000130,false,Rx,0,8,18,00,00,00,C0,00,53,C3,
15138881,00000100,false,Rx,0,8,71,00,00,00,C0,00,5A,FA,
15139858,00000120,false,Rx,0,8,93,13,00,00,C0,00,C8,BB,
15139859,00000110,false,Rx,0,8,99,11,00,00,E0,00,A8,11,
15140854,00000130,false,Rx,0,8,18,00,00,00,D0,00,5E,03,
15140855,00000100,false,Rx,0,8,71,00,00,00,D0,00,57,3A,
15141851,00000120,false,Rx,0,8,93,13,00,00,D0,00,C5,7B,
15141852,00000110,false,Rx,0,8,99,11,00,00,F0,00,A5,D1,
15143003,00000130,false,Rx,0,8,18,00,00,00,E0,00,4A,03,
15143004,00000100,false,Rx,0,8,71,00,00,00,E0,00,43,3A,
15144009,00000120,false,Rx,0,8,93,13,00,00,E0,00,D1,7B,
15144009,00000110,false,Rx,0,8,99,11,00,00,00,00,E1,D1,
15144981,00000130,false,Rx,0,8,F8,FF,FF,FF,F0,00,45,93,
15144982,00000100,false,Rx,0,8,5A,00,00,00,F0,00,48,E1,
15144983,00000140,false,Rx,0,8,01,00,FF,FF,80,00,60,2E,
15146001,00000120,false,Rx,0,8,93,13,00,00,F0,00,DC,BB,
15146002,00000110,false,Rx,0,8,99,11,00,00,10,00,EC,11,
15147125,00000130,false,Rx,0,8,B9,FF,FF,FF,00,00,0E,82,
15147126,00000100,false,Rx,0,8,5A,00,00,00,00,00,0C,E1,
15147127,00000120,false,Rx,0,8,77,13,00,00,00,00,8F,5F,
15148379,00000110,false,Rx,0,8,99,11,00,00,20,00,F8,11,
15148380,00000130,false,Rx,0,8,F8,FF,FF,FF,10,00,0C,53,
15149355,00000100,false,Rx,0,8,43,00,00,00,10,00,03,28,
15149356,00000120,false,Rx,0,8,77,13,00,00,10,00,82,9F,
15149357,00000110,false,Rx,0,8,99,11,00,00,30,00,F5,D1,
15150474,00000050,false,Rx,0,6,41,5C,FF,FB,5F,FF,00,00,
15150475,00000130,false,Rx,0,8,6B,BA,F5,FF,23,80,CA,77,
15150476,00000100,false,Rx,0,8,5A,00,00,00,20,00,15,21,
15152103,00000120,false,Rx,0,8,77,13,00,00,20,00,96,9F,
15152104,00000110,false,Rx,0,8,99,11,00,00,40,00,D0,11,
15152104,00000210,false,Rx,0,8,75,69,00,05,06,5F,01,03,
15153225,00000130,false,Rx,0,8,B5,00,00,00,30,00,0E,7E,
15153226,00000100,false,Rx,0,8,71,00,00,00,30,00,1E,FA,
15154225,00000120,false,Rx,0,8,77,13,00,00,30,00,9B,5F,
15154226,00000110,false,Rx,0,8,B0,11,00,00,50,00,DA,28,
15155225,00000130,false,Rx,0,8,D9,FF,FF,FF,40,00,36,E2,
15155226,00000100,false,Rx,0,8,88,00,00,00,40,00,2F,53,
15156349,00000120,false,Rx,0,8,77,13,00,00,40,00,BE,9F,
15156350,00000110,false,Rx,0,8,B0,11,00,00,60,00,CE,28,
15157350,00000130,false,Rx,0,8,D9,FF,FF,FF,50,00,3B,22,
15157351,00000100,false,Rx,0,8,88,00,00,00,50,00,22,93,
15158350,00000120,false,Rx,0,8,77,13,00,00,50,00,B3,5F,
15158351,00000110,false,Rx,0,8,B0,11,00,00,70,00,C3,E8,
15159349,00000130,false,Rx,0,8,F8,FF,FF,FF,60,00,29,93,
15159349,00000100,false,Rx,0,8,88,00,00,00,60,00,36,93,
15160473,00000120,false,Rx,0,8,77,13,00,00,60,00,A7,5F,
15160474,00000110,false,Rx,0,8,B0,11,00,00,80,00,87,E8,
15161474,00000130,false,Rx,0,8,F8,FF,FF,FF,70,00,24,53,
15161474,00000100,false,Rx,0,8,88,00,00,00,70,00,3B,53,
15162476,00000120,false,Rx,0,8,77,13,00,00,70,00,AA,9F,
15162477,00000110,false,Rx,0,8,82,11,00,00,90,00,8E,3A,
15163473,00000130,false,Rx,0,8,D9,FF,FF,FF,80,00,66,E2,
15163474,00000100,false,Rx,0,8,5A,00,00,00,80,00,6D,21,
15164474,00000120,false,Rx,0,8,77,13,00,00,80,00,EE,9F,
15164475,00000110,false,Rx,0,8,82,11,00,00,A0,00,9A,3A,
15165474,00000130,false,Rx,0,8,D9,FF,FF,FF,90,00,6B,22,
15165475,00000100,false,Rx,0,8,5A,00,00,00,90,00,60,E1,
15165476,00000140,false,Rx,0,8,01,00,FF,FF,90,00,6D,EE,
15166587,00000120,false,Rx,0,8,77,13,00,00,90,00,E3,5F,
15166588,00000110,false,Rx,0,8,99,11,00,00,B0,00,94,11,
15167587,00000130,false,Rx,0,8,D9,FF,FF,FF,A0,00,7F,22,
15167588,00000100,false,Rx,0,8,5A,00,00,00,A0,00,74,E1,
15168587,00000120,false,Rx,0,8,77,13,00,00,A0,00,F7,5F,
15168588,00000110,false,Rx,0,8,99,11,00,00,C0,00,B1,D1,
15169604,00000130,false,Rx,0,8,37,00,00,00,B0,00,71,9C,
15169605,00000100,false,Rx,0,8,5A,00,00,00,B0,00,79,21,
15169606,00000120,false,Rx,0,8,77,13,00,00,B0,00,FA,9F,
15170849,00000110,false,Rx,0,8,C7,11,00,00,D0,00,B1,6F,
15170850,00000050,false,Rx,0,6,41,5C,FF,FB,5F,FF,00,00,
15170851,00000130,false,Rx,0,8,4D,21,00,00,C3,80,E2,91,
15171974,00000100,false,Rx,0,8,5A,00,00,00,C0,00,5C,E1,
15171975,00000120,false,Rx,0,8,93,13,00,00,C0,00,C8,BB,
15172972,00000110,false,Rx,0,8,C7,11,00,00,E0,00,A5,6F,
15172972,00000130,false,Rx,0,8,18,00,00,00,D0,00,5E,03,
15173969,00000100,false,Rx,0,8,71,00,00,00,D0,00,57,3A,
15173970,00000120,false,Rx,0,8,93,13,00,00,D0,00,C5,7B,
15174975,00000110,false,Rx,0,8,99,11,00,00,F0,00,A5,D1,
15174975,00000170,false,Rx,0,8,00,00,00,54,50,81,05,9E,
15174976,00000130,false,Rx,0,8,D9,FF,FF,FF,E0,00,4E,E2,
15176099,00000100,false,Rx,0,8,88,00,00,00,E0,00,57,53,
15176100,00000120,false,Rx,0,8,77,13,00,00,E0,00,C6,9F,
15177099,00000110,false,Rx,0,8,99,11,00,00,00,00,E1,D1,
15177100,00000130,false,Rx,0,8,F8,FF,FF,FF,F0,00,45,93,
15178098,00000100,false,Rx,0,8,71,00,00,00,F0,00,4E,FA,
15178099,00000120,false,Rx,0,8,77,13,00,00,F0,00,CB,5F,
15179225,00000110,false,Rx,0,8,B0,11,00,00,10,00,EB,E8,
15179226,00000130,false,Rx,0,8,D9,FF,FF,FF,00,00,07,22,
15180223,00000100,false,Rx,0,8,88,00,00,00,00,00,1E,93,
15180224,00000120,false,Rx,0,8,77,13,00,00,00,00,8F,5F,
15181224,00000110,false,Rx,0,8,B0,11,00,00,20,00,FF,E8,
15181225,00000130,false,Rx,0,8,18,00,00,00,10,00,0E,03,
15182222,00000100,false,Rx,0,8,71,00,00,00,10,00,07,3A,
15182223,00000120,false,Rx,0,8,77,13,00,00,10,00,82,9F,
15183223,00000110,false,Rx,0,8,99,11,00,00,30,00,F5,D1,
15183224,00000130,false,Rx,0,8,F8,FF,FF,FF,20,00,18,53,
15184347,00000100,false,Rx,0,8,71,00,00,00,20,00,13,3A,
15184347,00000120,false,Rx,0,8,77,13,00,00,20,00,96,9F,
15185348,00000110,false,Rx,0,8,99,11,00,00,40,00,D0,11,
15185349,00000130,false,Rx,0,8,D9,FF,FF,FF,30,00,13,22,
15186349,00000100,false,Rx,0,8,5A,00,00,00,30,00,18,E1,
15186350,00000140,false,Rx,0,8,01,00,FF,FF,A0,00,79,EE,
15186350,00000120,false,Rx,0,8,77,13,00,00,30,00,9B,5F,
15187347,00000110,false,Rx,0,8,B0,11,00,00,50,00,DA,28,
15187347,00000130,false,Rx,0,8,F8,FF,FF,FF,40,00,30,53,
15188349,00000100,false,Rx,0,8,5A,00,00,00,40,00,3D,21,
15188349,00000120,false,Rx,0,8,93,13,00,00,40,00,A9,7B,
15189474,00000110,false,Rx,0,8,B0,11,00,00,60,00,CE,28,
15189475,00000130,false,Rx,0,8,D9,FF,FF,FF,50,00,3B,22,
15190474,00000100,false,Rx,0,8,5A,00,00,00,50,00,30,E1,
15190475,00000120,false,Rx,0,8,93,13,00,00,50,00,A4,BB,
15190476,00000110,false,Rx,0,8,C7,11,00,00,70,00,C9,6F,
15191601,00000050,false,Rx,0,6,41,5C,FF,FB,5F,FF,00,00,
15191602,00000130,false,Rx,0,8,B8,34,03,00,63,80,83,B3,
15191602,00000100,false,Rx,0,8,5A,00,00,00,60,00,24,E1,
15193223,00000120,false,Rx,0,8,77,13,00,00,60,00,A7,5F,
15193224,00000110,false,Rx,0,8,C7,11,00,00,80,00,8D,6F,
15194350,00000130,false,Rx,0,8,18,00,00,00,70,00,26,03,
15194351,00000100,false,Rx,0,8,71,00,00,00,70,00,2F,3A,
15195337,00000120,false,Rx,0,8,77,13,00,00,70,00,AA,9F,
15195339,00000110,false,Rx,0,8,99,11,00,00,90,00,8D,D1,
15196339,00000130,false,Rx,0,8,F8,FF,FF,FF,80,00,60,53,
15196340,00000100,false,Rx,0,8,88,00,00,00,80,00,7F,53,
15197340,00000120,false,Rx,0,8,77,13,00,00,80,00,EE,9F,
15197340,00000110,false,Rx,0,8,99,11,00,00,A0,00,99,D1,
15198465,00000130,false,Rx,0,8,D9,FF,FF,FF,90,00,6B,22,
15198466,00000100,false,Rx,0,8,88,00,00,00,90,00,72,93,
15199464,00000120,false,Rx,0,8,77,13,00,00,90,00,E3,5F,
15199465,00000110,false,Rx,0,8,99,11,00,00,B0,00,94,11,
15200482,00000130,false,Rx,0,8,F8,FF,FF,FF,A0,00,79,93,
15200483,00000100,false,Rx,0,8,88,00,00,00,A0,00,66,93,
15201473,00000120,false,Rx,0,8,77,13,00,00,A0,00,F7,5F,
15201474,00000110,false,Rx,0,8,99,11,00,00,C0,00,B1,D1,
15202606,00000130,false,Rx,0,8,F8,FF,FF,FF,B0,00,74,53,
15202607,00000100,false,Rx,0,8,71,00,00,00,B0,00,7F,3A,
15203610,00000120,false,Rx,0,8,77,13,00,00,B0,00,FA,9F,
15203611,00000110,false,Rx,0,8,99,11,00,00,D0,00,BC,11,
15204627,00000130,false,Rx,0,8,F8,FF,FF,FF,C0,00,51,93,
15204627,00000100,false,Rx,0,8,71,00,00,00,C0,00,5A,FA,
15205607,00000120,false,Rx,0,8,93,13,00,00,C0,00,C8,BB,
15205608,00000110,false,Rx,0,8,99,11,00,00,E0,00,A8,11,
15206726,00000130,false,Rx,0,8,F8,FF,FF,FF,D0,00,5C,53,
15206726,00000100,false,Rx,0,8,5A,00,00,00,D0,00,51,21,
15206726,00000140,false,Rx,0,8,01,00,FF,FF,B0,00,74,2E,
15207724,00000120,false,Rx,0,8,93,13,00,00,D0,00,C5,7B,
15207724,00000110,false,Rx,0,8,B0,11,00,00,F0,00,A2,28,
15208722,00000130,false,Rx,0,8,F8,FF,FF,FF,E0,00,48,53,
15208723,00000100,false,Rx,0,8,5A,00,00,00,E0,00,45,21,
15209723,00000120,false,Rx,0,8,93,13,00,00,E0,00,D1,7B,
15209723,00000110,false,Rx,0,8,B0,11,00,00,00,00,E6,28,
15210847,00000130,false,Rx,0,8,18,00,00,00,F0,00,47,C3,
15210847,00000100,false,Rx,0,8,5A,00,00,00,F0,00,48,E1,
15210848,00000120,false,Rx,0,8,93,13,00,00,F0,00,DC,BB,
15211973,00000110,false,Rx,0,8,99,11,00,00,10,00,EC,11,
15211973,00000050,false,Rx,0,6,41,5C,FF,FB,5F,FF,00,00,
15211974,00000130,false,Rx,0,8,EB,95,FF,FF,03,80,1A,69,
15213099,00000100,false,Rx,0,8,71,00,00,00,00,00,0A,FA,
15213099,00000120,false,Rx,0,8,77,13,00,00,00,00,8F,5F,
15214097,00000110,false,Rx,0,8,99,11,00,00,20,00,F8,11,
15214098,00000130,false,Rx,0,8,76,00,00,00,10,00,06,8D,
15215098,00000100,false,Rx,0,8,71,00,00,00,10,00,07,3A,
15215098,00000120,false,Rx,0,8,77,13,00,00,10,00,82,9F,
15216100,00000110,false,Rx,0,8,B0,11,00,00,30,00,F2,28,
15216100,00000130,false,Rx,0,8,D9,FF,FF,FF,20,00,1E,E2,
15217224,00000100,false,Rx,0,8,88,00,00,00,20,00,07,53,
15217225,00000120,false,Rx,0,8,77,13,00,00,20,00,96,9F,
15218225,00000110,false,Rx,0,8,B0,11,00,00,40,00,D7,E8,
15218225,00000130,false,Rx,0,8,18,00,00,00,30,00,17,C3,
15219225,00000100,false,Rx,0,8,88,00,00,00,30,00,0A,93,
15219225,00000120,false,Rx,0,8,77,13,00,00,30,00,9B,5F,
15220212,00000110,false,Rx,0,8,B0,11,00,00,50,00,DA,28,
15220212,00000130,false,Rx,0,8,18,00,00,00,40,00,32,03,
15221342,00000100,false,Rx,0,8,88,00,00,00,40,00,2F,53,
15221344,00000120,false,Rx,0,8,93,13,00,00,40,00,A9,7B,
15222336,00000110,false,Rx,0,8,B0,11,00,00,60,00,CE,28,
15222337,00000130,false,Rx,0,8,F8,FF,FF,FF,50,00,3D,93,
15223338,00000100,false,Rx,0,8,71,00,00,00,50,00,36,FA,
15223339,00000120,false,Rx,0,8,93,13,00,00,50,00,A4,BB,
15224338,00000110,false,Rx,0,8,99,11,00,00,70,00,C4,11,
15224339,00000130,false,Rx,0,8,F8,FF,FF,FF,60,00,29,93,
15225465,00000100,false,Rx,0,8,71,00,00,00,60,00,22,FA,
15225467,00000120,false,Rx,0,8,5A,13,00,00,60,00,A1,22,
15226463,00000110,false,Rx,0,8,99,11,00,00,80,00,80,11,
15226465,00000130,false,Rx,0,8,F8,FF,FF,FF,70,00,24,53,
15227473,00000100,false,Rx,0,8,5A,00,00,00,70,00,29,21,
15227474,00000140,false,Rx,0,8,01,00,FF,FF,C0,00,51,EE,
15227475,00000120,false,Rx,0,8,5A,13,00,00,70,00,AC,E2,
15228472,00000110,false,Rx,0,8,99,11,00,00,90,00,8D,D1,
15228474,00000130,false,Rx,0,8,F8,FF,FF,FF,80,00,60,53,
15229474,00000100,false,Rx,0,8,5A,00,00,00,80,00,6D,21,
15229475,00000120,false,Rx,0,8,77,13,00,00,80,00,EE,9F,
15230610,00000110,false,Rx,0,8,99,11,00,00,A0,00,99,D1,
15230611,00000130,false,Rx,0,8,18,00,00,00,90,00,6F,C3,
15231609,00000100,false,Rx,0,8,71,00,00,00,90,00,66,FA,
15231610,00000120,false,Rx,0,8,77,13,00,00,90,00,E3,5F,
15231611,00000110,false,Rx,0,8,99,11,00,00,B0,00,94,11,
15232724,00000050,false,Rx,0,6,41,5C,FF,FB,5F,FF,00,00,
15232725,00000130,false,Rx,0,8,2C,BA,F5,FF,A3,80,A4,C0,
15232726,00000100,false,Rx,0,8,71,00,00,00,A0,00,72,FA,
15234350,00000120,false,Rx,0,8,93,13,00,00,A0,00,E0,BB,
15234351,00000110,false,Rx,0,8,99,11,00,00,C0,00,B1,D1,
15235474,00000130,false,Rx,0,8,95,00,00,00,B0,00,68,DE,
15235475,00000100,false,Rx,0,8,71,00,00,00,B0,00,7F,3A,
15236474,00000120,false,Rx,0,8,93,13,00,00,B0,00,ED,7B,
15236475,00000110,false,Rx,0,8,99,11,00,00,D0,00,BC,11,
15237474,00000130,false,Rx,0,8,D9,FF,FF,FF,C0,00,57,22,
15237475,00000100,false,Rx,0,8,71,00,00,00,C0,00,5A,FA,
15238475,00000120,false,Rx,0,8,93,13,00,00,C0,00,C8,BB,
15238476,00000110,false,Rx,0,8,99,11,00,00,E0,00,A8,11,
15239605,00000130,false,Rx,0,8,F8,FF,FF,FF,D0,00,5C,53,
15239606,00000100,false,Rx,0,8,88,00,00,00,D0,00,43,53,
15240676,00000120,false,Rx,0,8,93,13,00,00,D0,00,C5,7B,
15240677,00000110,false,Rx,0,8,B0,11,00,00,F0,00,A2,28,
15241609,00000130,false,Rx,0,8,18,00,00,00,E0,00,4A,03,
15241609,00000100,false,Rx,0,8,71,00,00,00,E0,00,43,3A,
15242630,00000120,false,Rx,0,8,77,13,00,00,E0,00,C6,9F,
15242632,00000110,false,Rx,0,8,B0,11,00,00,00,00,E6,28,
15243745,00000130,false,Rx,0,8,37,00,00,00,F0,00,40,5C,
15243747,00000100,false,Rx,0,8,71,00,00,00,F0,00,4E,FA,
15244749,00000120,false,Rx,0,8,77,13,00,00,F0,00,CB,5F,
15244750,00000110,false,Rx,0,8,B0,11,00,00,10,00,EB,E8,
15245747,00000130,false,Rx,0,8,F8,FF,FF,FF,00,00,01,93,
15245748,00000100,false,Rx,0,8,71,00,00,00,00,00,0A,FA,
15246746,00000120,false,Rx,0,8,77,13,00,00,00,00,8F,5F,
15246748,00000110,false,Rx,0,8,B0,11,00,00,20,00,FF,E8,
15247883,00000130,false,Rx,0,8,F8,FF,FF,FF,10,00,0C,53,
15247884,00000100,false,Rx,0,8,71,00,00,00,10,00,07,3A,
15247884,00000140,false,Rx,0,8,01,00,FF,FF,D0,00,5C,2E,
15248877,00000120,false,Rx,0,8,77,13,00,00,10,00,82,9F,
15248878,00000110,false,Rx,0,8,99,11,00,00,30,00,F5,D1,
15249857,00000130,false,Rx,0,8,D9,FF,FF,FF,20,00,1E,E2,
15249858,00000100,false,Rx,0,8,5A,00,00,00,20,00,15,21,
15250859,00000120,false,Rx,0,8,93,13,00,00,20,00,81,7B,
15250860,00000110,false,Rx,0,8,99,11,00,00,40,00,D0,11,
15251846,00000130,false,Rx,0,8,18,00,00,00,30,00,17,C3,
15251847,00000100,false,Rx,0,8,5A,00,00,00,30,00,18,E1,
15251848,00000120,false,Rx,0,8,93,13,00,00,30,00,8C,BB,
15253085,00000110,false,Rx,0,8,C7,11,00,00,50,00,D0,AF,
15253085,00000050,false,Rx,0,6,41,5C,FF,FB,5F,FF,00,00,
15253087,00000130,false,Rx,0,8,4D,21,00,00,43,80,83,51,
15254242,00000100,false,Rx,0,8,71,00,00,00,40,00,3B,3A,
15254243,00000120,false,Rx,0,8,93,13,00,00,40,00,A9,7B,
15255232,00000110,false,Rx,0,8,C7,11,00,00,60,00,C4,AF,
15255233,00000130,false,Rx,0,8,D9,FF,FF,FF,50,00,3B,22,
15256226,00000100,false,Rx,0,8,71,00,00,00,50,00,36,FA,
15256226,00000120,false,Rx,0,8,93,13,00,00,50,00,A4,BB,
15257232,00000110,false,Rx,0,8,99,11,00,00,70,00,C4,11,
15257233,00000130,false,Rx,0,8,D9,FF,FF,FF,60,00,2F,22,
15258379,00000100,false,Rx,0,8,71,00,00,00,60,00,22,FA,
15258380,00000120,false,Rx,0,8,93,13,00,00,60,00,B0,BB,
15259372,00000110,false,Rx,0,8,99,11,00,00,80,00,80,11,
15259373,00000130,false,Rx,0,8,D9,FF,FF,FF,70,00,22,E2,
15260354,00000100,false,Rx,0,8,88,00,00,00,70,00,3B,53,
15260355,00000120,false,Rx,0,8,93,13,00,00,70,00,BD,7B,
15261366,00000110,false,Rx,0,8,99,11,00,00,90,00,8D,D1,
15261367,00000130,false,Rx,0,8,18,00,00,00,80,00,62,03,
15262502,00000100,false,Rx,0,8,71,00,00,00,80,00,6B,3A,
15262503,00000120,false,Rx,0,8,93,13,00,00,80,00,F9,7B,
15263481,00000110,false,Rx,0,8,99,11,00,00,A0,00,99,D1,
15263482,00000130,false,Rx,0,8,F8,FF,FF,FF,90,00,6D,93,
15264480,00000100,false,Rx,0,8,71,00,00,00,90,00,66,FA,
15264481,00000120,false,Rx,0,8,93,13,00,00,90,00,F4,BB,
15265497,00000110,false,Rx,0,8,82,11,00,00,B0,00,97,FA,
15265498,00000130,false,Rx,0,8,F8,FF,FF,FF,A0,00,79,93,
15266609,00000100,false,Rx,0,8,71,00,00,00,A0,00,72,FA,
15266610,00000120,false,Rx,0,8,93,13,00,00,A0,00,E0,BB,
15267614,00000110,false,Rx,0,8,82,11,00,00,C0,00,B2,3A,
15267615,00000130,false,Rx,0,8,F8,FF,FF,FF,B0,00,74,53,
15268607,00000100,false,Rx,0,8,5A,00,00,00,B0,00,79,21,
15268608,00000140,false,Rx,0,8,01,00,FF,FF,E0,00,48,2E,
15268609,00000120,false,Rx,0,8,93,13,00,00,B0,00,ED,7B,
15269607,00000110,false,Rx,0,8,99,11,00,00,D0,00,BC,11,
15269608,00000130,false,Rx,0,8,18,00,00,00,C0,00,53,C3,
15270585,00000100,false,Rx,0,8,5A,00,00,00,C0,00,5C,E1,
15270586,00000120,false,Rx,0,8,77,13,00,00,C0,00,DF,5F,
15271749,00000110,false,Rx,0,8,99,11,00,00,E0,00,A8,11,
15271750,00000130,false,Rx,0,8,37,00,00,00,D0,00,59,9C,
15272729,00000100,false,Rx,0,8,71,00,00,00,D0,00,57,3A,
15272729,00000120,false,Rx,0,8,77,13,00,00,D0,00,D2,9F,
15272730,00000110,false,Rx,0,8,C7,11,00,00,F0,00,A8,AF,
15273855,00000050,false,Rx,0,6,41,5C,FF,FB,5F,FF,00,00,
15273856,00000130,false,Rx,0,8,B8,34,03,00,E3,80,E2,73,
15273856,00000100,false,Rx,0,8,71,00,00,00,E0,00,43,3A,
15275481,00000120,false,Rx,0,8,77,13,00,00,E0,00,C6,9F,
15275482,00000110,false,Rx,0,8,C7,11,00,00,00,00,EC,AF,
15276608,00000130,false,Rx,0,8,B9,FF,FF,FF,F0,00,4A,82,
15276609,00000100,false,Rx,0,8,71,00,00,00,F0,00,4E,FA,
15277598,00000120,false,Rx,0,8,77,13,00,00,F0,00,CB,5F,
15277599,00000110,false,Rx,0,8,99,11,00,00,10,00,EC,11,
15277599,00000170,false,Rx,0,8,00,00,00,55,50,81,05,03,
15278619,00000130,false,Rx,0,8,B9,FF,FF,FF,00,00,0E,82,
15278620,00000100,false,Rx,0,8,88,00,00,00,00,00,1E,93,
15279757,00000120,false,Rx,0,8,77,13,00,00,00,00,8F,5F,
15279757,00000110,false,Rx,0,8,99,11,00,00,20,00,F8,11,
15280750,00000130,false,Rx,0,8,F8,FF,FF,FF,10,00,0C,53,
15280751,00000100,false,Rx,0,8,71,00,00,00,10,00,07,3A,
15281752,00000120,false,Rx,0,8,77,13,00,00,10,00,82,9F,
15281752,00000110,false,Rx,0,8,B0,11,00,00,30,00,F2,28,
15282753,00000130,false,Rx,0,8,D9,FF,FF,FF,20,00,1E,E2,
15282754,00000100,false,Rx,0,8,71,00,00,00,20,00,13,3A,
15283731,00000120,false,Rx,0,8,77,13,00,00,20,00,96,9F,
15283732,00000110,false,Rx,0,8,B0,11,00,00,40,00,D7,E8,
15284881,00000130,false,Rx,0,8,18,00,00,00,30,00,17,C3,
15284882,00000100,false,Rx,0,8,71,00,00,00,30,00,1E,FA,
15285856,00000120,false,Rx,0,8,77,13,00,00,30,00,9B,5F,
15285857,00000110,false,Rx,0,8,99,11,00,00,50,00,DD,D1,
15286848,00000130,false,Rx,0,8,18,00,00,00,40,00,32,03,
15286849,00000100,false,Rx,0,8,5A,00,00,00,40,00,3D,21,
15287862,00000120,false,Rx,0,8,77,13,00,00,40,00,BE,9F,
15287864,00000110,false,Rx,0,8,99,11,00,00,60,00,C9,D1,
15288995,00000130,false,Rx,0,8,18,00,00,00,50,00,3F,C3,
15288997,00000100,false,Rx,0,8,5A,00,00,00,50,00,30,E1,
15288997,00000140,false,Rx,0,8,01,00,FF,FF,F0,00,45,EE,
15290021,00000120,false,Rx,0,8,77,13,00,00,50,00,B3,5F,
15290022,00000110,false,Rx,0,8,99,11,00,00,70,00,C4,11,
15291025,00000130,false,Rx,0,8,18,00,00,00,60,00,2B,C3,
15291027,00000100,false,Rx,0,8,71,00,00,00,60,00,22,FA,
15291993,00000120,false,Rx,0,8,77,13,00,00,60,00,A7,5F,
15291995,00000110,false,Rx,0,8,99,11,00,00,80,00,80,11,
15292989,00000130,false,Rx,0,8,F8,FF,FF,FF,70,00,24,53,
15292990,00000100,false,Rx,0,8,71,00,00,00,70,00,2F,3A,
15292991,00000120,false,Rx,0,8,77,13,00,00,70,00,AA,9F,
15294254,00000110,false,Rx,0,8,99,11,00,00,90,00,8D,D1,
15294255,00000050,false,Rx,0,6,41,5C,FF,FB,5F,FF,00,00,
15294256,00000130,false,Rx,0,8,EB,95,FF,FF,83,80,7B,A9,
15295243,00000100,false,Rx,0,8,88,00,00,00,80,00,7F,53,
15295244,00000120,false,Rx,0,8,77,13,00,00,80,00,EE,9F,
15296395,00000110,false,Rx,0,8,99,11,00,00,A0,00,99,D1,
15296396,00000130,false,Rx,0,8,76,00,00,00,90,00,67,4D,
15297368,00000100,false,Rx,0,8,88,00,00,00,90,00,72,93,
15297370,00000120,false,Rx,0,8,77,13,00,00,90,00,E3,5F,
15298362,00000110,false,Rx,0,8,99,11,00,00,B0,00,94,11,
15298364,00000130,false,Rx,0,8,F8,FF,FF,FF,A0,00,79,93,
15299521,00000100,false,Rx,0,8,71,00,00,00,A0,00,72,FA,
15299522,00000120,false,Rx,0,8,77,13,00,00,A0,00,F7,5F,
15300524,00000110,false,Rx,0,8,99,11,00,00,C0,00,B1,D1,
15300525,00000130,false,Rx,0,8,18,00,00,00,B0,00,76,03,
15301510,00000100,false,Rx,0,8,71,00,00,00,B0,00,7F,3A,
15301511,00000120,false,Rx,0,8,77,13,00,00,B0,00,FA,9F,
15302487,00000110,false,Rx,0,8,B0,11,00,00,D0,00,BB,E8,
15302488,00000130,false,Rx,0,8,D9,FF,FF,FF,C0,00,57,22,
15303624,00000100,false,Rx,0,8,88,00,00,00,C0,00,4E,93,
15303626,00000120,false,Rx,0,8,93,13,00,00,C0,00,C8,BB,
15304646,00000110,false,Rx,0,8,B0,11,00,00,E0,00,AF,E8,
15304647,00000130,false,Rx,0,8,37,00,00,00,D0,00,59,9C,
15305624,00000100,false,Rx,0,8,71,00,00,00,D0,00,57,3A,
15305625,00000120,false,Rx,0,8,93,13,00,00,D0,00,C5,7B,
15306623,00000110,false,Rx,0,8,99,11,00,00,F0,00,A5,D1,
15306625,00000130,false,Rx,0,8,F8,FF,FF,FF,E0,00,48,53,
15307615,00000100,false,Rx,0,8,5A,00,00,00,E0,00,45,21,
15307616,00000120,false,Rx,0,8,93,13,00,00,E0,00,D1,7B,
15308740,00000110,false,Rx,0,8,99,11,00,00,00,00,E1,D1,
15308742,00000130,false,Rx,0,8,18,00,00,00,F0,00,47,C3,
15309741,00000100,false,Rx,0,8,71,00,00,00,F0,00,4E,FA,
15309742,00000140,false,Rx,0,8,01,00,FF,FF,00,00,01,EE,
15309743,00000120,false,Rx,0,8,93,13,00,00,F0,00,DC,BB,
15310740,00000110,false,Rx,0,8,99,11,00,00,10,00,EC,11,
15310741,00000130,false,Rx,0,8,F8,FF,FF,FF,00,00,01,93,
15311747,00000100,false,Rx,0,8,71,00,00,00,00,00,0A,FA,
15311749,00000120,false,Rx,0,8,93,13,00,00,00,00,98,BB,
15312747,00000110,false,Rx,0,8,99,11,00,00,20,00,F8,11,
15312749,00000130,false,Rx,0,8,F8,FF,FF,FF,10,00,0C,53,
15313895,00000100,false,Rx,0,8,71,00,00,00,10,00,07,3A,
15313897,00000120,false,Rx,0,8,93,13,00,00,10,00,95,7B,
15313897,00000110,false,Rx,0,8,99,11,00,00,30,00,F5,D1,
15314996,00000050,false,Rx,0,6,41,5C,FF,FB,5F,FF,00,00,
15314997,00000130,false,Rx,0,8,4C,BA,F5,FF,23,80,CC,A0,
15314998,00000100,false,Rx,0,8,71,00,00,00,20,00,13,3A,
15316621,00000120,false,Rx,0,8,93,13,00,00,20,00,81,7B,
15316623,00000110,false,Rx,0,8,99,11,00,00,40,00,D0,11,
15317772,00000130,false,Rx,0,8,95,00,00,00,30,00,09,1E,
15317773,00000100,false,Rx,0,8,88,00,00,00,30,00,0A,93,
15318765,00000120,false,Rx,0,8,93,13,00,00,30,00,8C,BB,
15318766,00000110,false,Rx,0,8,99,11,00,00,50,00,DD,D1,
15319745,00000130,false,Rx,0,8,F8,FF,FF,FF,40,00,30,53,
15319747,00000100,false,Rx,0,8,71,00,00,00,40,00,3B,3A,
15320760,00000120,false,Rx,0,8,93,13,00,00,40,00,A9,7B,
15320762,00000110,false,Rx,0,8,99,11,00,00,60,00,C9,D1,
15321889,00000130,false,Rx,0,8,F8,FF,FF,FF,50,00,3D,93,
15321890,00000100,false,Rx,0,8,5A,00,00,00,50,00,30,E1,
15322865,00000120,false,Rx,0,8,93,13,00,00,50,00,A4,BB,
15322866,00000110,false,Rx,0,8,99,11,00,00,70,00,C4,11,
15323864,00000130,false,Rx,0,8,F8,FF,FF,FF,60,00,29,93,
15323865,00000100,false,Rx,0,8,5A,00,00,00,60,00,24,E1,
15324862,00000120,false,Rx,0,8,93,13,00,00,60,00,B0,BB,
15324863,00000110,false,Rx,0,8,99,11,00,00,80,00,80,11,
15326024,00000130,false,Rx,0,8,F8,FF,FF,FF,70,00,24,53,
15326025,00000100,false,Rx,0,8,5A,00,00,00,70,00,29,21,
15327027,00000120,false,Rx,0,8,93,13,00,00,70,00,BD,7B,
15327028,00000110,false,Rx,0,8,99,11,00,00,90,00,8D,D1,
15327995,00000130,false,Rx,0,8,F8,FF,FF,FF,80,00,60,53,
15327996,00000100,false,Rx,0,8,5A,00,00,00,80,00,6D,21,
15328995,00000120,false,Rx,0,8,77,13,00,00,80,00,EE,9F,
15328997,00000110,false,Rx,0,8,99,11,00,00,A0,00,99,D1,
15330021,00000130,false,Rx,0,8,18,00,00,00,90,00,6F,C3,
15330022,00000100,false,Rx,0,8,5A,00,00,00,90,00,60,E1,
15330023,00000140,false,Rx,0,8,01,00,FF,FF,10,00,0C,2E,
15331147,00000120,false,Rx,0,8,77,13,00,00,90,00,E3,5F,
15331149,00000110,false,Rx,0,8,B0,11,00,00,B0,00,93,E8,
15332144,00000130,false,Rx,0,8,D9,FF,FF,FF,A0,00,7F,22,
15332145,00000100,false,Rx,0,8,71,00,00,00,A0,00,72,FA,
15333122,00000120,false,Rx,0,8,77,13,00,00,A0,00,F7,5F,
15333124,00000110,false,Rx,0,8,B0,11,00,00,C0,00,B6,28,
15334132,00000130,false,Rx,0,8,18,00,00,00,B0,00,76,03,
15334133,00000100,false,Rx,0,8,71,00,00,00,B0,00,7F,3A,
15334134,00000120,false,Rx,0,8,77,13,00,00,B0,00,FA,9F,
15335365,00000110,false,Rx,0,8,B0,11,00,00,D0,00,BB,E8,
15335366,00000050,false,Rx,0,6,41,5C,FF,FB,5F,FF,00,00,
15335367,00000130,false,Rx,0,8,4D,21,00,00,C3,80,E2,91,
15336362,00000100,false,Rx,0,8,71,00,00,00,C0,00,5A,FA,
15336363,00000120,false,Rx,0,8,93,13,00,00,C0,00,C8,BB,
15337519,00000110,false,Rx,0,8,B0,11,00,00,E0,00,AF,E8,
15337521,00000130,false,Rx,0,8,D9,FF,FF,FF,D0,00,5A,E2,
15338495,00000100,false,Rx,0,8,71,00,00,00,D0,00,57,3A,
15338497,00000120,false,Rx,0,8,93,13,00,00,D0,00,C5,7B,
15339496,00000110,false,Rx,0,8,82,11,00,00,F0,00,A6,3A,
15339498,00000130,false,Rx,0,8,F8,FF,FF,FF,E0,00,48,53,
15340625,00000100,false,Rx,0,8,88,00,00,00,E0,00,57,53,
15340626,00000120,false,Rx,0,8,B0,13,00,00,E0,00,D6,28,
15341623,00000110,false,Rx,0,8,82,11,00,00,00,00,E2,3A,
15341625,00000130,false,Rx,0,8,D9,FF,FF,FF,F0,00,43,22,
15342615,00000100,false,Rx,0,8,71,00,00,00,F0,00,4E,FA,
15342616,00000120,false,Rx,0,8,B0,13,00,00,F0,00,DB,E8,
15343618,00000110,false,Rx,0,8,99,11,00,00,10,00,EC,11,
15343619,00000130,false,Rx,0,8,F8,FF,FF,FF,00,00,01,93,
15344745,00000100,false,Rx,0,8,5A,00,00,00,00,00,0C,E1,
15344746,00000120,false,Rx,0,8,77,13,00,00,00,00,8F,5F,
15345740,00000110,false,Rx,0,8,99,11,00,00,20,00,F8,11,
15345741,00000130,false,Rx,0,8,F8,FF,FF,FF,10,00,0C,53,
15346738,00000100,false,Rx,0,8,5A,00,00,00,10,00,01,21,
15346740,00000120,false,Rx,0,8,77,13,00,00,10,00,82,9F,
15347770,00000110,false,Rx,0,8,99,11,00,00,30,00,F5,D1,
15347771,00000130,false,Rx,0,8,D9,FF,FF,FF,20,00,1E,E2,
15348744,00000100,false,Rx,0,8,5A,00,00,00,20,00,15,21,
15348745,00000120,false,Rx,0,8,93,13,00,00,20,00,81,7B,
15349889,00000110,false,Rx,0,8,99,11,00,00,40,00,D0,11,
15349891,00000130,false,Rx,0,8,F8,FF,FF,FF,30,00,15,93,
15350895,00000100,false,Rx,0,8,71,00,00,00,30,00,1E,FA,
15350897,00000140,false,Rx,0,8,01,00,FF,FF,20,00,18,2E,
15350897,00000120,false,Rx,0,8,93,13,00,00,30,00,8C,BB,
15351895,00000110,false,Rx,0,8,99,11,00,00,50,00,DD,D1,
15351897,00000130,false,Rx,0,8,18,00,00,00,40,00,32,03,
15352861,00000100,false,Rx,0,8,5A,00,00,00,40,00,3D,21,
15352862,00000120,false,Rx,0,8,77,13,00,00,40,00,BE,9F,
15352863,00000110,false,Rx,0,8,99,11,00,00,60,00,C9,D1,
15354770,00000130,false,Rx,0,8,18,00,00,00,50,00,3F,C3,
15354772,00000100,false,Rx,0,8,71,00,00,00,50,00,36,FA,
15354772,00000120,false,Rx,0,8,77,13,00,00,50,00,B3,5F,
15356020,00000110,false,Rx,0,8,C7,11,00,00,70,00,C9,6F,
15356021,00000050,false,Rx,0,6,41,5C,FF,FB,5F,FF,00,00,
15356022,00000130,false,Rx,0,8,B8,34,03,00,63,80,83,B3,
15357020,00000100,false,Rx,0,8,71,00,00,00,60,00,22,FA,
15357021,00000120,false,Rx,0,8,93,13,00,00,60,00,B0,BB,
15357997,00000110,false,Rx,0,8,C7,11,00,00,80,00,8D,6F,
15357999,00000130,false,Rx,0,8,18,00,00,00,70,00,26,03,
15359144,00000100,false,Rx,0,8,88,00,00,00,70,00,3B,53,
15359145,00000120,false,Rx,0,8,93,13,00,00,70,00,BD,7B,
15360145,00000110,false,Rx,0,8,99,11,00,00,90,00,8D,D1,
15360146,00000130,false,Rx,0,8,F8,FF,FF,FF,80,00,60,53,
15361118,00000100,false,Rx,0,8,71,00,00,00,80,00,6B,3A,
15361120,00000120,false,Rx,0,8,93,13,00,00,80,00,F9,7B,
15362091,00000110,false,Rx,0,8,99,11,00,00,A0,00,99,D1,
15362092,00000130,false,Rx,0,8,D9,FF,FF,FF,90,00,6B,22,
15363112,00000100,false,Rx,0,8,71,00,00,00,90,00,66,FA,
15363113,00000120,false,Rx,0,8,93,13,00,00,90,00,F4,BB,
15364247,00000110,false,Rx,0,8,99,11,00,00,B0,00,94,11,
15364248,00000130,false,Rx,0,8,18,00,00,00,A0,00,7B,C3,
15365271,00000100,false,Rx,0,8,71,00,00,00,A0,00,72,FA,
15365273,00000120,false,Rx,0,8,77,13,00,00,A0,00,F7,5F,
15366243,00000110,false,Rx,0,8,99,11,00,00,C0,00,B1,D1,
15366244,00000130,false,Rx,0,8,F8,FF,FF,FF,B0,00,74,53,
15367242,00000100,false,Rx,0,8,71,00,00,00,B0,00,7F,3A,
15367244,00000120,false,Rx,0,8,77,13,00,00,B0,00,FA,9F,
15368393,00000110,false,Rx,0,8,B0,11,00,00,D0,00,BB,E8,
15368394,00000130,false,Rx,0,8,18,00,00,00,C0,00,53,C3,
15369398,00000100,false,Rx,0,8,5A,00,00,00,C0,00,5C,E1,
15369400,00000120,false,Rx,0,8,77,13,00,00,C0,00,DF,5F,
15370373,00000110,false,Rx,0,8,B0,11,00,00,E0,00,AF,E8,
15370374,00000130,false,Rx,0,8,F8,FF,FF,FF,D0,00,5C,53,
15371384,00000100,false,Rx,0,8,5A,00,00,00,D0,00,51,21,
15371386,00000140,false,Rx,0,8,01,00,FF,FF,30,00,15,EE,
15371386,00000120,false,Rx,0,8,77,13,00,00,D0,00,D2,9F,
15372363,00000110,false,Rx,0,8,99,11,00,00,F0,00,A5,D1,
15372365,00000130,false,Rx,0,8,D9,FF,FF,FF,E0,00,4E,E2,
15373500,00000100,false,Rx,0,8,88,00,00,00,E0,00,57,53,
15373501,00000120,false,Rx,0,8,77,13,00,00,E0,00,C6,9F,
15374479,00000110,false,Rx,0,8,99,11,00,00,00,00,E1,D1,
15374480,00000130,false,Rx,0,8,F8,FF,FF,FF,F0,00,45,93,
15375479,00000100,false,Rx,0,8,88,00,00,00,F0,00,5A,93,
15375480,00000120,false,Rx,0,8,77,13,00,00,F0,00,CB,5F,
15375481,00000110,false,Rx,0,8,99,11,00,00,10,00,EC,11,
15376728,00000050,false,Rx,0,6,41,5C,FF,FB,5F,FF,00,00,
15376729,00000130,false,Rx,0,8,EB,95,FF,FF,03,80,1A,69,
15376730,00000100,false,Rx,0,8,71,00,00,00,00,00,0A,FA,
15378354,00000120,false,Rx,0,8,93,13,00,00,00,00,98,BB,
15378355,00000110,false,Rx,0,8,99,11,00,00,20,00,F8,11,
15379356,00000130,false,Rx,0,8,76,00,00,00,10,00,06,8D,
15379357,00000100,false,Rx,0,8,88,00,00,00,10,00,13,53,
15380362,00000120,false,Rx,0,8,93,13,00,00,10,00,95,7B,
15380362,00000110,false,Rx,0,8,99,11,00,00,30,00,F5,D1,
15380364,00000170,false,Rx,0,8,00,00,00,56,50,81,05,B9,
15381501,00000130,false,Rx,0,8,F8,FF,FF,FF,20,00,18,53,
15381502,00000100,false,Rx,0,8,71,00,00,00,20,00,13,3A,
15382502,00000120,false,Rx,0,8,77,13,00,00,20,00,96,9F,
15382503,00000110,false,Rx,0,8,99,11,00,00,40,00,D0,11,
15383478,00000130,false,Rx,0,8,F8,FF,FF,FF,30,00,15,93,
15383479,00000100,false,Rx,0,8,71,00,00,00,30,00,1E,FA,
15384479,00000120,false,Rx,0,8,77,13,00,00,30,00,9B,5F,
15384480,00000110,false,Rx,0,8,99,11,00,00,50,00,DD,D1,
15385609,00000130,false,Rx,0,8,18,00,00,00,40,00,32,03,
15385610,00000100,false,Rx,0,8,71,00,00,00,40,00,3B,3A,
15386607,00000120,false,Rx,0,8,5A,13,00,00,40,00,B8,E2,
15386608,00000110,false,Rx,0,8,99,11,00,00,60,00,C9,D1,
15387614,00000130,false,Rx,0,8,18,00,00,00,50,00,3F,C3,
15387615,00000100,false,Rx,0,8,71,00,00,00,50,00,36,FA,
15388607,00000120,false,Rx,0,8,5A,13,00,00,50,00,B5,22,
15388607,00000110,false,Rx,0,8,99,11,00,00,70,00,C4,11,
15389607,00000130,false,Rx,0,8,D9,FF,FF,FF,60,00,2F,22,
15389608,00000100,false,Rx,0,8,5A,00,00,00,60,00,24,E1,
15390753,00000120,false,Rx,0,8,77,13,00,00,60,00,A7,5F,
15390754,00000110,false,Rx,0,8,99,11,00,00,80,00,80,11,
15391749,00000130,false,Rx,0,8,F8,FF,FF,FF,70,00,24,53,
15391749,00000100,false,Rx,0,8,71,00,00,00,70,00,2F,3A,
15391750,00000140,false,Rx,0,8,01,00,FF,FF,40,00,30,2E,
15392728,00000120,false,Rx,0,8,77,13,00,00,70,00,AA,9F,
15392728,00000110,false,Rx,0,8,99,11,00,00,90,00,8D,D1,
15393728,00000130,false,Rx,0,8,F8,FF,FF,FF,80,00,60,53,
15393729,00000100,false,Rx,0,8,71,00,00,00,80,00,6B,3A,
15394729,00000120,false,Rx,0,8,77,13,00,00,80,00,EE,9F,
15394730,00000110,false,Rx,0,8,99,11,00,00,A0,00,99,D1,
15395880,00000130,false,Rx,0,8,18,00,00,00,90,00,6F,C3,
15395881,00000100,false,Rx,0,8,88,00,00,00,90,00,72,93,
15395881,00000120,false,Rx,0,8,77,13,00,00,90,00,E3,5F,
15396969,00000110,false,Rx,0,8,99,11,00,00,B0,00,94,11,
15396970,00000050,false,Rx,0,6,41,5C,FF,FB,5F,FF,00,00,
15396970,00000130,false,Rx,0,8,6B,BA,F5,FF,A3,80,AB,B7,
15398125,00000100,false,Rx,0,8,88,00,00,00,A0,00,66,93,
15398125,00000120,false,Rx,0,8,77,13,00,00,A0,00,F7,5F,
15399102,00000110,false,Rx,0,8,99,11,00,00,C0,00,B1,D1,
15399104,00000130,false,Rx,0,8,95,00,00,00,B0,00,68,DE,
15400250,00000100,false,Rx,0,8,88,00,00,00,B0,00,6B,53,
15400251,00000120,false,Rx,0,8,77,13,00,00,B0,00,FA,9F,
15401222,00000110,false,Rx,0,8,99,11,00,00,D0,00,BC,11,
15401222,00000130,false,Rx,0,8,D9,FF,FF,FF,C0,00,57,22,
15402222,00000100,false,Rx,0,8,71,00,00,00,C0,00,5A,FA,
15402223,00000120,false,Rx,0,8,77,13,00,00,C0,00,DF,5F,
15403227,00000110,false,Rx,0,8,99,11,00,00,E0,00,A8,11,
15403228,00000130,false,Rx,0,8,F8,FF,FF,FF,D0,00,5C,53,
15404222,00000100,false,Rx,0,8,5A,00,00,00,D0,00,51,21,
15404223,00000120,false,Rx,0,8,77,13,00,00,D0,00,D2,9F,
15405345,00000110,false,Rx,0,8,99,11,00,00,F0,00,A5,D1,
15405346,00000130,false,Rx,0,8,F8,FF,FF,FF,E0,00,48,53,
15406346,00000100,false,Rx,0,8,71,00,00,00,E0,00,43,3A,
15406347,00000120,false,Rx,0,8,77,13,00,00,E0,00,C6,9F,
15407344,00000110,false,Rx,0,8,99,11,00,00,00,00,E1,D1,
15407345,00000130,false,Rx,0,8,F8,FF,FF,FF,F0,00,45,93,
15408345,00000100,false,Rx,0,8,5A,00,00,00,F0,00,48,E1,
15408346,00000120,false,Rx,0,8,77,13,00,00,F0,00,CB,5F,
15409470,00000110,false,Rx,0,8,99,11,00,00,10,00,EC,11,
15409471,00000130,false,Rx,0,8,F8,FF,FF,FF,00,00,01,93,
15410470,00000100,false,Rx,0,8,71,00,00,00,00,00,0A,FA,
15410471,00000120,false,Rx,0,8,77,13,00,00,00,00,8F,5F,
15411471,00000110,false,Rx,0,8,99,11,00,00,20,00,F8,11,
15411472,00000130,false,Rx,0,8,F8,FF,FF,FF,10,00,0C,53,
15412472,00000100,false,Rx,0,8,71,00,00,00,10,00,07,3A,
15412473,00000140,false,Rx,0,8,01,00,FF,FF,50,00,3D,EE,
15412474,00000120,false,Rx,0,8,77,13,00,00,10,00,82,9F,
15413470,00000110,false,Rx,0,8,99,11,00,00,30,00,F5,D1,
15413471,00000130,false,Rx,0,8,F8,FF,FF,FF,20,00,18,53,
15414599,00000100,false,Rx,0,8,88,00,00,00,20,00,07,53,
15414600,00000120,false,Rx,0,8,77,13,00,00,20,00,96,9F,
15415601,00000110,false,Rx,0,8,99,11,00,00,40,00,D0,11,
15415602,00000130,false,Rx,0,8,18,00,00,00,30,00,17,C3,
15416607,00000100,false,Rx,0,8,71,00,00,00,30,00,1E,FA,
15416608,00000120,false,Rx,0,8,77,13,00,00,30,00,9B,5F,
15416608,00000110,false,Rx,0,8,C7,11,00,00,50,00,D0,AF,
15417846,00000050,false,Rx,0,6,41,5C,FF,FB,5F,FF,00,00,
15417847,00000130,false,Rx,0,8,4D,21,00,00,43,80,83,51,
15417847,00000100,false,Rx,0,8,88,00,00,00,40,00,2F,53,
15419468,00000120,false,Rx,0,8,77,13,00,00,40,00,BE,9F,
15419469,00000110,false,Rx,0,8,C7,11,00,00,60,00,C4,AF,
15420460,00000130,false,Rx,0,8,D9,FF,FF,FF,50,00,3B,22,
15420461,00000100,false,Rx,0,8,71,00,00,00,50,00,36,FA,
15421470,00000120,false,Rx,0,8,77,13,00,00,50,00,B3,5F,
15421471,00000110,false,Rx,0,8,82,11,00,00,70,00,C7,FA,
15422587,00000130,false,Rx,0,8,D9,FF,FF,FF,60,00,2F,22,
15422587,00000100,false,Rx,0,8,5A,00,00,00,60,00,24,E1,
15423601,00000120,false,Rx,0,8,77,13,00,00,60,00,A7,5F,
15423602,00000110,false,Rx,0,8,82,11,00,00,80,00,83,FA,
15424607,00000130,false,Rx,0,8,F8,FF,FF,FF,70,00,24,53,
15424608,00000100,false,Rx,0,8,5A,00,00,00,70,00,29,21,
15425606,00000120,false,Rx,0,8,77,13,00,00,70,00,AA,9F,
15425607,00000110,false,Rx,0,8,99,11,00,00,90,00,8D,D1,
15426719,00000130,false,Rx,0,8,18,00,00,00,80,00,62,03,
15426720,00000100,false,Rx,0,8,5A,00,00,00,80,00,6D,21,
15427720,00000120,false,Rx,0,8,93,13,00,00,80,00,F9,7B,
15427720,00000110,false,Rx,0,8,99,11,00,00,A0,00,99,D1,
15428720,00000130,false,Rx,0,8,D9,FF,FF,FF,90,00,6B,22,
15428721,00000100,false,Rx,0,8,43,00,00,00,90,00,62,E8,
15429721,00000120,false,Rx,0,8,93,13,00,00,90,00,F4,BB,
15429722,00000110,false,Rx,0,8,99,11,00,00,B0,00,94,11,
15430720,00000130,false,Rx,0,8,37,00,00,00,A0,00,7C,5C,
15430721,00000100,false,Rx,0,8,71,00,00,00,A0,00,72,FA,
15431846,00000120,false,Rx,0,8,77,13,00,00,A0,00,F7,5F,
15431847,00000110,false,Rx,0,8,99,11,00,00,C0,00,B1,D1,
15432838,00000130,false,Rx,0,8,D9,FF,FF,FF,B0,00,72,E2,
15432839,00000100,false,Rx,0,8,71,00,00,00,B0,00,7F,3A,
15432840,00000140,false,Rx,0,8,01,00,FF,FF,60,00,29,EE,
15433847,00000120,false,Rx,0,8,77,13,00,00,B0,00,FA,9F,
15433848,00000110,false,Rx,0,8,99,11,00,00,D0,00,BC,11,
15434845,00000130,false,Rx,0,8,F8,FF,FF,FF,C0,00,51,93,
15434845,00000100,false,Rx,0,8,71,00,00,00,C0,00,5A,FA,
15435969,00000120,false,Rx,0,8,93,13,00,00,C0,00,C8,BB,
15435970,00000110,false,Rx,0,8,99,11,00,00,E0,00,A8,11,
15436970,00000130,false,Rx,0,8,F8,FF,FF,FF,D0,00,5C,53,
15436971,00000100,false,Rx,0,8,71,00,00,00,D0,00,57,3A,
15436971,00000120,false,Rx,0,8,93,13,00,00,D0,00,C5,7B,
15438096,00000110,false,Rx,0,8,DE,11,00,00,F0,00,AA,A6,
15438097,00000050,false,Rx,0,6,41,5C,FF,FB,5F,FF,00,00,
15438097,00000130,false,Rx,0,8,B8,34,03,00,E3,80,E2,73,
15439219,00000100,false,Rx,0,8,88,00,00,00,E0,00,57,53,
15439220,00000120,false,Rx,0,8,77,13,00,00,E0,00,C6,9F,
15440220,00000110,false,Rx,0,8,DE,11,00,00,00,00,EE,A6,
15440220,00000130,false,Rx,0,8,F8,FF,FF,FF,F0,00,45,93,
15441346,00000100,false,Rx,0,8,88,00,00,00,F0,00,5A,93,
15441347,00000120,false,Rx,0,8,77,13,00,00,F0,00,CB,5F,
15442345,00000110,false,Rx,0,8,99,11,00,00,10,00,EC,11,
15442345,00000130,false,Rx,0,8,37,00,00,00,00,00,04,5C,
15443345,00000100,false,Rx,0,8,71,00,00,00,00,00,0A,FA,
15443346,00000120,false,Rx,0,8,77,13,00,00,00,00,8F,5F,
15443347,00000110,false,Rx,0,8,99,11,00,00,20,00,F8,11,
15445083,00000130,false,Rx,0,8,D9,FF,FF,FF,10,00,0A,E2,
15445084,00000100,false,Rx,0,8,5A,00,00,00,10,00,01,21,
15446213,00000120,false,Rx,0,8,77,13,00,00,10,00,82,9F,
15446214,00000110,false,Rx,0,8,B0,11,00,00,30,00,F2,28,
15447209,00000130,false,Rx,0,8,F8,FF,FF,FF,20,00,18,53,
15447210,00000100,false,Rx,0,8,5A,00,00,00,20,00,15,21,
15448211,00000120,false,Rx,0,8,77,13,00,00,20,00,96,9F,
15448212,00000110,false,Rx,0,8,B0,11,00,00,40,00,D7,E8,
15449208,00000130,false,Rx,0,8,F8,FF,FF,FF,30,00,15,93,
15449210,00000100,false,Rx,0,8,5A,00,00,00,30,00,18,E1,
15450348,00000120,false,Rx,0,8,77,13,00,00,30,00,9B,5F,
15450349,00000110,false,Rx,0,8,99,11,00,00,50,00,DD,D1,
15451346,00000130,false,Rx,0,8,18,00,00,00,40,00,32,03,
15451347,00000100,false,Rx,0,8,71,00,00,00,40,00,3B,3A,
15452351,00000120,false,Rx,0,8,93,13,00,00,40,00,A9,7B,
15452352,00000110,false,Rx,0,8,99,11,00,00,60,00,C9,D1,
15453354,00000130,false,Rx,0,8,F8,FF,FF,FF,50,00,3D,93,
15453355,00000100,false,Rx,0,8,71,00,00,00,50,00,36,FA,
15453355,00000140,false,Rx,0,8,01,00,FF,FF,70,00,24,2E,
15454470,00000120,false,Rx,0,8,93,13,00,00,50,00,A4,BB,
15454471,00000110,false,Rx,0,8,99,11,00,00,70,00,C4,11,
15455473,00000130,false,Rx,0,8,F8,FF,FF,FF,60,00,29,93,
15455474,00000100,false,Rx,0,8,71,00,00,00,60,00,22,FA,
15456470,00000120,false,Rx,0,8,93,13,00,00,60,00,B0,BB,
15456470,00000110,false,Rx,0,8,99,11,00,00,80,00,80,11,
15457458,00000130,false,Rx,0,8,F8,FF,FF,FF,70,00,24,53,
15457459,00000100,false,Rx,0,8,71,00,00,00,70,00,2F,3A,
15457459,00000120,false,Rx,0,8,93,13,00,00,70,00,BD,7B,
15458723,00000110,false,Rx,0,8,99,11,00,00,90,00,8D,D1,
15458724,00000050,false,Rx,0,6,41,5C,FF,FB,5F,FF,00,00,
15458724,00000130,false,Rx,0,8,EB,95,FF,FF,83,80,7B,A9,
15459719,00000100,false,Rx,0,8,88,00,00,00,80,00,7F,53,
15459720,00000120,false,Rx,0,8,77,13,00,00,80,00,EE,9F,
15460722,00000110,false,Rx,0,8,99,11,00,00,A0,00,99,D1,
15460722,00000130,false,Rx,0,8,95,00,00,00,90,00,71,1E,
15461846,00000100,false,Rx,0,8,88,00,00,00,90,00,72,93,
15461847,00000120,false,Rx,0,8,77,13,00,00,90,00,E3,5F,
15462847,00000110,false,Rx,0,8,99,11,00,00,B0,00,94,11,
15462847,00000130,false,Rx,0,8,D9,FF,FF,FF,A0,00,7F,22,
15463837,00000100,false,Rx,0,8,5A,00,00,00,A0,00,74,E1,
15463838,00000120,false,Rx,0,8,77,13,00,00,A0,00,F7,5F,
15464966,00000110,false,Rx,0,8,99,11,00,00,C0,00,B1,D1,
15464967,00000130,false,Rx,0,8,F8,FF,FF,FF,B0,00,74,53,
15465959,00000100,false,Rx,0,8,71,00,00,00,B0,00,7F,3A,
15465960,00000120,false,Rx,0,8,77,13,00,00,B0,00,FA,9F,
15466959,00000110,false,Rx,0,8,99,11,00,00,D0,00,BC,11,
15466960,00000130,false,Rx,0,8,F8,FF,FF,FF,C0,00,51,93,
15467973,00000100,false,Rx,0,8,71,00,00,00,C0,00,5A,FA,
15467975,00000120,false,Rx,0,8,93,13,00,00,C0,00,C8,BB,
15469096,00000110,false,Rx,0,8,99,11,00,00,E0,00,A8,11,
15469097,00000130,false,Rx,0,8,D9,FF,FF,FF,D0,00,5A,E2,
15470096,00000100,false,Rx,0,8,5A,00,00,00,D0,00,51,21,
15470097,00000120,false,Rx,0,8,93,13,00,00,D0,00,C5,7B,
15471095,00000110,false,Rx,0,8,99,11,00,00,F0,00,A5,D1,
15471095,00000130,false,Rx,0,8,F8,FF,FF,FF,E0,00,48,53,
15472095,00000100,false,Rx,0,8,71,00,00,00,E0,00,43,3A,
15472096,00000120,false,Rx,0,8,93,13,00,00,E0,00,D1,7B,
15473094,00000110,false,Rx,0,8,99,11,00,00,00,00,E1,D1,
15473095,00000130,false,Rx,0,8,F8,FF,FF,FF,F0,00,45,93,
15474220,00000100,false,Rx,0,8,71,00,00,00,F0,00,4E,FA,
15474221,00000140,false,Rx,0,8,01,00,FF,FF,80,00,60,2E,
15474221,00000120,false,Rx,0,8,93,13,00,00,F0,00,DC,BB,
15475220,00000110,false,Rx,0,8,99,11,00,00,10,00,EC,11,
15475221,00000130,false,Rx,0,8,D9,FF,FF,FF,00,00,07,22,
15476219,00000100,false,Rx,0,8,71,00,00,00,00,00,0A,FA,
15476220,00000120,false,Rx,0,8,77,13,00,00,00,00,8F,5F,
15477220,00000110,false,Rx,0,8,99,11,00,00,20,00,F8,11,
15477220,00000130,false,Rx,0,8,D9,FF,FF,FF,10,00,0A,E2,
15478344,00000100,false,Rx,0,8,71,00,00,00,10,00,07,3A,
15478345,00000120,false,Rx,0,8,77,13,00,00,10,00,82,9F,
15478345,00000110,false,Rx,0,8,99,11,00,00,30,00,F5,D1,
15479469,00000050,false,Rx,0,6,41,5C,FF,FB,5F,FF,00,00,
15479470,00000130,false,Rx,0,8,6B,BA,F5,FF,23,80,CA,77,
15479471,00000100,false,Rx,0,8,88,00,00,00,20,00,07,53,
15481094,00000120,false,Rx,0,8,93,13,00,00,20,00,81,7B,
15481095,00000110,false,Rx,0,8,99,11,00,00,40,00,D0,11,
15482094,00000130,false,Rx,0,8,B5,00,00,00,30,00,0E,7E,
15482095,00000100,false,Rx,0,8,71,00,00,00,30,00,1E,FA,
15483208,00000120,false,Rx,0,8,93,13,00,00,30,00,8C,BB,
15483209,00000110,false,Rx,0,8,99,11,00,00,50,00,DD,D1,
15483210,00000170,false,Rx,0,8,00,00,00,57,50,81,05,24,
15484219,00000130,false,Rx,0,8,F8,FF,FF,FF,40,00,30,53,
15484220,00000100,false,Rx,0,8,71,00,00,00,40,00,3B,3A,
15485208,00000120,false,Rx,0,8,93,13,00,00,40,00,A9,7B,
15485209,00000110,false,Rx,0,8,99,11,00,00,60,00,C9,D1,
15486210,00000130,false,Rx,0,8,F8,FF,FF,FF,50,00,3D,93,
15486211,00000100,false,Rx,0,8,71,00,00,00,50,00,36,FA,
15487336,00000120,false,Rx,0,8,93,13,00,00,50,00,A4,BB,
15487337,00000110,false,Rx,0,8,99,11,00,00,70,00,C4,11,
15488335,00000130,false,Rx,0,8,F8,FF,FF,FF,60,00,29,93,
15488336,00000100,false,Rx,0,8,71,00,00,00,60,00,22,FA,
15489334,00000120,false,Rx,0,8,77,13,00,00,60,00,A7,5F,
15489335,00000110,false,Rx,0,8,99,11,00,00,80,00,80,11,
15490333,00000130,false,Rx,0,8,18,00,00,00,70,00,26,03,
15490334,00000100,false,Rx,0,8,71,00,00,00,70,00,2F,3A,
15491472,00000120,false,Rx,0,8,77,13,00,00,70,00,AA,9F,
15491473,00000110,false,Rx,0,8,99,11,00,00,90,00,8D,D1,
15492470,00000130,false,Rx,0,8,F8,FF,FF,FF,80,00,60,53,
15492471,00000100,false,Rx,0,8,71,00,00,00,80,00,6B,3A,
15493472,00000120,false,Rx,0,8,77,13,00,00,80,00,EE,9F,
15493473,00000110,false,Rx,0,8,99,11,00,00,A0,00,99,D1,
15494480,00000130,false,Rx,0,8,F8,FF,FF,FF,90,00,6D,93,
15494481,00000100,false,Rx,0,8,71,00,00,00,90,00,66,FA,
15494482,00000140,false,Rx,0,8,01,00,FF,FF,90,00,6D,EE,
15495470,00000120,false,Rx,0,8,77,13,00,00,90,00,E3,5F,
15495471,00000110,false,Rx,0,8,99,11,00,00,B0,00,94,11,
15496606,00000130,false,Rx,0,8,F8,FF,FF,FF,A0,00,79,93,
15496606,00000100,false,Rx,0,8,88,00,00,00,A0,00,66,93,
15497607,00000120,false,Rx,0,8,93,13,00,00,A0,00,E0,BB,
15497608,00000110,false,Rx,0,8,99,11,00,00,C0,00,B1,D1,
15498607,00000130,false,Rx,0,8,F8,FF,FF,FF,B0,00,74,53,
15498608,00000100,false,Rx,0,8,88,00,00,00,B0,00,6B,53,
15498609,00000120,false,Rx,0,8,93,13,00,00,B0,00,ED,7B,
15499844,00000110,false,Rx,0,8,B0,11,00,00,D0,00,BB,E8,
15499845,00000050,false,Rx,0,6,41,5C,FF,FB,5F,FF,00,00,
15499845,00000130,false,Rx,0,8,4D,21,00,00,C3,80,E2,91,
15500845,00000100,false,Rx,0,8,71,00,00,00,C0,00,5A,FA,
15500846,00000120,false,Rx,0,8,93,13,00,00,C0,00,C8,BB,
15501845,00000110,false,Rx,0,8,B0,11,00,00,E0,00,AF,E8,
15501846,00000130,false,Rx,0,8,F8,FF,FF,FF,D0,00,5C,53,
15502970,00000100,false,Rx,0,8,71,00,00,00,D0,00,57,3A,
15502970,00000120,false,Rx,0,8,93,13,00,00,D0,00,C5,7B,
15503968,00000110,false,Rx,0,8,99,11,00,00,F0,00,A5,D1,
15503969,00000130,false,Rx,0,8,18,00,00,00,E0,00,4A,03,
15504969,00000100,false,Rx,0,8,71,00,00,00,E0,00,43,3A,
15504970,00000120,false,Rx,0,8,77,13,00,00,E0,00,C6,9F,
15506095,00000110,false,Rx,0,8,99,11,00,00,00,00,E1,D1,
15506095,00000130,false,Rx,0,8,18,00,00,00,F0,00,47,C3,
15507189,00000100,false,Rx,0,8,5A,00,00,00,F0,00,48,E1,
15507190,00000120,false,Rx,0,8,77,13,00,00,F0,00,CB,5F,
15508102,00000110,false,Rx,0,8,99,11,00,00,10,00,EC,11,
15508103,00000130,false,Rx,0,8,F8,FF,FF,FF,00,00,01,93,
15509090,00000100,false,Rx,0,8,5A,00,00,00,00,00,0C,E1,
15509091,00000120,false,Rx,0,8,77,13,00,00,00,00,8F,5F,
15510094,00000110,false,Rx,0,8,99,11,00,00,20,00,F8,11,
15510096,00000130,false,Rx,0,8,F8,FF,FF,FF,10,00,0C,53,
15511225,00000100,false,Rx,0,8,71,00,00,00,10,00,07,3A,
15511226,00000120,false,Rx,0,8,77,13,00,00,10,00,82,9F,
15512248,00000110,false,Rx,0,8,B0,11,00,00,30,00,F2,28,
15512249,00000130,false,Rx,0,8,F8,FF,FF,FF,20,00,18,53,
15513226,00000100,false,Rx,0,8,71,00,00,00,20,00,13,3A,
15513227,00000120,false,Rx,0,8,93,13,00,00,20,00,81,7B,
15514220,00000110,false,Rx,0,8,B0,11,00,00,40,00,D7,E8,
15514220,00000130,false,Rx,0,8,D9,FF,FF,FF,30,00,13,22,
15515375,00000100,false,Rx,0,8,71,00,00,00,30,00,1E,FA,
15515376,00000140,false,Rx,0,8,01,00,FF,FF,A0,00,79,EE,
15515376,00000120,false,Rx,0,8,93,13,00,00,30,00,8C,BB,
15516375,00000110,false,Rx,0,8,99,11,00,00,50,00,DD,D1,
15516376,00000130,false,Rx,0,8,D9,FF,FF,FF,40,00,36,E2,
15517353,00000100,false,Rx,0,8,71,00,00,00,40,00,3B,3A,
15517354,00000120,false,Rx,0,8,93,13,00,00,40,00,A9,7B,
15518355,00000110,false,Rx,0,8,99,11,00,00,60,00,C9,D1,
15518356,00000130,false,Rx,0,8,F8,FF,FF,FF,50,00,3D,93,
15519344,00000100,false,Rx,0,8,88,00,00,00,50,00,22,93,
15519346,00000120,false,Rx,0,8,93,13,00,00,50,00,A4,BB,
15519346,00000110,false,Rx,0,8,C7,11,00,00,70,00,C9,6F,
15520608,00000050,false,Rx,0,6,41,5C,FF,FB,5F,FF,00,00,
