Time Stamp,ID,Extended,Dir,Bus,LEN,D1,D2,D3,D4,D5,D6,D7,D8
67740139,00000135,false,Rx,0,8,A0,00,00,00,10,00,15,7B,
67740147,00000110,false,Rx,0,8,00,00,00,00,13,00,0D,2B,
67741146,00000135,false,Rx,0,8,A1,00,00,00,20,00,00,AA,
67741148,00000110,false,Rx,0,8,00,00,00,00,23,00,19,2B,
67742174,00000130,false,Rx,0,8,18,00,00,00,10,00,0E,03,
67742175,00000100,false,Rx,0,8,71,00,00,00,10,00,07,3A,
67743142,00000120,false,Rx,0,8,00,00,00,00,13,00,0D,2B,
67743143,00000110,false,Rx,0,8,79,00,00,00,30,00,1F,B2,
67743143,00000050,false,Rx,0,6,41,54,FF,E9,57,FF,00,00,
67744144,00000130,false,Rx,0,8,2C,BA,F5,FF,23,80,C5,00,
67744146,00000100,false,Rx,0,8,43,00,00,00,20,00,17,28,
67745158,00000120,false,Rx,0,8,20,00,00,00,20,00,1E,BB,
67745159,00000110,false,Rx,0,8,79,00,00,00,40,00,3A,72,
67745160,00000210,false,Rx,0,8,75,69,00,05,06,5F,01,03,
67746293,00000130,false,Rx,0,8,76,00,00,00,30,00,1F,4D,
67746294,00000100,false,Rx,0,8,5A,00,00,00,30,00,18,E1,
67747294,00000120,false,Rx,0,8,20,00,00,00,30,00,13,7B,
67747296,00000110,false,Rx,0,8,79,00,00,00,50,00,37,B2,
67748262,00000130,false,Rx,0,8,18,00,00,00,40,00,32,03,
67748263,00000100,false,Rx,0,8,71,00,00,00,40,00,3B,3A,
67749265,00000120,false,Rx,0,8,04,00,00,00,40,00,30,5F,
67749266,00000110,false,Rx,0,8,79,00,00,00,60,00,23,B2,
67749267,00000130,false,Rx,0,8,D9,FF,FF,FF,50,00,3B,22,
67750523,00000100,false,Rx,0,8,71,00,00,00,50,00,36,FA,
67750524,00000120,false,Rx,0,8,04,00,00,00,50,00,3D,9F,
67751640,00000110,false,Rx,0,8,62,00,00,00,70,00,2D,99,
67751641,00000130,false,Rx,0,8,F8,FF,FF,FF,60,00,29,93,
67752640,00000100,false,Rx,0,8,88,00,00,00,60,00,36,93,
67752641,00000120,false,Rx,0,8,E7,FF,FF,FF,60,00,2B,FC,
67753638,00000110,false,Rx,0,8,62,00,00,00,80,00,69,99,
67753639,00000130,false,Rx,0,8,F8,FF,FF,FF,70,00,24,53,
67754638,00000100,false,Rx,0,8,88,00,00,00,70,00,3B,53,
67754639,00000120,false,Rx,0,8,E7,FF,FF,FF,70,00,26,3C,
67755760,00000110,false,Rx,0,8,62,00,00,00,90,00,64,59,
67755761,00000130,false,Rx,0,8,18,00,00,00,80,00,62,03,
67756797,00000100,false,Rx,0,8,71,00,00,00,80,00,6B,3A,
67756798,00000120,false,Rx,0,8,E7,FF,FF,FF,80,00,62,3C,
67757794,00000110,false,Rx,0,8,62,00,00,00,A0,00,70,59,
67757795,00000130,false,Rx,0,8,F8,FF,FF,FF,90,00,6D,93,
67758773,00000100,false,Rx,0,8,71,00,00,00,90,00,66,FA,
67758774,00000140,false,Rx,0,8,00,00,00,00,11,11,CC,47,
67758775,00000120,false,Rx,0,8,E7,FF,FF,FF,90,00,6F,FC,
67759768,00000110,false,Rx,0,8,62,00,00,00,B0,00,7D,99,
67759769,00000130,false,Rx,0,8,D9,FF,FF,FF,A0,00,7F,22,
67760918,00000100,false,Rx,0,8,71,00,00,00,A0,00,72,FA,
67760919,00000120,false,Rx,0,8,20,00,00,00,A0,00,7F,7B,
67761915,00000110,false,Rx,0,8,62,00,00,00,C0,00,58,59,
67761916,00000130,false,Rx,0,8,37,00,00,00,B0,00,71,9C,
67762895,00000100,false,Rx,0,8,5A,00,00,00,B0,00,79,21,
67762896,00000120,false,Rx,0,8,20,00,00,00,B0,00,72,BB,
67763889,00000110,false,Rx,0,8,A7,00,00,00,D0,00,44,CC,
67763891,00000050,false,Rx,0,6,41,5C,FF,EB,5F,FF,00,00,
67763891,00000130,false,Rx,0,8,4D,21,00,00,C3,80,E2,91,
67765045,00000100,false,Rx,0,8,43,00,00,00,C0,00,5E,E8,
67765047,00000120,false,Rx,0,8,04,00,00,00,C0,00,51,9F,
67766044,00000110,false,Rx,0,8,A7,00,00,00,E0,00,50,CC,
67766046,00000130,false,Rx,0,8,F8,FF,FF,FF,D0,00,5C,53,
67767011,00000100,false,Rx,0,8,5A,00,00,00,D0,00,51,21,
67767012,00000120,false,Rx,0,8,04,00,00,00,D0,00,5C,5F,
67768168,00000110,false,Rx,0,8,79,00,00,00,F0,00,4F,B2,
67768169,00000130,false,Rx,0,8,18,00,00,00,E0,00,4A,03,
67769169,00000100,false,Rx,0,8,5A,00,00,00,E0,00,45,21,
67769171,00000120,false,Rx,0,8,04,00,00,00,E0,00,48,5F,
67770138,00000110,false,Rx,0,8,79,00,00,00,00,00,0B,B2,
67770139,00000130,false,Rx,0,8,F8,FF,FF,FF,F0,00,45,93,
67771160,00000100,false,Rx,0,8,71,00,00,00,F0,00,4E,FA,
67771162,00000120,false,Rx,0,8,04,00,00,00,F0,00,45,9F,
67772270,00000110,false,Rx,0,8,4B,00,00,00,10,00,02,60,
67772271,00000130,false,Rx,0,8,D9,FF,FF,FF,00,00,07,22,
67773294,00000100,false,Rx,0,8,88,00,00,00,00,00,1E,93,
67773296,00000120,false,Rx,0,8,04,00,00,00,00,00,01,9F,
67774272,00000110,false,Rx,0,8,4B,00,00,00,20,00,16,60,
67774274,00000130,false,Rx,0,8,F8,FF,FF,FF,10,00,0C,53,
67775270,00000100,false,Rx,0,8,88,00,00,00,10,00,13,53,
67775271,00000120,false,Rx,0,8,04,00,00,00,10,00,0C,5F,
67776260,00000110,false,Rx,0,8,4B,00,00,00,30,00,1B,A0,
67776262,00000130,false,Rx,0,8,D9,FF,FF,FF,20,00,1E,E2,
67777418,00000100,false,Rx,0,8,88,00,00,00,20,00,07,53,
67777419,00000120,false,Rx,0,8,04,00,00,00,20,00,18,5F,
67778419,00000110,false,Rx,0,8,4B,00,00,00,40,00,3E,60,
67778420,00000130,false,Rx,0,8,18,00,00,00,30,00,17,C3,
67779396,00000100,false,Rx,0,8,71,00,00,00,30,00,1E,FA,
67779397,00000140,false,Rx,0,8,01,00,FF,FF,20,00,18,2E,
67779397,00000120,false,Rx,0,8,04,00,00,00,30,00,15,9F,
67780386,00000110,false,Rx,0,8,62,00,00,00,50,00,34,59,
67780387,00000130,false,Rx,0,8,37,00,00,00,40,00,35,9C,
67781545,00000100,false,Rx,0,8,71,00,00,00,40,00,3B,3A,
67781546,00000120,false,Rx,0,8,04,00,00,00,40,00,30,5F,
67782538,00000110,false,Rx,0,8,62,00,00,00,60,00,20,59,
67782539,00000130,false,Rx,0,8,18,00,00,00,50,00,3F,C3,
67783550,00000100,false,Rx,0,8,43,00,00,00,50,00,32,E8,
67783551,00000120,false,Rx,0,8,04,00,00,00,50,00,3D,9F,
67783552,00000110,false,Rx,0,8,A7,00,00,00,70,00,3C,CC,
67784643,00000050,false,Rx,0,6,41,5C,FF,EB,5F,FF,00,00,
67784644,00000130,false,Rx,0,8,D8,34,03,00,63,80,8A,13,
67784644,00000100,false,Rx,0,8,5A,00,00,00,60,00,24,E1,
67786260,00000120,false,Rx,0,8,20,00,00,00,60,00,2F,7B,
67786262,00000110,false,Rx,0,8,A7,00,00,00,80,00,78,CC,
67787396,00000130,false,Rx,0,8,D9,FF,FF,FF,70,00,22,E2,
67787397,00000100,false,Rx,0,8,5A,00,00,00,70,00,29,21,
67788404,00000120,false,Rx,0,8,20,00,00,00,70,00,22,BB,
67788405,00000110,false,Rx,0,8,79,00,00,00,90,00,67,B2,
67789386,00000130,false,Rx,0,8,D9,FF,FF,FF,80,00,66,E2,
67789387,00000100,false,Rx,0,8,71,00,00,00,80,00,6B,3A,
67790544,00000120,false,Rx,0,8,E7,FF,FF,FF,80,00,62,3C,
67790546,00000110,false,Rx,0,8,79,00,00,00,A0,00,73,B2,
67791543,00000130,false,Rx,0,8,F8,FF,FF,FF,90,00,6D,93,
67791544,00000100,false,Rx,0,8,88,00,00,00,90,00,72,93,
67792518,00000120,false,Rx,0,8,E7,FF,FF,FF,90,00,6F,FC,
67792520,00000110,false,Rx,0,8,4B,00,00,00,B0,00,7A,60,
67793520,00000130,false,Rx,0,8,18,00,00,00,A0,00,7B,C3,
67793521,00000100,false,Rx,0,8,88,00,00,00,A0,00,66,93,
67794633,00000120,false,Rx,0,8,CB,FF,FF,FF,A0,00,7C,50,
67794634,00000110,false,Rx,0,8,4B,00,00,00,C0,00,5F,A0,
67795628,00000130,false,Rx,0,8,F8,FF,FF,FF,B0,00,74,53,
67795629,00000100,false,Rx,0,8,88,00,00,00,B0,00,6B,53,
67796622,00000120,false,Rx,0,8,CB,FF,FF,FF,B0,00,71,90,
67796623,00000110,false,Rx,0,8,4B,00,00,00,D0,00,52,60,
67797627,00000130,false,Rx,0,8,F8,FF,FF,FF,C0,00,51,93,
67797628,00000100,false,Rx,0,8,71,00,00,00,C0,00,5A,FA,
67798637,00000120,false,Rx,0,8,04,00,00,00,C0,00,51,9F,
67798639,00000110,false,Rx,0,8,4B,00,00,00,E0,00,46,60,
67799791,00000130,false,Rx,0,8,D9,FF,FF,FF,D0,00,5A,E2,
67799792,00000100,false,Rx,0,8,5A,00,00,00,D0,00,51,21,
67799793,00000140,false,Rx,0,8,01,00,FF,FF,30,00,15,EE,
67800768,00000120,false,Rx,0,8,04,00,00,00,D0,00,5C,5F,
67800769,00000110,false,Rx,0,8,62,00,00,00,F0,00,4C,59,
67801762,00000130,false,Rx,0,8,D9,FF,FF,FF,E0,00,4E,E2,
67801763,00000100,false,Rx,0,8,5A,00,00,00,E0,00,45,21,
67802762,00000120,false,Rx,0,8,20,00,00,00,E0,00,4E,BB,
67802763,00000110,false,Rx,0,8,62,00,00,00,00,00,08,59,
67803897,00000130,false,Rx,0,8,D9,FF,FF,FF,F0,00,43,22,
67803898,00000100,false,Rx,0,8,5A,00,00,00,F0,00,48,E1,
67803899,00000120,false,Rx,0,8,20,00,00,00,F0,00,43,7B,
67805013,00000110,false,Rx,0,8,79,00,00,00,10,00,06,72,
67805015,00000050,false,Rx,0,6,41,5C,FF,EB,5F,FF,00,00,
67805015,00000130,false,Rx,0,8,EB,95,FF,FF,03,80,1A,69,
67806134,00000100,false,Rx,0,8,71,00,00,00,00,00,0A,FA,
67806136,00000120,false,Rx,0,8,04,00,00,00,00,00,01,9F,
67807145,00000110,false,Rx,0,8,79,00,00,00,20,00,12,72,
67807146,00000130,false,Rx,0,8,B5,00,00,00,10,00,17,BE,
67808135,00000100,false,Rx,0,8,5A,00,00,00,10,00,01,21,
67808136,00000120,false,Rx,0,8,04,00,00,00,10,00,0C,5F,
67809293,00000110,false,Rx,0,8,62,00,00,00,30,00,1C,59,
67809294,00000130,false,Rx,0,8,F8,FF,FF,FF,20,00,18,53,
67810292,00000100,false,Rx,0,8,71,00,00,00,20,00,13,3A,
67810293,00000120,false,Rx,0,8,04,00,00,00,20,00,18,5F,
67811270,00000110,false,Rx,0,8,62,00,00,00,40,00,39,99,
67811271,00000130,false,Rx,0,8,18,00,00,00,30,00,17,C3,
67812275,00000100,false,Rx,0,8,88,00,00,00,30,00,0A,93,
67812276,00000120,false,Rx,0,8,04,00,00,00,30,00,15,9F,
67813418,00000110,false,Rx,0,8,4B,00,00,00,50,00,33,A0,
67813420,00000130,false,Rx,0,8,F8,FF,FF,FF,40,00,30,53,
67814395,00000100,false,Rx,0,8,88,00,00,00,40,00,2F,53,
67814397,00000120,false,Rx,0,8,E7,FF,FF,FF,40,00,32,3C,
67815391,00000110,false,Rx,0,8,4B,00,00,00,60,00,27,A0,
67815392,00000130,false,Rx,0,8,D9,FF,FF,FF,50,00,3B,22,
67816392,00000100,false,Rx,0,8,88,00,00,00,50,00,22,93,
67816393,00000120,false,Rx,0,8,E7,FF,FF,FF,50,00,3F,FC,
67817392,00000110,false,Rx,0,8,62,00,00,00,70,00,2D,99,
67817393,00000130,false,Rx,0,8,18,00,00,00,60,00,2B,C3,
67818545,00000100,false,Rx,0,8,88,00,00,00,60,00,36,93,
67818546,00000120,false,Rx,0,8,04,00,00,00,60,00,29,9F,
67819544,00000110,false,Rx,0,8,62,00,00,00,80,00,69,99,
67819545,00000130,false,Rx,0,8,D9,FF,FF,FF,70,00,22,E2,
67820540,00000100,false,Rx,0,8,5A,00,00,00,70,00,29,21,
67820541,00000140,false,Rx,0,8,01,00,FF,FF,40,00,30,2E,
67820542,00000120,false,Rx,0,8,04,00,00,00,70,00,24,5F,
67821511,00000110,false,Rx,0,8,79,00,00,00,90,00,67,B2,
67821513,00000130,false,Rx,0,8,F8,FF,FF,FF,80,00,60,53,
67822621,00000100,false,Rx,0,8,5A,00,00,00,80,00,6D,21,
67822622,00000120,false,Rx,0,8,20,00,00,00,80,00,66,BB,
67823642,00000110,false,Rx,0,8,79,00,00,00,A0,00,73,B2,
67823644,00000130,false,Rx,0,8,37,00,00,00,90,00,68,5C,
67824632,00000100,false,Rx,0,8,5A,00,00,00,90,00,60,E1,
67824634,00000120,false,Rx,0,8,20,00,00,00,90,00,6B,7B,
67824634,00000110,false,Rx,0,8,79,00,00,00,B0,00,7E,72,
67825764,00000050,false,Rx,0,6,41,5C,FF,FB,5F,FF,00,00,
67825765,00000130,false,Rx,0,8,0D,BA,F5,FF,A3,80,A2,71,
67825766,00000100,false,Rx,0,8,5A,00,00,00,A0,00,74,E1,
67827387,00000120,false,Rx,0,8,20,00,00,00,A0,00,7F,7B,
67827388,00000110,false,Rx,0,8,79,00,00,00,C0,00,5B,B2,
67828544,00000130,false,Rx,0,8,95,00,00,00,B0,00,68,DE,
67828545,00000100,false,Rx,0,8,71,00,00,00,B0,00,7F,3A,
67829529,00000120,false,Rx,0,8,20,00,00,00,B0,00,72,BB,
67829530,00000110,false,Rx,0,8,62,00,00,00,D0,00,55,99,
67830671,00000130,false,Rx,0,8,F8,FF,FF,FF,C0,00,51,93,
67830672,00000100,false,Rx,0,8,71,00,00,00,C0,00,5A,FA,
67831625,00000120,false,Rx,0,8,E7,FF,FF,FF,C0,00,53,FC,
67831626,00000110,false,Rx,0,8,62,00,00,00,E0,00,41,99,
67832672,00000130,false,Rx,0,8,F8,FF,FF,FF,D0,00,5C,53,
67832673,00000100,false,Rx,0,8,88,00,00,00,D0,00,43,53,
67833631,00000120,false,Rx,0,8,E7,FF,FF,FF,D0,00,5E,3C,
67833632,00000110,false,Rx,0,8,4B,00,00,00,F0,00,4B,A0,
67834637,00000130,false,Rx,0,8,F8,FF,FF,FF,E0,00,48,53,
67834638,00000100,false,Rx,0,8,88,00,00,00,E0,00,57,53,
67835768,00000120,false,Rx,0,8,E7,FF,FF,FF,E0,00,4A,3C,
67835769,00000110,false,Rx,0,8,4B,00,00,00,00,00,0F,A0,
67836761,00000130,false,Rx,0,8,18,00,00,00,F0,00,47,C3,
67836763,00000100,false,Rx,0,8,88,00,00,00,F0,00,5A,93,
67837761,00000120,false,Rx,0,8,E7,FF,FF,FF,F0,00,47,FC,
67837762,00000110,false,Rx,0,8,62,00,00,00,10,00,05,99,
67838783,00000130,false,Rx,0,8,F8,FF,FF,FF,00,00,01,93,
67838784,00000100,false,Rx,0,8,71,00,00,00,00,00,0A,FA,
67839767,00000120,false,Rx,0,8,04,00,00,00,00,00,01,9F,
67839769,00000110,false,Rx,0,8,62,00,00,00,20,00,11,99,
67840920,00000130,false,Rx,0,8,F8,FF,FF,FF,10,00,0C,53,
67840921,00000100,false,Rx,0,8,5A,00,00,00,10,00,01,21,
67840922,00000140,false,Rx,0,8,01,00,FF,FF,50,00,3D,EE,
67841894,00000120,false,Rx,0,8,04,00,00,00,10,00,0C,5F,
67841895,00000110,false,Rx,0,8,90,00,00,00,30,00,09,4B,
67842895,00000130,false,Rx,0,8,18,00,00,00,20,00,1A,03,
67842896,00000100,false,Rx,0,8,5A,00,00,00,20,00,15,21,
67844044,00000120,false,Rx,0,8,20,00,00,00,20,00,1E,BB,
67844045,00000110,false,Rx,0,8,90,00,00,00,40,00,2C,8B,
67845040,00000130,false,Rx,0,8,18,00,00,00,30,00,17,C3,
67845041,00000100,false,Rx,0,8,5A,00,00,00,30,00,18,E1,
67845042,00000120,false,Rx,0,8,20,00,00,00,30,00,13,7B,
67846135,00000110,false,Rx,0,8,90,00,00,00,50,00,21,4B,
67846136,00000050,false,Rx,0,6,41,5C,FF,FB,5F,FF,00,00,
67846136,00000130,false,Rx,0,8,4D,21,00,00,43,80,83,51,
67847297,00000100,false,Rx,0,8,5A,00,00,00,40,00,3D,21,
67847298,00000120,false,Rx,0,8,20,00,00,00,40,00,36,BB,
67848295,00000110,false,Rx,0,8,90,00,00,00,60,00,35,4B,
67848296,00000130,false,Rx,0,8,D9,FF,FF,FF,50,00,3B,22,
67849259,00000100,false,Rx,0,8,71,00,00,00,50,00,36,FA,
67849261,00000120,false,Rx,0,8,20,00,00,00,50,00,3B,7B,
67850416,00000110,false,Rx,0,8,62,00,00,00,70,00,2D,99,
67850417,00000130,false,Rx,0,8,F8,FF,FF,FF,60,00,29,93,
67851420,00000100,false,Rx,0,8,71,00,00,00,60,00,22,FA,
67851421,00000120,false,Rx,0,8,E7,FF,FF,FF,60,00,2B,FC,
67852392,00000110,false,Rx,0,8,62,00,00,00,80,00,69,99,
67852394,00000130,false,Rx,0,8,56,00,00,00,70,00,29,ED,
67853386,00000100,false,Rx,0,8,88,00,00,00,70,00,3B,53,
67853387,00000120,false,Rx,0,8,E7,FF,FF,FF,70,00,26,3C,
67854543,00000110,false,Rx,0,8,34,00,00,00,90,00,68,6F,
67854544,00000130,false,Rx,0,8,F8,FF,FF,FF,80,00,60,53,
67855539,00000100,false,Rx,0,8,88,00,00,00,80,00,7F,53,
67855541,00000120,false,Rx,0,8,E7,FF,FF,FF,80,00,62,3C,
67856537,00000110,false,Rx,0,8,34,00,00,00,A0,00,7C,6F,
67856538,00000130,false,Rx,0,8,18,00,00,00,90,00,6F,C3,
67857511,00000100,false,Rx,0,8,71,00,00,00,90,00,66,FA,
67857512,00000120,false,Rx,0,8,E7,FF,FF,FF,90,00,6F,FC,
67858632,00000110,false,Rx,0,8,62,00,00,00,B0,00,7D,99,
67858633,00000130,false,Rx,0,8,F8,FF,FF,FF,A0,00,79,93,
67859621,00000100,false,Rx,0,8,71,00,00,00,A0,00,72,FA,
67859622,00000120,false,Rx,0,8,04,00,00,00,A0,00,79,9F,
67860637,00000110,false,Rx,0,8,62,00,00,00,C0,00,58,59,
67860638,00000130,false,Rx,0,8,18,00,00,00,B0,00,76,03,
67861619,00000100,false,Rx,0,8,5A,00,00,00,B0,00,79,21,
67861620,00000140,false,Rx,0,8,01,00,FF,FF,60,00,29,EE,
67861621,00000120,false,Rx,0,8,04,00,00,00,B0,00,74,5F,
67862636,00000110,false,Rx,0,8,79,00,00,00,D0,00,56,72,
67862638,00000130,false,Rx,0,8,F8,FF,FF,FF,C0,00,51,93,
67863792,00000100,false,Rx,0,8,71,00,00,00,C0,00,5A,FA,
67863793,00000120,false,Rx,0,8,04,00,00,00,C0,00,51,9F,
67864795,00000110,false,Rx,0,8,79,00,00,00,E0,00,42,72,
67864796,00000130,false,Rx,0,8,18,00,00,00,D0,00,5E,03,
67865768,00000100,false,Rx,0,8,43,00,00,00,D0,00,53,28,
67865770,00000120,false,Rx,0,8,04,00,00,00,D0,00,5C,5F,
67865770,00000110,false,Rx,0,8,A7,00,00,00,F0,00,5D,0C,
67867042,00000050,false,Rx,0,6,41,5C,FF,FB,5F,FF,00,00,
67867043,00000130,false,Rx,0,8,D8,34,03,00,E3,80,EB,D3,
67867044,00000100,false,Rx,0,8,5A,00,00,00,E0,00,45,21,
67868516,00000120,false,Rx,0,8,04,00,00,00,E0,00,48,5F,
67868518,00000110,false,Rx,0,8,A7,00,00,00,00,00,19,0C,
67869620,00000130,false,Rx,0,8,F8,FF,FF,FF,F0,00,45,93,
67869622,00000100,false,Rx,0,8,5A,00,00,00,F0,00,48,E1,
67870636,00000120,false,Rx,0,8,04,00,00,00,F0,00,45,9F,
67870637,00000110,false,Rx,0,8,62,00,00,00,10,00,05,99,
67871768,00000130,false,Rx,0,8,D9,FF,FF,FF,00,00,07,22,
67871769,00000100,false,Rx,0,8,88,00,00,00,00,00,1E,93,
67872761,00000120,false,Rx,0,8,E7,FF,FF,FF,00,00,03,FC,
67872762,00000110,false,Rx,0,8,62,00,00,00,20,00,11,99,
67873758,00000130,false,Rx,0,8,F8,FF,FF,FF,10,00,0C,53,
67873760,00000100,false,Rx,0,8,88,00,00,00,10,00,13,53,
67874768,00000120,false,Rx,0,8,E7,FF,FF,FF,10,00,0E,3C,
67874769,00000110,false,Rx,0,8,4B,00,00,00,30,00,1B,A0,
67875761,00000130,false,Rx,0,8,D9,FF,FF,FF,20,00,1E,E2,
67875762,00000100,false,Rx,0,8,88,00,00,00,20,00,07,53,
67876912,00000120,false,Rx,0,8,E7,FF,FF,FF,20,00,1A,3C,
67876913,00000110,false,Rx,0,8,4B,00,00,00,40,00,3E,60,
67877920,00000130,false,Rx,0,8,18,00,00,00,30,00,17,C3,
67877921,00000100,false,Rx,0,8,71,00,00,00,30,00,1E,FA,
67878893,00000120,false,Rx,0,8,E7,FF,FF,FF,30,00,17,FC,
67878894,00000110,false,Rx,0,8,62,00,00,00,50,00,34,59,
67879892,00000130,false,Rx,0,8,F8,FF,FF,FF,40,00,30,53,
67879894,00000100,false,Rx,0,8,71,00,00,00,40,00,3B,3A,
67881042,00000120,false,Rx,0,8,04,00,00,00,40,00,30,5F,
67881043,00000110,false,Rx,0,8,62,00,00,00,60,00,20,59,
67882043,00000130,false,Rx,0,8,18,00,00,00,50,00,3F,C3,
67882045,00000100,false,Rx,0,8,5A,00,00,00,50,00,30,E1,
67882045,00000140,false,Rx,0,8,01,00,FF,FF,70,00,24,2E,
67883017,00000120,false,Rx,0,8,04,00,00,00,50,00,3D,9F,
67883018,00000110,false,Rx,0,8,79,00,00,00,70,00,2E,72,
67884010,00000130,false,Rx,0,8,D9,FF,FF,FF,60,00,2F,22,
67884012,00000100,false,Rx,0,8,5A,00,00,00,60,00,24,E1,
67885168,00000120,false,Rx,0,8,20,00,00,00,60,00,2F,7B,
67885169,00000110,false,Rx,0,8,79,00,00,00,80,00,6A,72,
67886161,00000130,false,Rx,0,8,F8,FF,FF,FF,70,00,24,53,
67886162,00000100,false,Rx,0,8,5A,00,00,00,70,00,29,21,
67886163,00000120,false,Rx,0,8,20,00,00,00,70,00,22,BB,
67887418,00000110,false,Rx,0,8,62,00,00,00,90,00,64,59,
67887419,00000050,false,Rx,0,6,41,5C,FF,FB,5F,FF,00,00,
67887420,00000130,false,Rx,0,8,EB,95,FF,FF,83,80,7B,A9,
67888418,00000100,false,Rx,0,8,5A,00,00,00,80,00,6D,21,
67888419,00000120,false,Rx,0,8,04,00,00,00,80,00,60,5F,
67889392,00000110,false,Rx,0,8,62,00,00,00,A0,00,70,59,
67889393,00000130,false,Rx,0,8,95,00,00,00,90,00,71,1E,
67890392,00000100,false,Rx,0,8,71,00,00,00,90,00,66,FA,
67890393,00000120,false,Rx,0,8,04,00,00,00,90,00,6D,9F,
67891542,00000110,false,Rx,0,8,4B,00,00,00,B0,00,7A,60,
67891543,00000130,false,Rx,0,8,D9,FF,FF,FF,A0,00,7F,22,
67892518,00000100,false,Rx,0,8,71,00,00,00,A0,00,72,FA,
67892519,00000120,false,Rx,0,8,E7,FF,FF,FF,A0,00,7B,FC,
67893508,00000110,false,Rx,0,8,4B,00,00,00,C0,00,5F,A0,
67893510,00000130,false,Rx,0,8,D9,FF,FF,FF,B0,00,72,E2,
67894509,00000100,false,Rx,0,8,9F,00,00,00,B0,00,68,74,
67894510,00000120,false,Rx,0,8,E7,FF,FF,FF,B0,00,76,3C,
67895619,00000110,false,Rx,0,8,62,00,00,00,D0,00,55,99,
67895620,00000130,false,Rx,0,8,D9,FF,FF,FF,C0,00,57,22,
67896627,00000100,false,Rx,0,8,88,00,00,00,C0,00,4E,93,
67896628,00000120,false,Rx,0,8,04,00,00,00,C0,00,51,9F,
67897624,00000110,false,Rx,0,8,62,00,00,00,E0,00,41,99,
67897626,00000130,false,Rx,0,8,F8,FF,FF,FF,D0,00,5C,53,
67898621,00000100,false,Rx,0,8,71,00,00,00,D0,00,57,3A,
67898622,00000120,false,Rx,0,8,04,00,00,00,D0,00,5C,5F,
67899795,00000110,false,Rx,0,8,62,00,00,00,F0,00,4C,59,
67899797,00000130,false,Rx,0,8,F8,FF,FF,FF,E0,00,48,53,
67900795,00000100,false,Rx,0,8,5A,00,00,00,E0,00,45,21,
67900796,00000120,false,Rx,0,8,20,00,00,00,E0,00,4E,BB,
67901768,00000110,false,Rx,0,8,62,00,00,00,00,00,08,59,
67901770,00000130,false,Rx,0,8,37,00,00,00,F0,00,40,5C,
67902782,00000100,false,Rx,0,8,5A,00,00,00,F0,00,48,E1,
67902783,00000140,false,Rx,0,8,01,00,FF,FF,80,00,60,2E,
67902783,00000120,false,Rx,0,8,20,00,00,00,F0,00,43,7B,
67903886,00000110,false,Rx,0,8,79,00,00,00,10,00,06,72,
67903887,00000130,false,Rx,0,8,F8,FF,FF,FF,00,00,01,93,
67904916,00000100,false,Rx,0,8,5A,00,00,00,00,00,0C,E1,
67904918,00000120,false,Rx,0,8,20,00,00,00,00,00,07,7B,
67905892,00000110,false,Rx,0,8,79,00,00,00,20,00,12,72,
67905893,00000130,false,Rx,0,8,37,00,00,00,10,00,09,9C,
67906906,00000100,false,Rx,0,8,5A,00,00,00,10,00,01,21,
67906907,00000120,false,Rx,0,8,20,00,00,00,10,00,0A,BB,
67906908,00000110,false,Rx,0,8,62,00,00,00,30,00,1C,59,
67908163,00000050,false,Rx,0,6,41,5C,FF,FB,5F,FF,00,00,
67908164,00000130,false,Rx,0,8,2C,BA,F5,FF,23,80,C5,00,
67908165,00000100,false,Rx,0,8,71,00,00,00,20,00,13,3A,
67909790,00000120,false,Rx,0,8,20,00,00,00,20,00,1E,BB,
67909792,00000110,false,Rx,0,8,62,00,00,00,40,00,39,99,
67909792,00000210,false,Rx,0,8,75,69,00,05,06,5F,01,03,
67910769,00000130,false,Rx,0,8,95,00,00,00,30,00,09,1E,
67910770,00000100,false,Rx,0,8,71,00,00,00,30,00,1E,FA,
67911913,00000120,false,Rx,0,8,20,00,00,00,30,00,13,7B,
67911914,00000110,false,Rx,0,8,4B,00,00,00,50,00,33,A0,
67912919,00000130,false,Rx,0,8,F8,FF,FF,FF,40,00,30,53,
67912920,00000100,false,Rx,0,8,88,00,00,00,40,00,2F,53,
67913920,00000120,false,Rx,0,8,CB,FF,FF,FF,40,00,35,90,
67913921,00000110,false,Rx,0,8,4B,00,00,00,60,00,27,A0,
67914896,00000130,false,Rx,0,8,F8,FF,FF,FF,50,00,3D,93,
67914897,00000100,false,Rx,0,8,88,00,00,00,50,00,22,93,
67915885,00000120,false,Rx,0,8,CB,FF,FF,FF,50,00,38,50,
67915886,00000110,false,Rx,0,8,4B,00,00,00,70,00,2A,60,
67917040,00000130,false,Rx,0,8,F8,FF,FF,FF,60,00,29,93,
67917041,00000100,false,Rx,0,8,88,00,00,00,60,00,36,93,
67918036,00000120,false,Rx,0,8,E7,FF,FF,FF,60,00,2B,FC,
67918037,00000110,false,Rx,0,8,4B,00,00,00,80,00,6E,60,
67919019,00000130,false,Rx,0,8,F8,FF,FF,FF,70,00,24,53,
67919020,00000100,false,Rx,0,8,71,00,00,00,70,00,2F,3A,
67920018,00000120,false,Rx,0,8,E7,FF,FF,FF,70,00,26,3C,
67920020,00000110,false,Rx,0,8,62,00,00,00,90,00,64,59,
67921164,00000130,false,Rx,0,8,F8,FF,FF,FF,80,00,60,53,
67921165,00000100,false,Rx,0,8,5A,00,00,00,80,00,6D,21,
67922166,00000120,false,Rx,0,8,04,00,00,00,80,00,60,5F,
67922167,00000110,false,Rx,0,8,62,00,00,00,A0,00,70,59,
67923141,00000130,false,Rx,0,8,18,00,00,00,90,00,6F,C3,
67923142,00000100,false,Rx,0,8,5A,00,00,00,90,00,60,E1,
67923143,00000140,false,Rx,0,8,01,00,FF,FF,90,00,6D,EE,
67924136,00000120,false,Rx,0,8,04,00,00,00,90,00,6D,9F,
67924137,00000110,false,Rx,0,8,79,00,00,00,B0,00,7E,72,
67925135,00000130,false,Rx,0,8,18,00,00,00,A0,00,7B,C3,
67925136,00000100,false,Rx,0,8,5A,00,00,00,A0,00,74,E1,
67926273,00000120,false,Rx,0,8,20,00,00,00,A0,00,7F,7B,
67926274,00000110,false,Rx,0,8,79,00,00,00,C0,00,5B,B2,
67927295,00000130,false,Rx,0,8,F8,FF,FF,FF,B0,00,74,53,
67927296,00000100,false,Rx,0,8,5A,00,00,00,B0,00,79,21,
67927296,00000120,false,Rx,0,8,20,00,00,00,B0,00,72,BB,
67928510,00000110,false,Rx,0,8,90,00,00,00,D0,00,40,8B,
67928511,00000050,false,Rx,0,6,41,5C,FF,FB,5F,FF,00,00,
67928512,00000130,false,Rx,0,8,4D,21,00,00,C3,80,E2,91,
67929519,00000100,false,Rx,0,8,5A,00,00,00,C0,00,5C,E1,
67929520,00000120,false,Rx,0,8,04,00,00,00,C0,00,51,9F,
67930517,00000110,false,Rx,0,8,90,00,00,00,E0,00,54,8B,
67930519,00000130,false,Rx,0,8,D9,FF,FF,FF,D0,00,5A,E2,
67931639,00000100,false,Rx,0,8,88,00,00,00,D0,00,43,53,
67931640,00000120,false,Rx,0,8,04,00,00,00,D0,00,5C,5F,
67932627,00000110,false,Rx,0,8,34,00,00,00,F0,00,40,6F,
67932628,00000130,false,Rx,0,8,D9,FF,FF,FF,E0,00,4E,E2,
67933621,00000100,false,Rx,0,8,71,00,00,00,E0,00,43,3A,
67933622,00000120,false,Rx,0,8,E7,FF,FF,FF,E0,00,4A,3C,
67934622,00000110,false,Rx,0,8,34,00,00,00,00,00,04,6F,
67934623,00000130,false,Rx,0,8,D9,FF,FF,FF,F0,00,43,22,
67935792,00000100,false,Rx,0,8,88,00,00,00,F0,00,5A,93,
67935793,00000120,false,Rx,0,8,E7,FF,FF,FF,F0,00,47,FC,
67936796,00000110,false,Rx,0,8,62,00,00,00,10,00,05,99,
67936797,00000130,false,Rx,0,8,18,00,00,00,00,00,03,C3,
67937786,00000100,false,Rx,0,8,71,00,00,00,00,00,0A,FA,
67937787,00000120,false,Rx,0,8,E7,FF,FF,FF,00,00,03,FC,
67938782,00000110,false,Rx,0,8,62,00,00,00,20,00,11,99,
67938784,00000130,false,Rx,0,8,F8,FF,FF,FF,10,00,0C,53,
67939760,00000100,false,Rx,0,8,71,00,00,00,10,00,07,3A,
67939762,00000120,false,Rx,0,8,E7,FF,FF,FF,10,00,0E,3C,
67940919,00000110,false,Rx,0,8,62,00,00,00,30,00,1C,59,
67940920,00000130,false,Rx,0,8,F8,FF,FF,FF,20,00,18,53,
67941913,00000100,false,Rx,0,8,5A,00,00,00,20,00,15,21,
67941914,00000120,false,Rx,0,8,04,00,00,00,20,00,18,5F,
67942895,00000110,false,Rx,0,8,62,00,00,00,40,00,39,99,
67942896,00000130,false,Rx,0,8,18,00,00,00,30,00,17,C3,
67943889,00000100,false,Rx,0,8,5A,00,00,00,30,00,18,E1,
67943891,00000140,false,Rx,0,8,01,00,FF,FF,A0,00,79,EE,
67943891,00000120,false,Rx,0,8,04,00,00,00,30,00,15,9F,
67945043,00000110,false,Rx,0,8,79,00,00,00,50,00,37,B2,
67945044,00000130,false,Rx,0,8,F8,FF,FF,FF,40,00,30,53,
67946011,00000100,false,Rx,0,8,43,00,00,00,40,00,3F,28,
67946012,00000120,false,Rx,0,8,20,00,00,00,40,00,36,BB,
67947019,00000110,false,Rx,0,8,79,00,00,00,60,00,23,B2,
67947020,00000130,false,Rx,0,8,F8,FF,FF,FF,50,00,3D,93,
67948029,00000100,false,Rx,0,8,5A,00,00,00,50,00,30,E1,
67948030,00000120,false,Rx,0,8,20,00,00,00,50,00,3B,7B,
67948030,00000110,false,Rx,0,8,90,00,00,00,70,00,38,8B,
67949259,00000050,false,Rx,0,6,41,5C,FF,FB,5F,FF,00,00,
67949260,00000130,false,Rx,0,8,D8,34,03,00,63,80,8A,13,
67949261,00000100,false,Rx,0,8,5A,00,00,00,60,00,24,E1,
67950918,00000120,false,Rx,0,8,04,00,00,00,60,00,29,9F,
67950920,00000110,false,Rx,0,8,90,00,00,00,80,00,7C,8B,
67951895,00000130,false,Rx,0,8,D9,FF,FF,FF,70,00,22,E2,
67951896,00000100,false,Rx,0,8,71,00,00,00,70,00,2F,3A,
67952885,00000120,false,Rx,0,8,04,00,00,00,70,00,24,5F,
67952886,00000110,false,Rx,0,8,4B,00,00,00,90,00,63,A0,
67952886,00000170,false,Rx,0,8,00,00,00,01,00,00,00,68,
67954042,00000130,false,Rx,0,8,F8,FF,FF,FF,80,00,60,53,
67954044,00000100,false,Rx,0,8,88,00,00,00,80,00,7F,53,
67955020,00000120,false,Rx,0,8,CB,FF,FF,FF,80,00,65,90,
67955021,00000110,false,Rx,0,8,4B,00,00,00,A0,00,77,A0,
67956015,00000130,false,Rx,0,8,D9,FF,FF,FF,90,00,6B,22,
67956017,00000100,false,Rx,0,8,88,00,00,00,90,00,72,93,
67957019,00000120,false,Rx,0,8,CB,FF,FF,FF,90,00,68,50,
67957020,00000110,false,Rx,0,8,62,00,00,00,B0,00,7D,99,
67958143,00000130,false,Rx,0,8,B9,FF,FF,FF,A0,00,76,82,
67958144,00000100,false,Rx,0,8,71,00,00,00,A0,00,72,FA,
67959132,00000120,false,Rx,0,8,E7,FF,FF,FF,A0,00,7B,FC,
67959133,00000110,false,Rx,0,8,62,00,00,00,C0,00,58,59,
67960143,00000130,false,Rx,0,8,D9,FF,FF,FF,B0,00,72,E2,
67960145,00000100,false,Rx,0,8,71,00,00,00,B0,00,7F,3A,
67961143,00000120,false,Rx,0,8,E7,FF,FF,FF,B0,00,76,3C,
67961144,00000110,false,Rx,0,8,79,00,00,00,D0,00,56,72,
67962138,00000130,false,Rx,0,8,F8,FF,FF,FF,C0,00,51,93,
67962140,00000100,false,Rx,0,8,5A,00,00,00,C0,00,5C,E1,
67963267,00000120,false,Rx,0,8,20,00,00,00,C0,00,57,7B,
67963269,00000110,false,Rx,0,8,79,00,00,00,E0,00,42,72,
67964267,00000130,false,Rx,0,8,18,00,00,00,D0,00,5E,03,
67964268,00000100,false,Rx,0,8,5A,00,00,00,D0,00,51,21,
67964269,00000140,false,Rx,0,8,01,00,FF,FF,B0,00,74,2E,
67965271,00000120,false,Rx,0,8,20,00,00,00,D0,00,5A,BB,
67965272,00000110,false,Rx,0,8,79,00,00,00,F0,00,4F,B2,
67966257,00000130,false,Rx,0,8,D9,FF,FF,FF,E0,00,4E,E2,
67966258,00000100,false,Rx,0,8,5A,00,00,00,E0,00,45,21,
67967418,00000120,false,Rx,0,8,04,00,00,00,E0,00,48,5F,
67967419,00000110,false,Rx,0,8,79,00,00,00,00,00,0B,B2,
67968416,00000130,false,Rx,0,8,F8,FF,FF,FF,F0,00,45,93,
67968417,00000100,false,Rx,0,8,5A,00,00,00,F0,00,48,E1,
67968418,00000120,false,Rx,0,8,04,00,00,00,F0,00,45,9F,
67969635,00000110,false,Rx,0,8,62,00,00,00,10,00,05,99,
67969636,00000050,false,Rx,0,6,41,5C,FF,FB,5F,FF,00,00,
67969637,00000130,false,Rx,0,8,EB,95,FF,FF,03,80,1A,69,
67970641,00000100,false,Rx,0,8,71,00,00,00,00,00,0A,FA,
67970642,00000120,false,Rx,0,8,E7,FF,FF,FF,00,00,03,FC,
67971643,00000110,false,Rx,0,8,62,00,00,00,20,00,11,99,
67971644,00000130,false,Rx,0,8,B5,00,00,00,10,00,17,BE,
67972760,00000100,false,Rx,0,8,88,00,00,00,10,00,13,53,
67972762,00000120,false,Rx,0,8,E7,FF,FF,FF,10,00,0E,3C,
67973761,00000110,false,Rx,0,8,34,00,00,00,30,00,10,6F,
67973762,00000130,false,Rx,0,8,18,00,00,00,20,00,1A,03,
67974760,00000100,false,Rx,0,8,88,00,00,00,20,00,07,53,
67974762,00000120,false,Rx,0,8,E7,FF,FF,FF,20,00,1A,3C,
67975758,00000110,false,Rx,0,8,34,00,00,00,40,00,35,AF,
67975759,00000130,false,Rx,0,8,F8,FF,FF,FF,30,00,15,93,
67976884,00000100,false,Rx,0,8,88,00,00,00,30,00,0A,93,
67976885,00000120,false,Rx,0,8,E7,FF,FF,FF,30,00,17,FC,
67977885,00000110,false,Rx,0,8,62,00,00,00,50,00,34,59,
67977886,00000130,false,Rx,0,8,18,00,00,00,40,00,32,03,
67978886,00000100,false,Rx,0,8,71,00,00,00,40,00,3B,3A,
67978887,00000120,false,Rx,0,8,04,00,00,00,40,00,30,5F,
67979885,00000110,false,Rx,0,8,62,00,00,00,60,00,20,59,
67979886,00000130,false,Rx,0,8,F8,FF,FF,FF,50,00,3D,93,
67981009,00000100,false,Rx,0,8,71,00,00,00,50,00,36,FA,
67981011,00000120,false,Rx,0,8,04,00,00,00,50,00,3D,9F,
67982009,00000110,false,Rx,0,8,62,00,00,00,70,00,2D,99,
67982010,00000130,false,Rx,0,8,37,00,00,00,60,00,2C,5C,
67983009,00000100,false,Rx,0,8,5A,00,00,00,60,00,24,E1,
67983010,00000120,false,Rx,0,8,20,00,00,00,60,00,2F,7B,
67984006,00000110,false,Rx,0,8,62,00,00,00,80,00,69,99,
67984007,00000130,false,Rx,0,8,37,00,00,00,70,00,21,9C,
67985009,00000100,false,Rx,0,8,43,00,00,00,70,00,2B,28,
67985011,00000140,false,Rx,0,8,01,00,FF,FF,C0,00,51,EE,
67985011,00000120,false,Rx,0,8,20,00,00,00,70,00,22,BB,
67986134,00000110,false,Rx,0,8,79,00,00,00,90,00,67,B2,
67986135,00000130,false,Rx,0,8,D9,FF,FF,FF,80,00,66,E2,
67987133,00000100,false,Rx,0,8,5A,00,00,00,80,00,6D,21,
67987135,00000120,false,Rx,0,8,04,00,00,00,80,00,60,5F,
67988134,00000110,false,Rx,0,8,79,00,00,00,A0,00,73,B2,
67988135,00000130,false,Rx,0,8,F8,FF,FF,FF,90,00,6D,93,
67989136,00000100,false,Rx,0,8,5A,00,00,00,90,00,60,E1,
67989137,00000120,false,Rx,0,8,04,00,00,00,90,00,6D,9F,
67989138,00000110,false,Rx,0,8,62,00,00,00,B0,00,7D,99,
67990383,00000050,false,Rx,0,6,41,5C,FF,FB,5F,FF,00,00,
67990384,00000130,false,Rx,0,8,4C,BA,F5,FF,A3,80,AD,60,
67990384,00000100,false,Rx,0,8,71,00,00,00,A0,00,72,FA,
67992009,00000120,false,Rx,0,8,E7,FF,FF,FF,A0,00,7B,FC,
67992010,00000110,false,Rx,0,8,62,00,00,00,C0,00,58,59,
67993009,00000130,false,Rx,0,8,76,00,00,00,B0,00,7E,8D,
67993010,00000100,false,Rx,0,8,88,00,00,00,B0,00,6B,53,
67994133,00000120,false,Rx,0,8,E7,FF,FF,FF,B0,00,76,3C,
67994134,00000110,false,Rx,0,8,4B,00,00,00,D0,00,52,60,
67995133,00000130,false,Rx,0,8,D9,FF,FF,FF,C0,00,57,22,
67995134,00000100,false,Rx,0,8,88,00,00,00,C0,00,4E,93,
67996133,00000120,false,Rx,0,8,E7,FF,FF,FF,C0,00,53,FC,
67996134,00000110,false,Rx,0,8,4B,00,00,00,E0,00,46,60,
67997133,00000130,false,Rx,0,8,F8,FF,FF,FF,D0,00,5C,53,
67997135,00000100,false,Rx,0,8,71,00,00,00,D0,00,57,3A,
67998134,00000120,false,Rx,0,8,E7,FF,FF,FF,D0,00,5E,3C,
67998136,00000110,false,Rx,0,8,62,00,00,00,F0,00,4C,59,
67999256,00000130,false,Rx,0,8,37,00,00,00,E0,00,4D,9C,
67999257,00000100,false,Rx,0,8,71,00,00,00,E0,00,43,3A,
68000258,00000120,false,Rx,0,8,20,00,00,00,E0,00,4E,BB,
68000259,00000110,false,Rx,0,8,62,00,00,00,00,00,08,59,
68001258,00000130,false,Rx,0,8,F8,FF,FF,FF,F0,00,45,93,
68001259,00000100,false,Rx,0,8,5A,00,00,00,F0,00,48,E1,
68002263,00000120,false,Rx,0,8,20,00,00,00,F0,00,43,7B,
68002265,00000110,false,Rx,0,8,79,00,00,00,10,00,06,72,
68003382,00000130,false,Rx,0,8,F8,FF,FF,FF,00,00,01,93,
68003383,00000100,false,Rx,0,8,5A,00,00,00,00,00,0C,E1,
68004385,00000120,false,Rx,0,8,04,00,00,00,00,00,01,9F,
68004387,00000110,false,Rx,0,8,79,00,00,00,20,00,12,72,
68005382,00000130,false,Rx,0,8,D9,FF,FF,FF,10,00,0A,E2,
68005383,00000100,false,Rx,0,8,5A,00,00,00,10,00,01,21,
68005384,00000140,false,Rx,0,8,01,00,FF,FF,D0,00,5C,2E,
68006382,00000120,false,Rx,0,8,04,00,00,00,10,00,0C,5F,
68006383,00000110,false,Rx,0,8,79,00,00,00,30,00,1F,B2,
68007509,00000130,false,Rx,0,8,F8,FF,FF,FF,20,00,18,53,
68007510,00000100,false,Rx,0,8,5A,00,00,00,20,00,15,21,
68008508,00000120,false,Rx,0,8,04,00,00,00,20,00,18,5F,
68008510,00000110,false,Rx,0,8,79,00,00,00,40,00,3A,72,
68009506,00000130,false,Rx,0,8,56,00,00,00,30,00,18,2D,
68009507,00000100,false,Rx,0,8,5A,00,00,00,30,00,18,E1,
68009507,00000120,false,Rx,0,8,04,00,00,00,30,00,15,9F,
68010759,00000110,false,Rx,0,8,90,00,00,00,50,00,21,4B,
68010761,00000050,false,Rx,0,6,41,5C,FF,FB,5F,FF,00,00,
68010761,00000130,false,Rx,0,8,4D,21,00,00,43,80,83,51,
68011757,00000100,false,Rx,0,8,71,00,00,00,40,00,3B,3A,
68011759,00000120,false,Rx,0,8,E7,FF,FF,FF,40,00,32,3C,
68012757,00000110,false,Rx,0,8,90,00,00,00,60,00,35,4B,
68012759,00000130,false,Rx,0,8,B9,FF,FF,FF,50,00,32,82,
68013883,00000100,false,Rx,0,8,88,00,00,00,50,00,22,93,
68013884,00000120,false,Rx,0,8,E7,FF,FF,FF,50,00,3F,FC,
68014883,00000110,false,Rx,0,8,4B,00,00,00,70,00,2A,60,
68014884,00000130,false,Rx,0,8,18,00,00,00,60,00,2B,C3,
68015882,00000100,false,Rx,0,8,88,00,00,00,60,00,36,93,
68015883,00000120,false,Rx,0,8,E7,FF,FF,FF,60,00,2B,FC,
68017007,00000110,false,Rx,0,8,4B,00,00,00,80,00,6E,60,
68017008,00000130,false,Rx,0,8,F8,FF,FF,FF,70,00,24,53,
68018010,00000100,false,Rx,0,8,71,00,00,00,70,00,2F,3A,
68018011,00000120,false,Rx,0,8,E7,FF,FF,FF,70,00,26,3C,
68019009,00000110,false,Rx,0,8,4B,00,00,00,90,00,63,A0,
68019010,00000130,false,Rx,0,8,F8,FF,FF,FF,80,00,60,53,
68020009,00000100,false,Rx,0,8,71,00,00,00,80,00,6B,3A,
68020010,00000120,false,Rx,0,8,E7,FF,FF,FF,80,00,62,3C,
68021007,00000110,false,Rx,0,8,4B,00,00,00,A0,00,77,A0,
68021008,00000130,false,Rx,0,8,F8,FF,FF,FF,90,00,6D,93,
68022133,00000100,false,Rx,0,8,5A,00,00,00,90,00,60,E1,
68022134,00000120,false,Rx,0,8,E7,FF,FF,FF,90,00,6F,FC,
68023137,00000110,false,Rx,0,8,79,00,00,00,B0,00,7E,72,
68023138,00000130,false,Rx,0,8,F8,FF,FF,FF,A0,00,79,93,
68024108,00000100,false,Rx,0,8,43,00,00,00,A0,00,76,E8,
68024110,00000120,false,Rx,0,8,04,00,00,00,A0,00,79,9F,
68025137,00000110,false,Rx,0,8,79,00,00,00,C0,00,5B,B2,
68025138,00000130,false,Rx,0,8,D9,FF,FF,FF,B0,00,72,E2,
68026139,00000100,false,Rx,0,8,5A,00,00,00,B0,00,79,21,
68026141,00000140,false,Rx,0,8,01,00,FF,FF,E0,00,48,2E,
68026141,00000120,false,Rx,0,8,04,00,00,00,B0,00,74,5F,
68027234,00000110,false,Rx,0,8,79,00,00,00,D0,00,56,72,
68027235,00000130,false,Rx,0,8,F8,FF,FF,FF,C0,00,51,93,
68028229,00000100,false,Rx,0,8,5A,00,00,00,C0,00,5C,E1,
68028229,00000120,false,Rx,0,8,04,00,00,00,C0,00,51,9F,
68029259,00000110,false,Rx,0,8,79,00,00,00,E0,00,42,72,
68029260,00000130,false,Rx,0,8,F8,FF,FF,FF,D0,00,5C,53,
68030259,00000100,false,Rx,0,8,5A,00,00,00,D0,00,51,21,
68030261,00000120,false,Rx,0,8,04,00,00,00,D0,00,5C,5F,
68030262,00000110,false,Rx,0,8,79,00,00,00,F0,00,4F,B2,
68031509,00000050,false,Rx,0,6,41,5C,FF,FB,5F,FF,00,00,
68031511,00000130,false,Rx,0,8,99,34,03,00,E3,80,E4,C2,
68031511,00000100,false,Rx,0,8,71,00,00,00,E0,00,43,3A,
68033132,00000120,false,Rx,0,8,E7,FF,FF,FF,E0,00,4A,3C,
68033134,00000110,false,Rx,0,8,79,00,00,00,00,00,0B,B2,
68034134,00000130,false,Rx,0,8,D9,FF,FF,FF,F0,00,43,22,
68034136,00000100,false,Rx,0,8,88,00,00,00,F0,00,5A,93,
68035260,00000120,false,Rx,0,8,E7,FF,FF,FF,F0,00,47,FC,
68035261,00000110,false,Rx,0,8,4B,00,00,00,10,00,02,60,
68036259,00000130,false,Rx,0,8,F8,FF,FF,FF,00,00,01,93,
68036260,00000100,false,Rx,0,8,71,00,00,00,00,00,0A,FA,
68037258,00000120,false,Rx,0,8,04,00,00,00,00,00,01,9F,
68037260,00000110,false,Rx,0,8,4B,00,00,00,20,00,16,60,
68038258,00000130,false,Rx,0,8,F8,FF,FF,FF,10,00,0C,53,
68038259,00000100,false,Rx,0,8,71,00,00,00,10,00,07,3A,
68039368,00000120,false,Rx,0,8,04,00,00,00,10,00,0C,5F,
68039369,00000110,false,Rx,0,8,79,00,00,00,30,00,1F,B2,
68040366,00000130,false,Rx,0,8,F8,FF,FF,FF,20,00,18,53,
68040366,00000100,false,Rx,0,8,5A,00,00,00,20,00,15,21,
68041369,00000120,false,Rx,0,8,04,00,00,00,20,00,18,5F,
68041370,00000110,false,Rx,0,8,79,00,00,00,40,00,3A,72,
68042353,00000130,false,Rx,0,8,F8,FF,FF,FF,30,00,15,93,
68042354,00000100,false,Rx,0,8,5A,00,00,00,30,00,18,E1,
68043479,00000120,false,Rx,0,8,04,00,00,00,30,00,15,9F,
68043480,00000110,false,Rx,0,8,79,00,00,00,50,00,37,B2,
68044491,00000130,false,Rx,0,8,F8,FF,FF,FF,40,00,30,53,
68044492,00000100,false,Rx,0,8,5A,00,00,00,40,00,3D,21,
68045494,00000120,false,Rx,0,8,20,00,00,00,40,00,36,BB,
68045494,00000110,false,Rx,0,8,79,00,00,00,60,00,23,B2,
68046491,00000130,false,Rx,0,8,F8,FF,FF,FF,50,00,3D,93,
68046492,00000100,false,Rx,0,8,5A,00,00,00,50,00,30,E1,
68046492,00000140,false,Rx,0,8,01,00,FF,FF,F0,00,45,EE,
68047607,00000120,false,Rx,0,8,20,00,00,00,50,00,3B,7B,
68047608,00000110,false,Rx,0,8,79,00,00,00,70,00,2E,72,
68048606,00000130,false,Rx,0,8,D9,FF,FF,FF,60,00,2F,22,
68048607,00000100,false,Rx,0,8,5A,00,00,00,60,00,24,E1,
68049606,00000120,false,Rx,0,8,04,00,00,00,60,00,29,9F,
68049607,00000110,false,Rx,0,8,79,00,00,00,80,00,6A,72,
68050614,00000130,false,Rx,0,8,18,00,00,00,70,00,26,03,
68050615,00000100,false,Rx,0,8,71,00,00,00,70,00,2F,3A,
68050615,00000120,false,Rx,0,8,04,00,00,00,70,00,24,5F,
68051866,00000110,false,Rx,0,8,4B,00,00,00,90,00,63,A0,
68051867,00000050,false,Rx,0,6,41,5C,FF,FB,5F,FF,00,00,
68051867,00000130,false,Rx,0,8,EB,95,FF,FF,83,80,7B,A9,
68052865,00000100,false,Rx,0,8,88,00,00,00,80,00,7F,53,
68052865,00000120,false,Rx,0,8,E7,FF,FF,FF,80,00,62,3C,
68053865,00000110,false,Rx,0,8,4B,00,00,00,A0,00,77,A0,
68053865,00000130,false,Rx,0,8,95,00,00,00,90,00,71,1E,
68054989,00000100,false,Rx,0,8,88,00,00,00,90,00,72,93,
68054989,00000120,false,Rx,0,8,E7,FF,FF,FF,90,00,6F,FC,
68055989,00000110,false,Rx,0,8,4B,00,00,00,B0,00,7A,60,
68055990,00000170,false,Rx,0,8,00,00,00,52,50,41,05,D4,
68055991,00000130,false,Rx,0,8,F8,FF,FF,FF,A0,00,79,93,
68056989,00000100,false,Rx,0,8,71,00,00,00,A0,00,72,FA,
68056990,00000120,false,Rx,0,8,04,00,00,00,A0,00,79,9F,
68058115,00000110,false,Rx,0,8,4B,00,00,00,C0,00,5F,A0,
68058116,00000130,false,Rx,0,8,37,00,00,00,B0,00,71,9C,
68059113,00000100,false,Rx,0,8,71,00,00,00,B0,00,7F,3A,
68059114,00000120,false,Rx,0,8,04,00,00,00,B0,00,74,5F,
68060115,00000110,false,Rx,0,8,62,00,00,00,D0,00,55,99,
68060116,00000130,false,Rx,0,8,18,00,00,00,C0,00,53,C3,
68061115,00000100,false,Rx,0,8,71,00,00,00,C0,00,5A,FA,
68061115,00000120,false,Rx,0,8,04,00,00,00,C0,00,51,9F,
68062234,00000110,false,Rx,0,8,62,00,00,00,E0,00,41,99,
68062235,00000130,false,Rx,0,8,18,00,00,00,D0,00,5E,03,
68063225,00000100,false,Rx,0,8,5A,00,00,00,D0,00,51,21,
68063226,00000120,false,Rx,0,8,04,00,00,00,D0,00,5C,5F,
68064243,00000110,false,Rx,0,8,79,00,00,00,F0,00,4F,B2,
68064243,00000130,false,Rx,0,8,F8,FF,FF,FF,E0,00,48,53,
68065244,00000100,false,Rx,0,8,5A,00,00,00,E0,00,45,21,
68065245,00000120,false,Rx,0,8,04,00,00,00,E0,00,48,5F,
68066244,00000110,false,Rx,0,8,79,00,00,00,00,00,0B,B2,
68066244,00000130,false,Rx,0,8,F8,FF,FF,FF,F0,00,45,93,
68067375,00000100,false,Rx,0,8,71,00,00,00,F0,00,4E,FA,
68067375,00000140,false,Rx,0,8,01,00,FF,FF,00,00,01,EE,
68067376,00000120,false,Rx,0,8,04,00,00,00,F0,00,45,9F,
68068385,00000110,false,Rx,0,8,79,00,00,00,10,00,06,72,
68068386,00000130,false,Rx,0,8,18,00,00,00,00,00,03,C3,
68069360,00000100,false,Rx,0,8,71,00,00,00,00,00,0A,FA,
68069361,00000120,false,Rx,0,8,04,00,00,00,00,00,01,9F,
68070352,00000110,false,Rx,0,8,79,00,00,00,20,00,12,72,
68070353,00000130,false,Rx,0,8,D9,FF,FF,FF,10,00,0A,E2,
68071494,00000100,false,Rx,0,8,71,00,00,00,10,00,07,3A,
68071494,00000120,false,Rx,0,8,04,00,00,00,10,00,0C,5F,
68071495,00000110,false,Rx,0,8,4B,00,00,00,30,00,1B,A0,
68072608,00000050,false,Rx,0,6,41,5C,FF,FB,5F,FF,00,00,
68072609,00000130,false,Rx,0,8,4C,BA,F5,FF,23,80,CC,A0,
68072609,00000100,false,Rx,0,8,88,00,00,00,20,00,07,53,
68074241,00000120,false,Rx,0,8,CB,FF,FF,FF,20,00,1D,90,
68074242,00000110,false,Rx,0,8,4B,00,00,00,40,00,3E,60,
68074242,00000210,false,Rx,0,8,75,69,00,05,06,5F,01,03,
68075238,00000130,false,Rx,0,8,95,00,00,00,30,00,09,1E,
68075239,00000100,false,Rx,0,8,88,00,00,00,30,00,0A,93,
68076366,00000120,false,Rx,0,8,CB,FF,FF,FF,30,00,10,50,
68076366,00000110,false,Rx,0,8,4B,00,00,00,50,00,33,A0,
68077382,00000130,false,Rx,0,8,D9,FF,FF,FF,40,00,36,E2,
68077382,00000100,false,Rx,0,8,71,00,00,00,40,00,3B,3A,
68078373,00000120,false,Rx,0,8,E7,FF,FF,FF,40,00,32,3C,
68078374,00000110,false,Rx,0,8,4B,00,00,00,60,00,27,A0,
68079363,00000130,false,Rx,0,8,37,00,00,00,50,00,38,5C,
68079364,00000100,false,Rx,0,8,71,00,00,00,50,00,36,FA,
68080520,00000120,false,Rx,0,8,E7,FF,FF,FF,50,00,3F,FC,
68080521,00000110,false,Rx,0,8,62,00,00,00,70,00,2D,99,
68081519,00000130,false,Rx,0,8,D9,FF,FF,FF,60,00,2F,22,
68081520,00000100,false,Rx,0,8,71,00,00,00,60,00,22,FA,
68082498,00000120,false,Rx,0,8,20,00,00,00,60,00,2F,7B,
68082498,00000110,false,Rx,0,8,62,00,00,00,80,00,69,99,
68083511,00000130,false,Rx,0,8,F8,FF,FF,FF,70,00,24,53,
68083512,00000100,false,Rx,0,8,5A,00,00,00,70,00,29,21,
68084616,00000120,false,Rx,0,8,20,00,00,00,70,00,22,BB,
68084617,00000110,false,Rx,0,8,79,00,00,00,90,00,67,B2,
68085633,00000130,false,Rx,0,8,F8,FF,FF,FF,80,00,60,53,
68085634,00000100,false,Rx,0,8,43,00,00,00,80,00,6F,28,
68086616,00000120,false,Rx,0,8,04,00,00,00,80,00,60,5F,
68086616,00000110,false,Rx,0,8,79,00,00,00,A0,00,73,B2,
68087608,00000130,false,Rx,0,8,F8,FF,FF,FF,90,00,6D,93,
68087609,00000100,false,Rx,0,8,5A,00,00,00,90,00,60,E1,
68087609,00000140,false,Rx,0,8,01,00,FF,FF,10,00,0C,2E,
68088742,00000120,false,Rx,0,8,04,00,00,00,90,00,6D,9F,
68088743,00000110,false,Rx,0,8,62,00,00,00,B0,00,7D,99,
68089786,00000130,false,Rx,0,8,D9,FF,FF,FF,A0,00,7F,22,
68089787,00000100,false,Rx,0,8,5A,00,00,00,A0,00,74,E1,
68090733,00000120,false,Rx,0,8,E7,FF,FF,FF,A0,00,7B,FC,
68090734,00000110,false,Rx,0,8,62,00,00,00,C0,00,58,59,
68091758,00000130,false,Rx,0,8,F8,FF,FF,FF,B0,00,74,53,
68091760,00000100,false,Rx,0,8,88,00,00,00,B0,00,6B,53,
68091761,00000120,false,Rx,0,8,E7,FF,FF,FF,B0,00,76,3C,
68092990,00000110,false,Rx,0,8,62,00,00,00,D0,00,55,99,
68092991,00000050,false,Rx,0,6,41,5C,FF,FB,5F,FF,00,00,
68092992,00000130,false,Rx,0,8,4D,21,00,00,C3,80,E2,91,
68093979,00000100,false,Rx,0,8,88,00,00,00,C0,00,4E,93,
68093980,00000120,false,Rx,0,8,CB,FF,FF,FF,C0,00,54,50,
68094979,00000110,false,Rx,0,8,62,00,00,00,E0,00,41,99,
68094980,00000130,false,Rx,0,8,D9,FF,FF,FF,D0,00,5A,E2,
68096145,00000100,false,Rx,0,8,88,00,00,00,D0,00,43,53,
68096146,00000120,false,Rx,0,8,CB,FF,FF,FF,D0,00,59,90,
68097123,00000110,false,Rx,0,8,62,00,00,00,F0,00,4C,59,
68097123,00000130,false,Rx,0,8,D9,FF,FF,FF,E0,00,4E,E2,
68098114,00000100,false,Rx,0,8,71,00,00,00,E0,00,43,3A,
68098115,00000120,false,Rx,0,8,04,00,00,00,E0,00,48,5F,
68099278,00000110,false,Rx,0,8,62,00,00,00,00,00,08,59,
68099279,00000130,false,Rx,0,8,F8,FF,FF,FF,F0,00,45,93,
68100247,00000100,false,Rx,0,8,71,00,00,00,F0,00,4E,FA,
68100248,00000120,false,Rx,0,8,04,00,00,00,F0,00,45,9F,
68101247,00000110,false,Rx,0,8,79,00,00,00,10,00,06,72,
68101248,00000130,false,Rx,0,8,18,00,00,00,00,00,03,C3,
68102240,00000100,false,Rx,0,8,5A,00,00,00,00,00,0C,E1,
68102241,00000120,false,Rx,0,8,20,00,00,00,00,00,07,7B,
68103366,00000110,false,Rx,0,8,79,00,00,00,20,00,12,72,
68103367,00000130,false,Rx,0,8,18,00,00,00,10,00,0E,03,
68104392,00000100,false,Rx,0,8,43,00,00,00,10,00,03,28,
68104392,00000120,false,Rx,0,8,20,00,00,00,10,00,0A,BB,
68105373,00000110,false,Rx,0,8,79,00,00,00,30,00,1F,B2,
68105374,00000130,false,Rx,0,8,37,00,00,00,20,00,1D,9C,
68106364,00000100,false,Rx,0,8,43,00,00,00,20,00,17,28,
68106365,00000120,false,Rx,0,8,04,00,00,00,20,00,18,5F,
68107517,00000110,false,Rx,0,8,79,00,00,00,40,00,3A,72,
68107518,00000130,false,Rx,0,8,D9,FF,FF,FF,30,00,13,22,
68108518,00000100,false,Rx,0,8,71,00,00,00,30,00,1E,FA,
68108519,00000140,false,Rx,0,8,01,00,FF,FF,20,00,18,2E,
68108519,00000120,false,Rx,0,8,04,00,00,00,30,00,15,9F,
68109517,00000110,false,Rx,0,8,62,00,00,00,50,00,34,59,
68109518,00000130,false,Rx,0,8,F8,FF,FF,FF,40,00,30,53,
68110515,00000100,false,Rx,0,8,71,00,00,00,40,00,3B,3A,
68110517,00000120,false,Rx,0,8,E7,FF,FF,FF,40,00,32,3C,
68111524,00000110,false,Rx,0,8,62,00,00,00,60,00,20,59,
68111526,00000130,false,Rx,0,8,37,00,00,00,50,00,38,5C,
68112633,00000100,false,Rx,0,8,88,00,00,00,50,00,22,93,
68112635,00000120,false,Rx,0,8,E7,FF,FF,FF,50,00,3F,FC,
68112635,00000110,false,Rx,0,8,62,00,00,00,70,00,2D,99,
68113766,00000050,false,Rx,0,6,41,5C,FF,FB,5F,FF,00,00,
68113768,00000130,false,Rx,0,8,D8,34,03,00,63,80,8A,13,
68113768,00000100,false,Rx,0,8,9F,00,00,00,60,00,35,B4,
68115390,00000120,false,Rx,0,8,E7,FF,FF,FF,60,00,2B,FC,
68115391,00000110,false,Rx,0,8,62,00,00,00,80,00,69,99,
68116380,00000130,false,Rx,0,8,B9,FF,FF,FF,70,00,2B,42,
68116381,00000100,false,Rx,0,8,71,00,00,00,70,00,2F,3A,
68117535,00000120,false,Rx,0,8,E7,FF,FF,FF,70,00,26,3C,
68117536,00000110,false,Rx,0,8,62,00,00,00,90,00,64,59,
68118513,00000130,false,Rx,0,8,D9,FF,FF,FF,80,00,66,E2,
68118514,00000100,false,Rx,0,8,71,00,00,00,80,00,6B,3A,
68119507,00000120,false,Rx,0,8,04,00,00,00,80,00,60,5F,
68119508,00000110,false,Rx,0,8,62,00,00,00,A0,00,70,59,
68120636,00000130,false,Rx,0,8,18,00,00,00,90,00,6F,C3,
68120637,00000100,false,Rx,0,8,71,00,00,00,90,00,66,FA,
68121636,00000120,false,Rx,0,8,04,00,00,00,90,00,6D,9F,
68121637,00000110,false,Rx,0,8,79,00,00,00,B0,00,7E,72,
68122636,00000130,false,Rx,0,8,D9,FF,FF,FF,A0,00,7F,22,
68122637,00000100,false,Rx,0,8,43,00,00,00,A0,00,76,E8,
68123636,00000120,false,Rx,0,8,20,00,00,00,A0,00,7F,7B,
68123638,00000110,false,Rx,0,8,79,00,00,00,C0,00,5B,B2,
68124631,00000130,false,Rx,0,8,18,00,00,00,B0,00,76,03,
68124632,00000100,false,Rx,0,8,5A,00,00,00,B0,00,79,21,
68125785,00000120,false,Rx,0,8,20,00,00,00,B0,00,72,BB,
68125786,00000110,false,Rx,0,8,79,00,00,00,D0,00,56,72,
68126763,00000130,false,Rx,0,8,F8,FF,FF,FF,C0,00,51,93,
68126765,00000100,false,Rx,0,8,5A,00,00,00,C0,00,5C,E1,
68127785,00000120,false,Rx,0,8,20,00,00,00,C0,00,57,7B,
68127786,00000110,false,Rx,0,8,79,00,00,00,E0,00,42,72,
68128768,00000130,false,Rx,0,8,18,00,00,00,D0,00,5E,03,
68128770,00000100,false,Rx,0,8,71,00,00,00,D0,00,57,3A,
68128771,00000140,false,Rx,0,8,01,00,FF,FF,30,00,15,EE,
68129886,00000120,false,Rx,0,8,20,00,00,00,D0,00,5A,BB,
68129888,00000110,false,Rx,0,8,62,00,00,00,F0,00,4C,59,
68130887,00000130,false,Rx,0,8,F8,FF,FF,FF,E0,00,48,53,
68130888,00000100,false,Rx,0,8,5A,00,00,00,E0,00,45,21,
68131890,00000120,false,Rx,0,8,E7,FF,FF,FF,E0,00,4A,3C,
68131891,00000110,false,Rx,0,8,62,00,00,00,00,00,08,59,
68132890,00000130,false,Rx,0,8,F8,FF,FF,FF,F0,00,45,93,
68132891,00000100,false,Rx,0,8,88,00,00,00,F0,00,5A,93,
68132892,00000120,false,Rx,0,8,E7,FF,FF,FF,F0,00,47,FC,
68134128,00000110,false,Rx,0,8,34,00,00,00,10,00,09,AF,
68134129,00000050,false,Rx,0,6,41,5C,FF,FB,5F,FF,00,00,
68134130,00000130,false,Rx,0,8,EB,95,FF,FF,03,80,1A,69,
68135149,00000100,false,Rx,0,8,88,00,00,00,00,00,1E,93,
68135150,00000120,false,Rx,0,8,E7,FF,FF,FF,00,00,03,FC,
68136277,00000110,false,Rx,0,8,34,00,00,00,20,00,1D,AF,
68136278,00000130,false,Rx,0,8,95,00,00,00,10,00,10,DE,
68137263,00000100,false,Rx,0,8,71,00,00,00,10,00,07,3A,
68137264,00000120,false,Rx,0,8,E7,FF,FF,FF,10,00,0E,3C,
68138274,00000110,false,Rx,0,8,4B,00,00,00,30,00,1B,A0,
68138275,00000130,false,Rx,0,8,18,00,00,00,20,00,1A,03,
68139256,00000100,false,Rx,0,8,71,00,00,00,20,00,13,3A,
68139257,00000120,false,Rx,0,8,04,00,00,00,20,00,18,5F,
68140407,00000110,false,Rx,0,8,4B,00,00,00,40,00,3E,60,
68140408,00000130,false,Rx,0,8,B9,FF,FF,FF,30,00,1A,82,
68141388,00000100,false,Rx,0,8,5A,00,00,00,30,00,18,E1,
68141389,00000120,false,Rx,0,8,04,00,00,00,30,00,15,9F,
68142396,00000110,false,Rx,0,8,79,00,00,00,50,00,37,B2,
68142397,00000130,false,Rx,0,8,F8,FF,FF,FF,40,00,30,53,
68143378,00000100,false,Rx,0,8,5A,00,00,00,40,00,3D,21,
68143380,00000120,false,Rx,0,8,3D,00,00,00,40,00,35,36,
68144534,00000110,false,Rx,0,8,79,00,00,00,60,00,23,B2,
68144535,00000130,false,Rx,0,8,F8,FF,FF,FF,50,00,3D,93,
68145534,00000100,false,Rx,0,8,5A,00,00,00,50,00,30,E1,
68145535,00000120,false,Rx,0,8,3D,00,00,00,50,00,38,F6,
68146512,00000110,false,Rx,0,8,79,00,00,00,70,00,2E,72,
68146513,00000130,false,Rx,0,8,18,00,00,00,60,00,2B,C3,
68147512,00000100,false,Rx,0,8,71,00,00,00,60,00,22,FA,
68147513,00000120,false,Rx,0,8,04,00,00,00,60,00,29,9F,
68148511,00000110,false,Rx,0,8,79,00,00,00,80,00,6A,72,
68148512,00000130,false,Rx,0,8,D9,FF,FF,FF,70,00,22,E2,
68149621,00000100,false,Rx,0,8,71,00,00,00,70,00,2F,3A,
68149622,00000140,false,Rx,0,8,01,00,FF,FF,40,00,30,2E,
68149623,00000120,false,Rx,0,8,04,00,00,00,70,00,24,5F,
68150621,00000110,false,Rx,0,8,62,00,00,00,90,00,64,59,
68150623,00000130,false,Rx,0,8,18,00,00,00,80,00,62,03,
68151622,00000100,false,Rx,0,8,71,00,00,00,80,00,6B,3A,
68151623,00000120,false,Rx,0,8,CB,FF,FF,FF,80,00,65,90,
68152784,00000110,false,Rx,0,8,62,00,00,00,A0,00,70,59,
68152786,00000130,false,Rx,0,8,37,00,00,00,90,00,68,5C,
68152786,00000100,false,Rx,0,8,9F,00,00,00,90,00,71,B4,
68154521,00000120,false,Rx,0,8,CB,FF,FF,FF,90,00,68,50,
68154522,00000110,false,Rx,0,8,34,00,00,00,B0,00,71,AF,
68154522,00000050,false,Rx,0,6,41,5C,FF,FB,5F,FF,00,00,
68155513,00000130,false,Rx,0,8,4C,BA,F5,FF,A3,80,AD,60,
68155515,00000100,false,Rx,0,8,88,00,00,00,A0,00,66,93,
68156514,00000120,false,Rx,0,8,04,00,00,00,A0,00,79,9F,
68156515,00000110,false,Rx,0,8,34,00,00,00,C0,00,54,6F,
68157635,00000130,false,Rx,0,8,B5,00,00,00,B0,00,6F,BE,
68157636,00000100,false,Rx,0,8,71,00,00,00,B0,00,7F,3A,
68158625,00000120,false,Rx,0,8,04,00,00,00,B0,00,74,5F,
68158626,00000110,false,Rx,0,8,62,00,00,00,D0,00,55,99,
68158627,00000170,false,Rx,0,8,00,00,00,53,50,81,05,6A,
68159635,00000130,false,Rx,0,8,F8,FF,FF,FF,C0,00,51,93,
68159636,00000100,false,Rx,0,8,71,00,00,00,C0,00,5A,FA,
68160622,00000120,false,Rx,0,8,04,00,00,00,C0,00,51,9F,
68160624,00000110,false,Rx,0,8,62,00,00,00,E0,00,41,99,
68161785,00000130,false,Rx,0,8,18,00,00,00,D0,00,5E,03,
68161786,00000100,false,Rx,0,8,5A,00,00,00,D0,00,51,21,
68162764,00000120,false,Rx,0,8,04,00,00,00,D0,00,5C,5F,
68162765,00000110,false,Rx,0,8,79,00,00,00,F0,00,4F,B2,
68163762,00000130,false,Rx,0,8,F8,FF,FF,FF,E0,00,48,53,
68163763,00000100,false,Rx,0,8,43,00,00,00,E0,00,47,28,
68164762,00000120,false,Rx,0,8,3D,00,00,00,E0,00,4D,36,
68164763,00000110,false,Rx,0,8,79,00,00,00,00,00,0B,B2,
68165756,00000130,false,Rx,0,8,F8,FF,FF,FF,F0,00,45,93,
68165757,00000100,false,Rx,0,8,5A,00,00,00,F0,00,48,E1,
68166910,00000120,false,Rx,0,8,3D,00,00,00,F0,00,40,F6,
68166911,00000110,false,Rx,0,8,79,00,00,00,10,00,06,72,
68167908,00000130,false,Rx,0,8,18,00,00,00,00,00,03,C3,
68167910,00000100,false,Rx,0,8,5A,00,00,00,00,00,0C,E1,
68168889,00000120,false,Rx,0,8,04,00,00,00,00,00,01,9F,
68168891,00000110,false,Rx,0,8,79,00,00,00,20,00,12,72,
68169878,00000130,false,Rx,0,8,D9,FF,FF,FF,10,00,0A,E2,
68169880,00000100,false,Rx,0,8,71,00,00,00,10,00,07,3A,
68169880,00000140,false,Rx,0,8,01,00,FF,FF,50,00,3D,EE,
68171033,00000120,false,Rx,0,8,04,00,00,00,10,00,0C,5F,
68171035,00000110,false,Rx,0,8,62,00,00,00,30,00,1C,59,
68172014,00000130,false,Rx,0,8,F8,FF,FF,FF,20,00,18,53,
68172015,00000100,false,Rx,0,8,88,00,00,00,20,00,07,53,
68173012,00000120,false,Rx,0,8,E7,FF,FF,FF,20,00,1A,3C,
68173014,00000110,false,Rx,0,8,62,00,00,00,40,00,39,99,
68174014,00000130,false,Rx,0,8,D9,FF,FF,FF,30,00,13,22,
68174015,00000100,false,Rx,0,8,9F,00,00,00,30,00,09,B4,
68174016,00000120,false,Rx,0,8,E7,FF,FF,FF,30,00,17,FC,
68175261,00000110,false,Rx,0,8,62,00,00,00,50,00,34,59,
68175262,00000050,false,Rx,0,6,41,5C,FF,FB,5F,FF,00,00,
68175263,00000130,false,Rx,0,8,4D,21,00,00,43,80,83,51,
68176280,00000100,false,Rx,0,8,88,00,00,00,40,00,2F,53,
68176281,00000120,false,Rx,0,8,04,00,00,00,40,00,30,5F,
68177410,00000110,false,Rx,0,8,62,00,00,00,60,00,20,59,
68177411,00000130,false,Rx,0,8,F8,FF,FF,FF,50,00,3D,93,
68178388,00000100,false,Rx,0,8,88,00,00,00,50,00,22,93,
68178390,00000120,false,Rx,0,8,04,00,00,00,50,00,3D,9F,
68179390,00000110,false,Rx,0,8,62,00,00,00,70,00,2D,99,
68179391,00000130,false,Rx,0,8,18,00,00,00,60,00,2B,C3,
68180515,00000100,false,Rx,0,8,71,00,00,00,60,00,22,FA,
68180517,00000120,false,Rx,0,8,04,00,00,00,60,00,29,9F,
68181506,00000110,false,Rx,0,8,62,00,00,00,80,00,69,99,
68181508,00000130,false,Rx,0,8,B9,FF,FF,FF,70,00,2B,42,
68182514,00000100,false,Rx,0,8,5A,00,00,00,70,00,29,21,
68182515,00000120,false,Rx,0,8,04,00,00,00,70,00,24,5F,
68183522,00000110,false,Rx,0,8,79,00,00,00,90,00,67,B2,
68183523,00000130,false,Rx,0,8,18,00,00,00,80,00,62,03,
68184634,00000100,false,Rx,0,8,43,00,00,00,80,00,6F,28,
68184635,00000120,false,Rx,0,8,20,00,00,00,80,00,66,BB,
68185623,00000110,false,Rx,0,8,79,00,00,00,A0,00,73,B2,
68185625,00000130,false,Rx,0,8,F8,FF,FF,FF,90,00,6D,93,
68186620,00000100,false,Rx,0,8,5A,00,00,00,90,00,60,E1,
68186621,00000120,false,Rx,0,8,20,00,00,00,90,00,6B,7B,
68187635,00000110,false,Rx,0,8,79,00,00,00,B0,00,7E,72,
68187636,00000130,false,Rx,0,8,18,00,00,00,A0,00,7B,C3,
68188655,00000100,false,Rx,0,8,71,00,00,00,A0,00,72,FA,
68188656,00000120,false,Rx,0,8,04,00,00,00,A0,00,79,9F,
68189791,00000110,false,Rx,0,8,79,00,00,00,C0,00,5B,B2,
68189792,00000130,false,Rx,0,8,F8,FF,FF,FF,B0,00,74,53,
68190783,00000100,false,Rx,0,8,71,00,00,00,B0,00,7F,3A,
68190785,00000140,false,Rx,0,8,01,00,FF,FF,60,00,29,EE,
68190785,00000120,false,Rx,0,8,04,00,00,00,B0,00,74,5F,
68191763,00000110,false,Rx,0,8,4B,00,00,00,D0,00,52,60,
68191764,00000130,false,Rx,0,8,18,00,00,00,C0,00,53,C3,
68192753,00000100,false,Rx,0,8,88,00,00,00,C0,00,4E,93,
68192754,00000120,false,Rx,0,8,CB,FF,FF,FF,C0,00,54,50,
68193909,00000110,false,Rx,0,8,4B,00,00,00,E0,00,46,60,
68193911,00000130,false,Rx,0,8,F8,FF,FF,FF,D0,00,5C,53,
68194909,00000100,false,Rx,0,8,9F,00,00,00,D0,00,40,74,
68194910,00000120,false,Rx,0,8,CB,FF,FF,FF,D0,00,59,90,
68194911,00000110,false,Rx,0,8,79,00,00,00,F0,00,4F,B2,
68196019,00000050,false,Rx,0,6,41,5C,FF,FB,5F,FF,00,00,
68196020,00000130,false,Rx,0,8,D8,34,03,00,E3,80,EB,D3,
68196020,00000100,false,Rx,0,8,71,00,00,00,E0,00,43,3A,
68197635,00000120,false,Rx,0,8,04,00,00,00,E0,00,48,5F,
68197636,00000110,false,Rx,0,8,79,00,00,00,00,00,0B,B2,
68198755,00000130,false,Rx,0,8,F8,FF,FF,FF,F0,00,45,93,
68198756,00000100,false,Rx,0,8,5A,00,00,00,F0,00,48,E1,
68199757,00000120,false,Rx,0,8,04,00,00,00,F0,00,45,9F,
68199758,00000110,false,Rx,0,8,62,00,00,00,10,00,05,99,
68200757,00000130,false,Rx,0,8,F8,FF,FF,FF,00,00,01,93,
68200758,00000100,false,Rx,0,8,5A,00,00,00,00,00,0C,E1,
68201910,00000120,false,Rx,0,8,04,00,00,00,00,00,01,9F,
68201911,00000110,false,Rx,0,8,62,00,00,00,20,00,11,99,
68202912,00000130,false,Rx,0,8,D9,FF,FF,FF,10,00,0A,E2,
68202913,00000100,false,Rx,0,8,5A,00,00,00,10,00,01,21,
68203914,00000120,false,Rx,0,8,04,00,00,00,10,00,0C,5F,
68203916,00000110,false,Rx,0,8,90,00,00,00,30,00,09,4B,
68204888,00000130,false,Rx,0,8,F8,FF,FF,FF,20,00,18,53,
68204889,00000100,false,Rx,0,8,43,00,00,00,20,00,17,28,
68205879,00000120,false,Rx,0,8,20,00,00,00,20,00,1E,BB,
68205880,00000110,false,Rx,0,8,90,00,00,00,40,00,2C,8B,
68207012,00000130,false,Rx,0,8,F8,FF,FF,FF,30,00,15,93,
68207013,00000100,false,Rx,0,8,43,00,00,00,30,00,1A,E8,
68208036,00000120,false,Rx,0,8,20,00,00,00,30,00,13,7B,
68208037,00000110,false,Rx,0,8,79,00,00,00,50,00,37,B2,
68209043,00000130,false,Rx,0,8,18,00,00,00,40,00,32,03,
68209044,00000100,false,Rx,0,8,5A,00,00,00,40,00,3D,21,
68210012,00000120,false,Rx,0,8,E7,FF,FF,FF,40,00,32,3C,
68210013,00000110,false,Rx,0,8,79,00,00,00,60,00,23,B2,
68211002,00000130,false,Rx,0,8,37,00,00,00,50,00,38,5C,
68211003,00000100,false,Rx,0,8,71,00,00,00,50,00,36,FA,
68211004,00000140,false,Rx,0,8,01,00,FF,FF,70,00,24,2E,
68212162,00000120,false,Rx,0,8,E7,FF,FF,FF,50,00,3F,FC,
68212163,00000110,false,Rx,0,8,34,00,00,00,70,00,21,AF,
68213131,00000130,false,Rx,0,8,F8,FF,FF,FF,60,00,29,93,
68213132,00000100,false,Rx,0,8,88,00,00,00,60,00,36,93,
68214132,00000120,false,Rx,0,8,CB,FF,FF,FF,60,00,2C,50,
68214134,00000110,false,Rx,0,8,34,00,00,00,80,00,65,AF,
68215128,00000130,false,Rx,0,8,F8,FF,FF,FF,70,00,24,53,
68215130,00000100,false,Rx,0,8,9F,00,00,00,70,00,38,74,
68215130,00000120,false,Rx,0,8,CB,FF,FF,FF,70,00,21,90,
68216385,00000110,false,Rx,0,8,4B,00,00,00,90,00,63,A0,
68216387,00000050,false,Rx,0,6,41,5C,FF,FB,5F,FF,00,00,
68216387,00000130,false,Rx,0,8,EB,95,FF,FF,83,80,7B,A9,
68217385,00000100,false,Rx,0,8,71,00,00,00,80,00,6B,3A,
68217387,00000120,false,Rx,0,8,04,00,00,00,80,00,60,5F,
68218533,00000110,false,Rx,0,8,4B,00,00,00,A0,00,77,A0,
68218534,00000130,false,Rx,0,8,95,00,00,00,90,00,71,1E,
68219505,00000100,false,Rx,0,8,71,00,00,00,90,00,66,FA,
68219506,00000120,false,Rx,0,8,04,00,00,00,90,00,6D,9F,
68220505,00000110,false,Rx,0,8,62,00,00,00,B0,00,7D,99,
68220507,00000130,false,Rx,0,8,F8,FF,FF,FF,A0,00,79,93,
68221624,00000100,false,Rx,0,8,5A,00,00,00,A0,00,74,E1,
68221625,00000120,false,Rx,0,8,04,00,00,00,A0,00,79,9F,
68222619,00000110,false,Rx,0,8,62,00,00,00,C0,00,58,59,
68222621,00000130,false,Rx,0,8,D9,FF,FF,FF,B0,00,72,E2,
68223618,00000100,false,Rx,0,8,43,00,00,00,B0,00,7B,28,
68223620,00000120,false,Rx,0,8,04,00,00,00,B0,00,74,5F,
68224613,00000110,false,Rx,0,8,90,00,00,00,D0,00,40,8B,
68224614,00000130,false,Rx,0,8,D9,FF,FF,FF,C0,00,57,22,
68225728,00000100,false,Rx,0,8,43,00,00,00,C0,00,5E,E8,
68225729,00000120,false,Rx,0,8,20,00,00,00,C0,00,57,7B,
68226727,00000110,false,Rx,0,8,90,00,00,00,E0,00,54,8B,
68226727,00000130,false,Rx,0,8,F8,FF,FF,FF,D0,00,5C,53,
68227724,00000100,false,Rx,0,8,71,00,00,00,D0,00,57,3A,
68227725,00000120,false,Rx,0,8,20,00,00,00,D0,00,5A,BB,
68228725,00000110,false,Rx,0,8,62,00,00,00,F0,00,4C,59,
68228726,00000130,false,Rx,0,8,18,00,00,00,E0,00,4A,03,
68229849,00000100,false,Rx,0,8,5A,00,00,00,E0,00,45,21,
68229850,00000120,false,Rx,0,8,04,00,00,00,E0,00,48,5F,
68230852,00000110,false,Rx,0,8,62,00,00,00,00,00,08,59,
68230853,00000130,false,Rx,0,8,B9,FF,FF,FF,F0,00,4A,82,
68231852,00000100,false,Rx,0,8,88,00,00,00,F0,00,5A,93,
68231852,00000140,false,Rx,0,8,01,00,FF,FF,80,00,60,2E,
68231853,00000120,false,Rx,0,8,04,00,00,00,F0,00,45,9F,
68232852,00000110,false,Rx,0,8,4B,00,00,00,10,00,02,60,
68232853,00000130,false,Rx,0,8,F8,FF,FF,FF,00,00,01,93,
68233852,00000100,false,Rx,0,8,9F,00,00,00,00,00,1D,B4,
68233853,00000120,false,Rx,0,8,CB,FF,FF,FF,00,00,04,50,
68234977,00000110,false,Rx,0,8,4B,00,00,00,20,00,16,60,
68234978,00000130,false,Rx,0,8,F8,FF,FF,FF,10,00,0C,53,
68235977,00000100,false,Rx,0,8,88,00,00,00,10,00,13,53,
68235977,00000120,false,Rx,0,8,CB,FF,FF,FF,10,00,09,90,
68235978,00000110,false,Rx,0,8,4B,00,00,00,30,00,1B,A0,
68237102,00000050,false,Rx,0,6,41,5C,FF,FB,5F,FF,00,00,
68237103,00000130,false,Rx,0,8,2C,BA,F5,FF,23,80,C5,00,
68237104,00000100,false,Rx,0,8,71,00,00,00,20,00,13,3A,
68238727,00000120,false,Rx,0,8,04,00,00,00,20,00,18,5F,
68238728,00000110,false,Rx,0,8,4B,00,00,00,40,00,3E,60,
68238729,00000210,false,Rx,0,8,75,69,00,05,06,5F,01,03,
68239851,00000130,false,Rx,0,8,95,00,00,00,30,00,09,1E,
68239852,00000100,false,Rx,0,8,5A,00,00,00,30,00,18,E1,
68240852,00000120,false,Rx,0,8,04,00,00,00,30,00,15,9F,
68240852,00000110,false,Rx,0,8,62,00,00,00,50,00,34,59,
68241852,00000130,false,Rx,0,8,F8,FF,FF,FF,40,00,30,53,
68241853,00000100,false,Rx,0,8,5A,00,00,00,40,00,3D,21,
68242851,00000120,false,Rx,0,8,20,00,00,00,40,00,36,BB,
68242852,00000110,false,Rx,0,8,62,00,00,00,60,00,20,59,
68243976,00000130,false,Rx,0,8,18,00,00,00,50,00,3F,C3,
68243977,00000100,false,Rx,0,8,43,00,00,00,50,00,32,E8,
68244976,00000120,false,Rx,0,8,20,00,00,00,50,00,3B,7B,
68244977,00000110,false,Rx,0,8,90,00,00,00,70,00,38,8B,
68245976,00000130,false,Rx,0,8,18,00,00,00,60,00,2B,C3,
68245977,00000100,false,Rx,0,8,43,00,00,00,60,00,26,E8,
68246977,00000120,false,Rx,0,8,20,00,00,00,60,00,2F,7B,
68246977,00000110,false,Rx,0,8,90,00,00,00,80,00,7C,8B,
68248102,00000130,false,Rx,0,8,F8,FF,FF,FF,70,00,24,53,
68248103,00000100,false,Rx,0,8,71,00,00,00,70,00,2F,3A,
68249102,00000120,false,Rx,0,8,20,00,00,00,70,00,22,BB,
68249103,00000110,false,Rx,0,8,62,00,00,00,90,00,64,59,
68250102,00000130,false,Rx,0,8,18,00,00,00,80,00,62,03,
68250103,00000100,false,Rx,0,8,71,00,00,00,80,00,6B,3A,
68251101,00000120,false,Rx,0,8,E7,FF,FF,FF,80,00,62,3C,
68251103,00000110,false,Rx,0,8,62,00,00,00,A0,00,70,59,
68252101,00000130,false,Rx,0,8,F8,FF,FF,FF,90,00,6D,93,
68252101,00000100,false,Rx,0,8,88,00,00,00,90,00,72,93,
68252102,00000140,false,Rx,0,8,01,00,FF,FF,90,00,6D,EE,
68253226,00000120,false,Rx,0,8,E7,FF,FF,FF,90,00,6F,FC,
68253227,00000110,false,Rx,0,8,34,00,00,00,B0,00,71,AF,
68254226,00000130,false,Rx,0,8,F8,FF,FF,FF,A0,00,79,93,
68254227,00000100,false,Rx,0,8,9F,00,00,00,A0,00,65,B4,
68255226,00000120,false,Rx,0,8,CB,FF,FF,FF,A0,00,7C,50,
68255227,00000110,false,Rx,0,8,34,00,00,00,C0,00,54,6F,
68256226,00000130,false,Rx,0,8,F8,FF,FF,FF,B0,00,74,53,
68256227,00000100,false,Rx,0,8,71,00,00,00,B0,00,7F,3A,
68256228,00000120,false,Rx,0,8,CB,FF,FF,FF,B0,00,71,90,
68257476,00000110,false,Rx,0,8,90,00,00,00,D0,00,40,8B,
68257477,00000050,false,Rx,0,6,41,5C,FF,FB,5F,FF,00,00,
68257477,00000130,false,Rx,0,8,4D,21,00,00,C3,80,E2,91,
68258611,00000100,false,Rx,0,8,5A,00,00,00,C0,00,5C,E1,
68258611,00000120,false,Rx,0,8,04,00,00,00,C0,00,51,9F,
68259612,00000110,false,Rx,0,8,90,00,00,00,E0,00,54,8B,
68259612,00000130,false,Rx,0,8,B9,FF,FF,FF,D0,00,53,42,
68260610,00000100,false,Rx,0,8,71,00,00,00,D0,00,57,3A,
68260611,00000120,false,Rx,0,8,04,00,00,00,D0,00,5C,5F,
68261726,00000110,false,Rx,0,8,79,00,00,00,F0,00,4F,B2,
68261727,00000170,false,Rx,0,8,00,00,00,54,50,81,05,9E,
68261728,00000130,false,Rx,0,8,D9,FF,FF,FF,E0,00,4E,E2,
68262726,00000100,false,Rx,0,8,5A,00,00,00,E0,00,45,21,
68262727,00000120,false,Rx,0,8,20,00,00,00,E0,00,4E,BB,
68263726,00000110,false,Rx,0,8,79,00,00,00,00,00,0B,B2,
68263727,00000130,false,Rx,0,8,F8,FF,FF,FF,F0,00,45,93,
68264725,00000100,false,Rx,0,8,43,00,00,00,F0,00,4A,E8,
68264726,00000120,false,Rx,0,8,20,00,00,00,F0,00,43,7B,
68265725,00000110,false,Rx,0,8,79,00,00,00,10,00,06,72,
68265726,00000130,false,Rx,0,8,F8,FF,FF,FF,00,00,01,93,
68266849,00000100,false,Rx,0,8,5A,00,00,00,00,00,0C,E1,
68266850,00000120,false,Rx,0,8,20,00,00,00,00,00,07,7B,
68267850,00000110,false,Rx,0,8,79,00,00,00,20,00,12,72,
68267851,00000130,false,Rx,0,8,18,00,00,00,10,00,0E,03,
68268889,00000100,false,Rx,0,8,5A,00,00,00,10,00,01,21,
68268890,00000120,false,Rx,0,8,20,00,00,00,10,00,0A,BB,
68269890,00000110,false,Rx,0,8,79,00,00,00,30,00,1F,B2,
68269891,00000130,false,Rx,0,8,F8,FF,FF,FF,20,00,18,53,
68271017,00000100,false,Rx,0,8,71,00,00,00,20,00,13,3A,
68271018,00000120,false,Rx,0,8,04,00,00,00,20,00,18,5F,
68272015,00000110,false,Rx,0,8,79,00,00,00,40,00,3A,72,
68272017,00000130,false,Rx,0,8,F8,FF,FF,FF,30,00,15,93,
68273006,00000100,false,Rx,0,8,71,00,00,00,30,00,1E,FA,
68273008,00000140,false,Rx,0,8,01,00,FF,FF,A0,00,79,EE,
68273008,00000120,false,Rx,0,8,04,00,00,00,30,00,15,9F,
68274006,00000110,false,Rx,0,8,34,00,00,00,50,00,38,6F,
68274007,00000130,false,Rx,0,8,D9,FF,FF,FF,40,00,36,E2,
68275127,00000100,false,Rx,0,8,9F,00,00,00,40,00,2C,74,
68275128,00000120,false,Rx,0,8,CB,FF,FF,FF,40,00,35,90,
68276130,00000110,false,Rx,0,8,34,00,00,00,60,00,2C,6F,
68276131,00000130,false,Rx,0,8,18,00,00,00,50,00,3F,C3,
68277100,00000100,false,Rx,0,8,71,00,00,00,50,00,36,FA,
68277102,00000120,false,Rx,0,8,CB,FF,FF,FF,50,00,38,50,
68277104,00000110,false,Rx,0,8,90,00,00,00,70,00,38,8B,
68278337,00000050,false,Rx,0,6,41,5C,FF,FB,5F,FF,00,00,
68278338,00000130,false,Rx,0,8,D8,34,03,00,63,80,8A,13,
68278339,00000100,false,Rx,0,8,71,00,00,00,60,00,22,FA,
68279880,00000120,false,Rx,0,8,04,00,00,00,60,00,29,9F,
68279881,00000110,false,Rx,0,8,90,00,00,00,80,00,7C,8B,
68281003,00000130,false,Rx,0,8,F8,FF,FF,FF,70,00,24,53,
68281005,00000100,false,Rx,0,8,5A,00,00,00,70,00,29,21,
68282004,00000120,false,Rx,0,8,04,00,00,00,70,00,24,5F,
68282005,00000110,false,Rx,0,8,79,00,00,00,90,00,67,B2,
68283002,00000130,false,Rx,0,8,37,00,00,00,80,00,65,9C,
68283003,00000100,false,Rx,0,8,5A,00,00,00,80,00,6D,21,
68284128,00000120,false,Rx,0,8,3D,00,00,00,80,00,65,36,
68284129,00000110,false,Rx,0,8,79,00,00,00,A0,00,73,B2,
68285127,00000130,false,Rx,0,8,18,00,00,00,90,00,6F,C3,
68285129,00000100,false,Rx,0,8,43,00,00,00,90,00,62,E8,
68286128,00000120,false,Rx,0,8,3D,00,00,00,90,00,68,F6,
68286130,00000110,false,Rx,0,8,62,00,00,00,B0,00,7D,99,
68287128,00000130,false,Rx,0,8,18,00,00,00,A0,00,7B,C3,
68287129,00000100,false,Rx,0,8,5A,00,00,00,A0,00,74,E1,
68288129,00000120,false,Rx,0,8,04,00,00,00,A0,00,79,9F,
68288130,00000110,false,Rx,0,8,62,00,00,00,C0,00,58,59,
68289254,00000130,false,Rx,0,8,F8,FF,FF,FF,B0,00,74,53,
68289255,00000100,false,Rx,0,8,71,00,00,00,B0,00,7F,3A,
68290342,00000120,false,Rx,0,8,04,00,00,00,B0,00,74,5F,
68290342,00000110,false,Rx,0,8,62,00,00,00,D0,00,55,99,
68291252,00000130,false,Rx,0,8,F8,FF,FF,FF,C0,00,51,93,
68291254,00000100,false,Rx,0,8,88,00,00,00,C0,00,4E,93,
68292252,00000120,false,Rx,0,8,CB,FF,FF,FF,C0,00,54,50,
68292253,00000110,false,Rx,0,8,62,00,00,00,E0,00,41,99,
68293378,00000130,false,Rx,0,8,18,00,00,00,D0,00,5E,03,
68293379,00000100,false,Rx,0,8,9F,00,00,00,D0,00,40,74,
68293380,00000140,false,Rx,0,8,01,00,FF,FF,B0,00,74,2E,
68294379,00000120,false,Rx,0,8,CB,FF,FF,FF,D0,00,59,90,
68294380,00000110,false,Rx,0,8,1D,00,00,00,F0,00,47,96,
68295376,00000130,false,Rx,0,8,18,00,00,00,E0,00,4A,03,
68295378,00000100,false,Rx,0,8,88,00,00,00,E0,00,57,53,
68296376,00000120,false,Rx,0,8,E7,FF,FF,FF,E0,00,4A,3C,
68296377,00000110,false,Rx,0,8,1D,00,00,00,00,00,03,96,
68297503,00000130,false,Rx,0,8,18,00,00,00,F0,00,47,C3,
68297504,00000100,false,Rx,0,8,71,00,00,00,F0,00,4E,FA,
68297504,00000120,false,Rx,0,8,E7,FF,FF,FF,F0,00,47,FC,
68298613,00000110,false,Rx,0,8,62,00,00,00,10,00,05,99,
68298615,00000050,false,Rx,0,6,41,5C,FF,FB,5F,FF,00,00,
68298615,00000130,false,Rx,0,8,EB,95,FF,FF,03,80,1A,69,
68299749,00000100,false,Rx,0,8,71,00,00,00,00,00,0A,FA,
68299750,00000120,false,Rx,0,8,04,00,00,00,00,00,01,9F,
68300749,00000110,false,Rx,0,8,62,00,00,00,20,00,11,99,
68300750,00000130,false,Rx,0,8,95,00,00,00,10,00,10,DE,
68301750,00000100,false,Rx,0,8,5A,00,00,00,10,00,01,21,
68301751,00000120,false,Rx,0,8,04,00,00,00,10,00,0C,5F,
68302876,00000110,false,Rx,0,8,90,00,00,00,30,00,09,4B,
68302877,00000130,false,Rx,0,8,D9,FF,FF,FF,20,00,1E,E2,
68303875,00000100,false,Rx,0,8,43,00,00,00,20,00,17,28,
68303876,00000120,false,Rx,0,8,20,00,00,00,20,00,1E,BB,
68304875,00000110,false,Rx,0,8,90,00,00,00,40,00,2C,8B,
68304877,00000130,false,Rx,0,8,F8,FF,FF,FF,30,00,15,93,
68305871,00000100,false,Rx,0,8,43,00,00,00,30,00,1A,E8,
68305872,00000120,false,Rx,0,8,20,00,00,00,30,00,13,7B,
68306873,00000110,false,Rx,0,8,62,00,00,00,50,00,34,59,
68306874,00000130,false,Rx,0,8,F8,FF,FF,FF,40,00,30,53,
68307998,00000100,false,Rx,0,8,5A,00,00,00,40,00,3D,21,
68307999,00000120,false,Rx,0,8,04,00,00,00,40,00,30,5F,
68308998,00000110,false,Rx,0,8,62,00,00,00,60,00,20,59,
68308999,00000130,false,Rx,0,8,F8,FF,FF,FF,50,00,3D,93,
68309984,00000100,false,Rx,0,8,71,00,00,00,50,00,36,FA,
68309985,00000120,false,Rx,0,8,04,00,00,00,50,00,3D,9F,
68311002,00000110,false,Rx,0,8,4B,00,00,00,70,00,2A,60,
68311003,00000130,false,Rx,0,8,F8,FF,FF,FF,60,00,29,93,
68312128,00000100,false,Rx,0,8,88,00,00,00,60,00,36,93,
68312129,00000120,false,Rx,0,8,AE,FF,FF,FF,60,00,25,A5,
68313128,00000110,false,Rx,0,8,4B,00,00,00,80,00,6E,60,
68313130,00000130,false,Rx,0,8,F8,FF,FF,FF,70,00,24,53,
68314127,00000100,false,Rx,0,8,B6,00,00,00,70,00,3F,8D,
68314128,00000140,false,Rx,0,8,01,00,FF,FF,C0,00,51,EE,
68314128,00000120,false,Rx,0,8,AE,FF,FF,FF,70,00,28,65,
68315125,00000110,false,Rx,0,8,34,00,00,00,90,00,68,6F,
68315126,00000130,false,Rx,0,8,18,00,00,00,80,00,62,03,
68316251,00000100,false,Rx,0,8,88,00,00,00,80,00,7F,53,
68316252,00000120,false,Rx,0,8,04,00,00,00,80,00,60,5F,
68317283,00000110,false,Rx,0,8,34,00,00,00,A0,00,7C,6F,
68317284,00000130,false,Rx,0,8,18,00,00,00,90,00,6F,C3,
68318227,00000100,false,Rx,0,8,71,00,00,00,90,00,66,FA,
68318228,00000120,false,Rx,0,8,04,00,00,00,90,00,6D,9F,
68318229,00000110,false,Rx,0,8,62,00,00,00,B0,00,7D,99,
68319370,00000050,false,Rx,0,6,41,5C,FF,FB,5F,FF,00,00,
68319371,00000130,false,Rx,0,8,4C,BA,F5,FF,A3,80,AD,60,
68319372,00000100,false,Rx,0,8,71,00,00,00,A0,00,72,FA,
68321127,00000120,false,Rx,0,8,04,00,00,00,A0,00,79,9F,
68321128,00000110,false,Rx,0,8,62,00,00,00,C0,00,58,59,
68322128,00000130,false,Rx,0,8,95,00,00,00,B0,00,68,DE,
68322130,00000100,false,Rx,0,8,43,00,00,00,B0,00,7B,28,
68323128,00000120,false,Rx,0,8,04,00,00,00,B0,00,74,5F,
68323129,00000110,false,Rx,0,8,90,00,00,00,D0,00,40,8B,
68324159,00000130,false,Rx,0,8,B9,FF,FF,FF,C0,00,5E,82,
68324161,00000100,false,Rx,0,8,43,00,00,00,C0,00,5E,E8,
68325282,00000120,false,Rx,0,8,20,00,00,00,C0,00,57,7B,
68325283,00000110,false,Rx,0,8,90,00,00,00,E0,00,54,8B,
68326280,00000130,false,Rx,0,8,F8,FF,FF,FF,D0,00,5C,53,
68326281,00000100,false,Rx,0,8,5A,00,00,00,D0,00,51,21,
68327251,00000120,false,Rx,0,8,20,00,00,00,D0,00,5A,BB,
68327252,00000110,false,Rx,0,8,79,00,00,00,F0,00,4F,B2,
68328260,00000130,false,Rx,0,8,D9,FF,FF,FF,E0,00,4E,E2,
68328262,00000100,false,Rx,0,8,71,00,00,00,E0,00,43,3A,
68329408,00000120,false,Rx,0,8,04,00,00,00,E0,00,48,5F,
68329410,00000110,false,Rx,0,8,79,00,00,00,00,00,0B,B2,
68330404,00000130,false,Rx,0,8,18,00,00,00,F0,00,47,C3,
68330405,00000100,false,Rx,0,8,71,00,00,00,F0,00,4E,FA,
68331409,00000120,false,Rx,0,8,04,00,00,00,F0,00,45,9F,
68331411,00000110,false,Rx,0,8,4B,00,00,00,10,00,02,60,
68332383,00000130,false,Rx,0,8,D9,FF,FF,FF,00,00,07,22,
68332384,00000100,false,Rx,0,8,88,00,00,00,00,00,1E,93,
68333532,00000120,false,Rx,0,8,CB,FF,FF,FF,00,00,04,50,
68333533,00000110,false,Rx,0,8,4B,00,00,00,20,00,16,60,
68334529,00000130,false,Rx,0,8,F8,FF,FF,FF,10,00,0C,53,
68334530,00000100,false,Rx,0,8,9F,00,00,00,10,00,10,74,
68334531,00000140,false,Rx,0,8,01,00,FF,FF,D0,00,5C,2E,
68335536,00000120,false,Rx,0,8,CB,FF,FF,FF,10,00,09,90,
68335538,00000110,false,Rx,0,8,4B,00,00,00,30,00,1B,A0,
68336510,00000130,false,Rx,0,8,37,00,00,00,20,00,1D,9C,
68336511,00000100,false,Rx,0,8,71,00,00,00,20,00,13,3A,
68337509,00000120,false,Rx,0,8,04,00,00,00,20,00,18,5F,
68337510,00000110,false,Rx,0,8,4B,00,00,00,40,00,3E,60,
68338627,00000130,false,Rx,0,8,18,00,00,00,30,00,17,C3,
68338628,00000100,false,Rx,0,8,71,00,00,00,30,00,1E,FA,
68338629,00000120,false,Rx,0,8,04,00,00,00,30,00,15,9F,
68339761,00000110,false,Rx,0,8,90,00,00,00,50,00,21,4B,
68339763,00000050,false,Rx,0,6,41,5C,FF,FB,5F,FF,00,00,
68339763,00000130,false,Rx,0,8,6C,21,00,00,43,80,85,E0,
68340906,00000100,false,Rx,0,8,5A,00,00,00,40,00,3D,21,
68340908,00000120,false,Rx,0,8,20,00,00,00,40,00,36,BB,
68341887,00000110,false,Rx,0,8,90,00,00,00,60,00,35,4B,
68341888,00000130,false,Rx,0,8,F8,FF,FF,FF,50,00,3D,93,
68342897,00000100,false,Rx,0,8,5A,00,00,00,50,00,30,E1,
68342898,00000120,false,Rx,0,8,20,00,00,00,50,00,3B,7B,
68344029,00000110,false,Rx,0,8,A7,00,00,00,70,00,3C,CC,
68344031,00000130,false,Rx,0,8,F8,FF,FF,FF,60,00,29,93,
68345005,00000100,false,Rx,0,8,43,00,00,00,60,00,26,E8,
68345007,00000120,false,Rx,0,8,20,00,00,00,60,00,2F,7B,
68346110,00000110,false,Rx,0,8,A7,00,00,00,80,00,78,CC,
68346112,00000130,false,Rx,0,8,F8,FF,FF,FF,70,00,24,53,
68347025,00000100,false,Rx,0,8,71,00,00,00,70,00,2F,3A,
68347026,00000120,false,Rx,0,8,20,00,00,00,70,00,22,BB,
68348132,00000110,false,Rx,0,8,79,00,00,00,90,00,67,B2,
68348133,00000130,false,Rx,0,8,18,00,00,00,80,00,62,03,
68349159,00000100,false,Rx,0,8,71,00,00,00,80,00,6B,3A,
68349161,00000120,false,Rx,0,8,E7,FF,FF,FF,80,00,62,3C,
68350135,00000110,false,Rx,0,8,79,00,00,00,A0,00,73,B2,
68350136,00000130,false,Rx,0,8,F8,FF,FF,FF,90,00,6D,93,
68351136,00000100,false,Rx,0,8,71,00,00,00,90,00,66,FA,
68351137,00000120,false,Rx,0,8,E7,FF,FF,FF,90,00,6F,FC,
68352128,00000110,false,Rx,0,8,4B,00,00,00,B0,00,7A,60,
68352129,00000130,false,Rx,0,8,F8,FF,FF,FF,A0,00,79,93,
68353279,00000100,false,Rx,0,8,9F,00,00,00,A0,00,65,B4,
68353280,00000120,false,Rx,0,8,CB,FF,FF,FF,A0,00,7C,50,
68354262,00000110,false,Rx,0,8,4B,00,00,00,C0,00,5F,A0,
68354264,00000130,false,Rx,0,8,F8,FF,FF,FF,B0,00,74,53,
68355261,00000100,false,Rx,0,8,88,00,00,00,B0,00,6B,53,
68355262,00000140,false,Rx,0,8,01,00,FF,FF,E0,00,48,2E,
68355262,00000120,false,Rx,0,8,CB,FF,FF,FF,B0,00,71,90,
68356276,00000110,false,Rx,0,8,4B,00,00,00,D0,00,52,60,
68356277,00000130,false,Rx,0,8,F8,FF,FF,FF,C0,00,51,93,
68357409,00000100,false,Rx,0,8,88,00,00,00,C0,00,4E,93,
68357410,00000120,false,Rx,0,8,E7,FF,FF,FF,C0,00,53,FC,
68358411,00000110,false,Rx,0,8,4B,00,00,00,E0,00,46,60,
68358412,00000130,false,Rx,0,8,18,00,00,00,D0,00,5E,03,
68359384,00000100,false,Rx,0,8,5A,00,00,00,D0,00,51,21,
68359386,00000120,false,Rx,0,8,E7,FF,FF,FF,D0,00,5E,3C,
68359386,00000110,false,Rx,0,8,90,00,00,00,F0,00,59,4B,
68360631,00000050,false,Rx,0,6,41,5C,FF,FB,5F,FF,00,00,
68360633,00000130,false,Rx,0,8,B8,34,03,00,E3,80,E2,73,
68360633,00000100,false,Rx,0,8,43,00,00,00,E0,00,47,28,
68362135,00000120,false,Rx,0,8,20,00,00,00,E0,00,4E,BB,
68362136,00000110,false,Rx,0,8,90,00,00,00,00,00,1D,4B,
68363350,00000130,false,Rx,0,8,D9,FF,FF,FF,F0,00,43,22,
68363351,00000100,false,Rx,0,8,43,00,00,00,F0,00,4A,E8,
68364261,00000120,false,Rx,0,8,20,00,00,00,F0,00,43,7B,
68364263,00000110,false,Rx,0,8,90,00,00,00,10,00,10,8B,
68364263,00000170,false,Rx,0,8,00,00,00,55,50,81,05,03,
68365382,00000130,false,Rx,0,8,D9,FF,FF,FF,00,00,07,22,
68365383,00000100,false,Rx,0,8,43,00,00,00,00,00,0E,E8,
68366406,00000120,false,Rx,0,8,04,00,00,00,00,00,01,9F,
68366407,00000110,false,Rx,0,8,90,00,00,00,20,00,04,8B,
68367387,00000130,false,Rx,0,8,F8,FF,FF,FF,10,00,0C,53,
68367388,00000100,false,Rx,0,8,71,00,00,00,10,00,07,3A,
68368383,00000120,false,Rx,0,8,04,00,00,00,10,00,0C,5F,
68368384,00000110,false,Rx,0,8,79,00,00,00,30,00,1F,B2,
68369374,00000130,false,Rx,0,8,F8,FF,FF,FF,20,00,18,53,
68369375,00000100,false,Rx,0,8,5A,00,00,00,20,00,15,21,
68370530,00000120,false,Rx,0,8,04,00,00,00,20,00,18,5F,
68370531,00000110,false,Rx,0,8,79,00,00,00,40,00,3A,72,
68371533,00000130,false,Rx,0,8,F8,FF,FF,FF,30,00,15,93,
68371535,00000100,false,Rx,0,8,88,00,00,00,30,00,0A,93,
68372507,00000120,false,Rx,0,8,04,00,00,00,30,00,15,9F,
68372508,00000110,false,Rx,0,8,34,00,00,00,50,00,38,6F,
68373500,00000130,false,Rx,0,8,F8,FF,FF,FF,40,00,30,53,
68373501,00000100,false,Rx,0,8,9F,00,00,00,40,00,2C,74,
68374633,00000120,false,Rx,0,8,CB,FF,FF,FF,40,00,35,90,
68374634,00000110,false,Rx,0,8,34,00,00,00,60,00,2C,6F,
68375632,00000130,false,Rx,0,8,F8,FF,FF,FF,50,00,3D,93,
68375633,00000100,false,Rx,0,8,88,00,00,00,50,00,22,93,
68375633,00000140,false,Rx,0,8,01,00,FF,FF,F0,00,45,EE,
68376631,00000120,false,Rx,0,8,CB,FF,FF,FF,50,00,38,50,
68376632,00000110,false,Rx,0,8,4B,00,00,00,70,00,2A,60,
68377622,00000130,false,Rx,0,8,D9,FF,FF,FF,60,00,2F,22,
68377623,00000100,false,Rx,0,8,71,00,00,00,60,00,22,FA,
68378786,00000120,false,Rx,0,8,04,00,00,00,60,00,29,9F,
68378787,00000110,false,Rx,0,8,4B,00,00,00,80,00,6E,60,
68379778,00000130,false,Rx,0,8,F8,FF,FF,FF,70,00,24,53,
68379779,00000100,false,Rx,0,8,71,00,00,00,70,00,2F,3A,
68379780,00000120,false,Rx,0,8,04,00,00,00,70,00,24,5F,
68380877,00000110,false,Rx,0,8,62,00,00,00,90,00,64,59,
68380878,00000050,false,Rx,0,6,41,5C,FF,FB,5F,FF,00,00,
68380879,00000130,false,Rx,0,8,EB,95,FF,FF,83,80,7B,A9,
68382032,00000100,false,Rx,0,8,5A,00,00,00,80,00,6D,21,
68382033,00000120,false,Rx,0,8,20,00,00,00,80,00,66,BB,
68383009,00000110,false,Rx,0,8,62,00,00,00,A0,00,70,59,
68383011,00000130,false,Rx,0,8,B5,00,00,00,90,00,76,7E,
68384002,00000100,false,Rx,0,8,43,00,00,00,90,00,62,E8,
68384004,00000120,false,Rx,0,8,20,00,00,00,90,00,6B,7B,
68385155,00000110,false,Rx,0,8,79,00,00,00,B0,00,7E,72,
68385157,00000130,false,Rx,0,8,18,00,00,00,A0,00,7B,C3,
68386156,00000100,false,Rx,0,8,5A,00,00,00,A0,00,74,E1,
68386158,00000120,false,Rx,0,8,04,00,00,00,A0,00,79,9F,
68387135,00000110,false,Rx,0,8,79,00,00,00,C0,00,5B,B2,
68387137,00000130,false,Rx,0,8,F8,FF,FF,FF,B0,00,74,53,
68388135,00000100,false,Rx,0,8,5A,00,00,00,B0,00,79,21,
68388136,00000120,false,Rx,0,8,04,00,00,00,B0,00,74,5F,
68389280,00000110,false,Rx,0,8,62,00,00,00,D0,00,55,99,
68389281,00000130,false,Rx,0,8,18,00,00,00,C0,00,53,C3,
68390249,00000100,false,Rx,0,8,71,00,00,00,C0,00,5A,FA,
68390251,00000120,false,Rx,0,8,E7,FF,FF,FF,C0,00,53,FC,
68391252,00000110,false,Rx,0,8,62,00,00,00,E0,00,41,99,
68391253,00000130,false,Rx,0,8,18,00,00,00,D0,00,5E,03,
68392249,00000100,false,Rx,0,8,9F,00,00,00,D0,00,40,74,
68392251,00000120,false,Rx,0,8,E7,FF,FF,FF,D0,00,5E,3C,
68393387,00000110,false,Rx,0,8,34,00,00,00,F0,00,40,6F,
68393388,00000130,false,Rx,0,8,F8,FF,FF,FF,E0,00,48,53,
68394411,00000100,false,Rx,0,8,B6,00,00,00,E0,00,53,8D,
68394413,00000120,false,Rx,0,8,E7,FF,FF,FF,E0,00,4A,3C,
68395387,00000110,false,Rx,0,8,34,00,00,00,00,00,04,6F,
68395388,00000130,false,Rx,0,8,D9,FF,FF,FF,F0,00,43,22,
68396385,00000100,false,Rx,0,8,88,00,00,00,F0,00,5A,93,
68396386,00000140,false,Rx,0,8,01,00,FF,FF,00,00,01,EE,
68396386,00000120,false,Rx,0,8,E7,FF,FF,FF,F0,00,47,FC,
68397529,00000110,false,Rx,0,8,62,00,00,00,10,00,05,99,
68397531,00000130,false,Rx,0,8,D9,FF,FF,FF,00,00,07,22,
68398531,00000100,false,Rx,0,8,71,00,00,00,00,00,0A,FA,
68398532,00000120,false,Rx,0,8,04,00,00,00,00,00,01,9F,
68399510,00000110,false,Rx,0,8,62,00,00,00,20,00,11,99,
68399511,00000130,false,Rx,0,8,F8,FF,FF,FF,10,00,0C,53,
68400510,00000100,false,Rx,0,8,5A,00,00,00,10,00,01,21,
68400511,00000120,false,Rx,0,8,04,00,00,00,10,00,0C,5F,
68400512,00000110,false,Rx,0,8,79,00,00,00,30,00,1F,B2,
68401778,00000050,false,Rx,0,6,41,5C,FF,FB,5F,FF,00,00,
68401779,00000130,false,Rx,0,8,0D,BA,F5,FF,23,80,C3,B1,
68401780,00000100,false,Rx,0,8,43,00,00,00,20,00,17,28,
68403405,00000120,false,Rx,0,8,20,00,00,00,20,00,1E,BB,
68403406,00000110,false,Rx,0,8,79,00,00,00,40,00,3A,72,
68404384,00000130,false,Rx,0,8,95,00,00,00,30,00,09,1E,
68404385,00000100,false,Rx,0,8,43,00,00,00,30,00,1A,E8,
68405401,00000120,false,Rx,0,8,20,00,00,00,30,00,13,7B,
68405402,00000110,false,Rx,0,8,90,00,00,00,50,00,21,4B,
68406537,00000130,false,Rx,0,8,D9,FF,FF,FF,40,00,36,E2,
68406538,00000100,false,Rx,0,8,5A,00,00,00,40,00,3D,21,
68407531,00000120,false,Rx,0,8,04,00,00,00,40,00,30,5F,
68407532,00000110,false,Rx,0,8,90,00,00,00,60,00,35,4B,
68408501,00000130,false,Rx,0,8,B9,FF,FF,FF,50,00,32,82,
68408503,00000100,false,Rx,0,8,5A,00,00,00,50,00,30,E1,
68409513,00000120,false,Rx,0,8,04,00,00,00,50,00,3D,9F,
68409514,00000110,false,Rx,0,8,79,00,00,00,70,00,2E,72,
68410620,00000130,false,Rx,0,8,18,00,00,00,60,00,2B,C3,
68410622,00000100,false,Rx,0,8,71,00,00,00,60,00,22,FA,
68411623,00000120,false,Rx,0,8,E7,FF,FF,FF,60,00,2B,FC,
68411624,00000110,false,Rx,0,8,79,00,00,00,80,00,6A,72,
68412630,00000130,false,Rx,0,8,F8,FF,FF,FF,70,00,24,53,
68412631,00000100,false,Rx,0,8,88,00,00,00,70,00,3B,53,
68413637,00000120,false,Rx,0,8,E7,FF,FF,FF,70,00,26,3C,
68413638,00000110,false,Rx,0,8,1D,00,00,00,90,00,6F,96,
68414630,00000130,false,Rx,0,8,37,00,00,00,80,00,65,9C,
68414631,00000100,false,Rx,0,8,88,00,00,00,80,00,7F,53,
68415785,00000120,false,Rx,0,8,E7,FF,FF,FF,80,00,62,3C,
68415786,00000110,false,Rx,0,8,1D,00,00,00,A0,00,7B,96,
68416781,00000130,false,Rx,0,8,D9,FF,FF,FF,90,00,6B,22,
68416782,00000100,false,Rx,0,8,88,00,00,00,90,00,72,93,
68416783,00000140,false,Rx,0,8,01,00,FF,FF,10,00,0C,2E,
68417759,00000120,false,Rx,0,8,E7,FF,FF,FF,90,00,6F,FC,
68417760,00000110,false,Rx,0,8,4B,00,00,00,B0,00,7A,60,
68418757,00000130,false,Rx,0,8,18,00,00,00,A0,00,7B,C3,
68418759,00000100,false,Rx,0,8,71,00,00,00,A0,00,72,FA,
68419911,00000120,false,Rx,0,8,04,00,00,00,A0,00,79,9F,
68419913,00000110,false,Rx,0,8,4B,00,00,00,C0,00,5F,A0,
68420908,00000130,false,Rx,0,8,37,00,00,00,B0,00,71,9C,
68420909,00000100,false,Rx,0,8,5A,00,00,00,B0,00,79,21,
68420910,00000120,false,Rx,0,8,04,00,00,00,B0,00,74,5F,
68421999,00000110,false,Rx,0,8,A7,00,00,00,D0,00,44,CC,
68422000,00000050,false,Rx,0,6,41,5C,FF,FB,5F,FF,00,00,
68422001,00000130,false,Rx,0,8,4D,21,00,00,C3,80,E2,91,
68423158,00000100,false,Rx,0,8,43,00,00,00,C0,00,5E,E8,
68423160,00000120,false,Rx,0,8,3D,00,00,00,C0,00,54,F6,
68424132,00000110,false,Rx,0,8,A7,00,00,00,E0,00,50,CC,
68424133,00000130,false,Rx,0,8,F8,FF,FF,FF,D0,00,5C,53,
68425130,00000100,false,Rx,0,8,43,00,00,00,D0,00,53,28,
68425132,00000120,false,Rx,0,8,3D,00,00,00,D0,00,59,36,
68426281,00000110,false,Rx,0,8,79,00,00,00,F0,00,4F,B2,
68426282,00000130,false,Rx,0,8,D9,FF,FF,FF,E0,00,4E,E2,
68427283,00000100,false,Rx,0,8,5A,00,00,00,E0,00,45,21,
68427284,00000120,false,Rx,0,8,04,00,00,00,E0,00,48,5F,
68428261,00000110,false,Rx,0,8,79,00,00,00,00,00,0B,B2,
68428262,00000130,false,Rx,0,8,F8,FF,FF,FF,F0,00,45,93,
68429249,00000100,false,Rx,0,8,71,00,00,00,F0,00,4E,FA,
68429250,00000120,false,Rx,0,8,04,00,00,00,F0,00,45,9F,
68430377,00000110,false,Rx,0,8,62,00,00,00,10,00,05,99,
68430378,00000130,false,Rx,0,8,F8,FF,FF,FF,00,00,01,93,
68431376,00000100,false,Rx,0,8,71,00,00,00,00,00,0A,FA,
68431377,00000120,false,Rx,0,8,E7,FF,FF,FF,00,00,03,FC,
68432378,00000110,false,Rx,0,8,62,00,00,00,20,00,11,99,
68432379,00000130,false,Rx,0,8,F8,FF,FF,FF,10,00,0C,53,
68433508,00000100,false,Rx,0,8,9F,00,00,00,10,00,10,74,
68433510,00000120,false,Rx,0,8,E7,FF,FF,FF,10,00,0E,3C,
68433510,00000110,false,Rx,0,8,1D,00,00,00,30,00,17,96,
68435260,00000130,false,Rx,0,8,18,00,00,00,20,00,1A,03,
68435262,00000100,false,Rx,0,8,9F,00,00,00,20,00,04,74,
68436257,00000120,false,Rx,0,8,E7,FF,FF,FF,20,00,1A,3C,
68436258,00000110,false,Rx,0,8,1D,00,00,00,40,00,32,56,
68437270,00000130,false,Rx,0,8,D9,FF,FF,FF,30,00,13,22,
68437272,00000100,false,Rx,0,8,71,00,00,00,30,00,1E,FA,
68437272,00000140,false,Rx,0,8,01,00,FF,FF,20,00,18,2E,
68438405,00000120,false,Rx,0,8,E7,FF,FF,FF,30,00,17,FC,
68438406,00000110,false,Rx,0,8,62,00,00,00,50,00,34,59,
68439407,00000130,false,Rx,0,8,F8,FF,FF,FF,40,00,30,53,
68439408,00000100,false,Rx,0,8,71,00,00,00,40,00,3B,3A,
68440414,00000120,false,Rx,0,8,E7,FF,FF,FF,40,00,32,3C,
68440415,00000110,false,Rx,0,8,62,00,00,00,60,00,20,59,
68441384,00000130,false,Rx,0,8,18,00,00,00,50,00,3F,C3,
68441385,00000100,false,Rx,0,8,5A,00,00,00,50,00,30,E1,
68441386,00000120,false,Rx,0,8,E7,FF,FF,FF,50,00,3F,FC,
68442632,00000110,false,Rx,0,8,A7,00,00,00,70,00,3C,CC,
68442633,00000050,false,Rx,0,6,41,5C,FF,FB,5F,FF,00,00,
68442634,00000130,false,Rx,0,8,D8,34,03,00,63,80,8A,13,
68443630,00000100,false,Rx,0,8,2C,00,00,00,60,00,2F,B7,
68443632,00000120,false,Rx,0,8,20,00,00,00,60,00,2F,7B,
68444782,00000110,false,Rx,0,8,A7,00,00,00,80,00,78,CC,
68444783,00000130,false,Rx,0,8,F8,FF,FF,FF,70,00,24,53,
68445776,00000100,false,Rx,0,8,5A,00,00,00,70,00,29,21,
68445777,00000120,false,Rx,0,8,20,00,00,00,70,00,22,BB,
68446757,00000110,false,Rx,0,8,79,00,00,00,90,00,67,B2,
68446758,00000130,false,Rx,0,8,18,00,00,00,80,00,62,03,
68447748,00000100,false,Rx,0,8,71,00,00,00,80,00,6B,3A,
68447750,00000120,false,Rx,0,8,04,00,00,00,80,00,60,5F,
68448908,00000110,false,Rx,0,8,79,00,00,00,A0,00,73,B2,
68448910,00000130,false,Rx,0,8,18,00,00,00,90,00,6F,C3,
68449905,00000100,false,Rx,0,8,71,00,00,00,90,00,66,FA,
68449907,00000120,false,Rx,0,8,04,00,00,00,90,00,6D,9F,
68450875,00000110,false,Rx,0,8,62,00,00,00,B0,00,7D,99,
68450876,00000130,false,Rx,0,8,F8,FF,FF,FF,A0,00,79,93,
68451889,00000100,false,Rx,0,8,88,00,00,00,A0,00,66,93,
68451891,00000120,false,Rx,0,8,CB,FF,FF,FF,A0,00,7C,50,
68453001,00000110,false,Rx,0,8,62,00,00,00,C0,00,58,59,
68453003,00000130,false,Rx,0,8,18,00,00,00,B0,00,76,03,
68454009,00000100,false,Rx,0,8,9F,00,00,00,B0,00,68,74,
68454011,00000120,false,Rx,0,8,CB,FF,FF,FF,B0,00,71,90,
68455009,00000110,false,Rx,0,8,1D,00,00,00,D0,00,5E,56,
68455011,00000130,false,Rx,0,8,F8,FF,FF,FF,C0,00,51,93,
68456021,00000100,false,Rx,0,8,71,00,00,00,C0,00,5A,FA,
68456022,00000120,false,Rx,0,8,E7,FF,FF,FF,C0,00,53,FC,
68457159,00000110,false,Rx,0,8,1D,00,00,00,E0,00,4A,56,
68457161,00000130,false,Rx,0,8,F8,FF,FF,FF,D0,00,5C,53,
68458158,00000100,false,Rx,0,8,71,00,00,00,D0,00,57,3A,
68458160,00000140,false,Rx,0,8,01,00,FF,FF,30,00,15,EE,
68458160,00000120,false,Rx,0,8,E7,FF,FF,FF,D0,00,5E,3C,
68459134,00000110,false,Rx,0,8,62,00,00,00,F0,00,4C,59,
68459135,00000130,false,Rx,0,8,F8,FF,FF,FF,E0,00,48,53,
68460147,00000100,false,Rx,0,8,88,00,00,00,E0,00,57,53,
68460149,00000120,false,Rx,0,8,04,00,00,00,E0,00,48,5F,
68461282,00000110,false,Rx,0,8,62,00,00,00,00,00,08,59,
68461284,00000130,false,Rx,0,8,F8,FF,FF,FF,F0,00,45,93,
68462283,00000100,false,Rx,0,8,43,00,00,00,F0,00,4A,E8,
68462285,00000120,false,Rx,0,8,04,00,00,00,F0,00,45,9F,
68462285,00000110,false,Rx,0,8,A7,00,00,00,10,00,14,CC,
68463383,00000050,false,Rx,0,6,41,5C,FF,FB,5F,FF,00,00,
68463385,00000130,false,Rx,0,8,EB,95,FF,FF,03,80,1A,69,
68463385,00000100,false,Rx,0,8,2C,00,00,00,00,00,07,B7,
68465000,00000120,false,Rx,0,8,20,00,00,00,00,00,07,7B,
68465001,00000110,false,Rx,0,8,A7,00,00,00,20,00,00,CC,
68466126,00000130,false,Rx,0,8,B5,00,00,00,10,00,17,BE,
68466127,00000100,false,Rx,0,8,5A,00,00,00,10,00,01,21,
68467136,00000120,false,Rx,0,8,20,00,00,00,10,00,0A,BB,
68467137,00000110,false,Rx,0,8,62,00,00,00,30,00,1C,59,
68467137,00000170,false,Rx,0,8,00,00,00,56,50,81,05,B9,
68468132,00000130,false,Rx,0,8,D9,FF,FF,FF,20,00,1E,E2,
68468134,00000100,false,Rx,0,8,5A,00,00,00,20,00,15,21,
68469126,00000120,false,Rx,0,8,04,00,00,00,20,00,18,5F,
68469127,00000110,false,Rx,0,8,62,00,00,00,40,00,39,99,
68470283,00000130,false,Rx,0,8,F8,FF,FF,FF,30,00,15,93,
68470284,00000100,false,Rx,0,8,71,00,00,00,30,00,1E,FA,
68471289,00000120,false,Rx,0,8,04,00,00,00,30,00,15,9F,
68471291,00000110,false,Rx,0,8,4B,00,00,00,50,00,33,A0,
68472250,00000130,false,Rx,0,8,18,00,00,00,40,00,32,03,
68472252,00000100,false,Rx,0,8,88,00,00,00,40,00,2F,53,
68473252,00000120,false,Rx,0,8,CB,FF,FF,FF,40,00,35,90,
68473253,00000110,false,Rx,0,8,4B,00,00,00,60,00,27,A0,
68474251,00000130,false,Rx,0,8,18,00,00,00,50,00,3F,C3,
68474252,00000100,false,Rx,0,8,9F,00,00,00,50,00,21,B4,
68475375,00000120,false,Rx,0,8,CB,FF,FF,FF,50,00,38,50,
68475377,00000110,false,Rx,0,8,34,00,00,00,70,00,21,AF,
68476376,00000130,false,Rx,0,8,18,00,00,00,60,00,2B,C3,
68476377,00000100,false,Rx,0,8,71,00,00,00,60,00,22,FA,
68477374,00000120,false,Rx,0,8,E7,FF,FF,FF,60,00,2B,FC,
68477375,00000110,false,Rx,0,8,34,00,00,00,80,00,65,AF,
68478374,00000130,false,Rx,0,8,18,00,00,00,70,00,26,03,
68478375,00000100,false,Rx,0,8,88,00,00,00,70,00,3B,53,
68478376,00000140,false,Rx,0,8,01,00,FF,FF,40,00,30,2E,
68479500,00000120,false,Rx,0,8,E7,FF,FF,FF,70,00,26,3C,
68479501,00000110,false,Rx,0,8,62,00,00,00,90,00,64,59,
68480500,00000130,false,Rx,0,8,F8,FF,FF,FF,80,00,60,53,
68480502,00000100,false,Rx,0,8,71,00,00,00,80,00,6B,3A,
68481500,00000120,false,Rx,0,8,20,00,00,00,80,00,66,BB,
68481502,00000110,false,Rx,0,8,62,00,00,00,A0,00,70,59,
68482501,00000130,false,Rx,0,8,B9,FF,FF,FF,90,00,62,82,
68482502,00000100,false,Rx,0,8,5A,00,00,00,90,00,60,E1,
68482503,00000120,false,Rx,0,8,20,00,00,00,90,00,6B,7B,
68483749,00000110,false,Rx,0,8,90,00,00,00,B0,00,68,8B,
68483750,00000050,false,Rx,0,6,41,5C,FF,FB,5F,FF,00,00,
68483751,00000130,false,Rx,0,8,4C,BA,F5,FF,A3,80,AD,60,
68484749,00000100,false,Rx,0,8,43,00,00,00,A0,00,76,E8,
68484750,00000120,false,Rx,0,8,20,00,00,00,A0,00,7F,7B,
68485875,00000110,false,Rx,0,8,90,00,00,00,C0,00,4D,4B,
68485876,00000130,false,Rx,0,8,76,00,00,00,B0,00,7E,8D,
68486875,00000100,false,Rx,0,8,71,00,00,00,B0,00,7F,3A,
68486877,00000120,false,Rx,0,8,20,00,00,00,B0,00,72,BB,
68487877,00000110,false,Rx,0,8,62,00,00,00,D0,00,55,99,
68487879,00000130,false,Rx,0,8,18,00,00,00,C0,00,53,C3,
68489000,00000100,false,Rx,0,8,5A,00,00,00,C0,00,5C,E1,
68489001,00000120,false,Rx,0,8,04,00,00,00,C0,00,51,9F,
68490000,00000110,false,Rx,0,8,62,00,00,00,E0,00,41,99,
68490001,00000130,false,Rx,0,8,18,00,00,00,D0,00,5E,03,
68491001,00000100,false,Rx,0,8,71,00,00,00,D0,00,57,3A,
68491002,00000120,false,Rx,0,8,04,00,00,00,D0,00,5C,5F,
68492001,00000110,false,Rx,0,8,4B,00,00,00,F0,00,4B,A0,
68492002,00000130,false,Rx,0,8,D9,FF,FF,FF,E0,00,4E,E2,
68493001,00000100,false,Rx,0,8,9F,00,00,00,E0,00,54,74,
68493002,00000120,false,Rx,0,8,AE,FF,FF,FF,E0,00,44,65,
68494125,00000110,false,Rx,0,8,4B,00,00,00,00,00,0F,A0,
68494126,00000130,false,Rx,0,8,F8,FF,FF,FF,F0,00,45,93,
68495126,00000100,false,Rx,0,8,9F,00,00,00,F0,00,59,B4,
68495128,00000120,false,Rx,0,8,AE,FF,FF,FF,F0,00,49,A5,
68496127,00000110,false,Rx,0,8,62,00,00,00,10,00,05,99,
68496128,00000130,false,Rx,0,8,F8,FF,FF,FF,00,00,01,93,
68497125,00000100,false,Rx,0,8,71,00,00,00,00,00,0A,FA,
68497126,00000120,false,Rx,0,8,E7,FF,FF,FF,00,00,03,FC,
68498226,00000110,false,Rx,0,8,62,00,00,00,20,00,11,99,
68498227,00000130,false,Rx,0,8,F8,FF,FF,FF,10,00,0C,53,
68499252,00000100,false,Rx,0,8,71,00,00,00,10,00,07,3A,
68499253,00000140,false,Rx,0,8,01,00,FF,FF,50,00,3D,EE,
68499254,00000120,false,Rx,0,8,E7,FF,FF,FF,10,00,0E,3C,
68500250,00000110,false,Rx,0,8,62,00,00,00,30,00,1C,59,
68500253,00000130,false,Rx,0,8,F8,FF,FF,FF,20,00,18,53,
68501252,00000100,false,Rx,0,8,5A,00,00,00,20,00,15,21,
68501254,00000120,false,Rx,0,8,20,00,00,00,20,00,1E,BB,
68502377,00000110,false,Rx,0,8,62,00,00,00,40,00,39,99,
68502378,00000130,false,Rx,0,8,18,00,00,00,30,00,17,C3,
68503375,00000100,false,Rx,0,8,43,00,00,00,30,00,1A,E8,
68503376,00000120,false,Rx,0,8,20,00,00,00,30,00,13,7B,
68503377,00000110,false,Rx,0,8,D5,00,00,00,50,00,2F,DE,
68504501,00000050,false,Rx,0,6,41,5C,FF,FB,5F,FF,00,00,
68504503,00000130,false,Rx,0,8,6C,21,00,00,43,80,85,E0,
68504503,00000100,false,Rx,0,8,43,00,00,00,40,00,3F,28,
68506127,00000120,false,Rx,0,8,20,00,00,00,40,00,36,BB,
68506129,00000110,false,Rx,0,8,D5,00,00,00,60,00,3B,DE,
68507252,00000130,false,Rx,0,8,18,00,00,00,50,00,3F,C3,
68507253,00000100,false,Rx,0,8,5A,00,00,00,50,00,30,E1,
68508252,00000120,false,Rx,0,8,20,00,00,00,50,00,3B,7B,
68508253,00000110,false,Rx,0,8,79,00,00,00,70,00,2E,72,
68509259,00000130,false,Rx,0,8,18,00,00,00,60,00,2B,C3,
68509260,00000100,false,Rx,0,8,71,00,00,00,60,00,22,FA,
68510249,00000120,false,Rx,0,8,04,00,00,00,60,00,29,9F,
68510251,00000110,false,Rx,0,8,79,00,00,00,80,00,6A,72,
68511375,00000130,false,Rx,0,8,37,00,00,00,70,00,21,9C,
68511376,00000100,false,Rx,0,8,88,00,00,00,70,00,3B,53,
68512376,00000120,false,Rx,0,8,04,00,00,00,70,00,24,5F,
68512377,00000110,false,Rx,0,8,4B,00,00,00,90,00,63,A0,
68513376,00000130,false,Rx,0,8,18,00,00,00,80,00,62,03,
68513377,00000100,false,Rx,0,8,9F,00,00,00,80,00,7C,74,
68514376,00000120,false,Rx,0,8,AE,FF,FF,FF,80,00,6C,65,
68514378,00000110,false,Rx,0,8,4B,00,00,00,A0,00,77,A0,
68515376,00000130,false,Rx,0,8,D9,FF,FF,FF,90,00,6B,22,
68515377,00000100,false,Rx,0,8,88,00,00,00,90,00,72,93,
68516500,00000120,false,Rx,0,8,AE,FF,FF,FF,90,00,61,A5,
68516502,00000110,false,Rx,0,8,4B,00,00,00,B0,00,7A,60,
68517491,00000130,false,Rx,0,8,18,00,00,00,A0,00,7B,C3,
68517492,00000100,false,Rx,0,8,71,00,00,00,A0,00,72,FA,
68518503,00000120,false,Rx,0,8,E7,FF,FF,FF,A0,00,7B,FC,
68518504,00000110,false,Rx,0,8,4B,00,00,00,C0,00,5F,A0,
68519499,00000130,false,Rx,0,8,18,00,00,00,B0,00,76,03,
68519501,00000100,false,Rx,0,8,71,00,00,00,B0,00,7F,3A,
68519501,00000140,false,Rx,0,8,01,00,FF,FF,60,00,29,EE,
68520614,00000120,false,Rx,0,8,E7,FF,FF,FF,B0,00,76,3C,
68520615,00000110,false,Rx,0,8,79,00,00,00,D0,00,56,72,
68521613,00000130,false,Rx,0,8,D9,FF,FF,FF,C0,00,57,22,
68521614,00000100,false,Rx,0,8,71,00,00,00,C0,00,5A,FA,
68522615,00000120,false,Rx,0,8,3D,00,00,00,C0,00,54,F6,
68522616,00000110,false,Rx,0,8,79,00,00,00,E0,00,42,72,
68523607,00000130,false,Rx,0,8,F8,FF,FF,FF,D0,00,5C,53,
68523608,00000100,false,Rx,0,8,2C,00,00,00,D0,00,5A,77,
68523609,00000120,false,Rx,0,8,3D,00,00,00,D0,00,59,36,
68524850,00000110,false,Rx,0,8,BE,00,00,00,F0,00,5F,05,
68524851,00000050,false,Rx,0,6,41,5C,FF,FB,5F,FF,00,00,
68524852,00000130,false,Rx,0,8,B8,34,03,00,E3,80,E2,73,
68525846,00000100,false,Rx,0,8,5A,00,00,00,E0,00,45,21,
68525847,00000120,false,Rx,0,8,04,00,00,00,E0,00,48,5F,
68526997,00000110,false,Rx,0,8,BE,00,00,00,00,00,1B,05,
68526999,00000130,false,Rx,0,8,F8,FF,FF,FF,F0,00,45,93,
68527996,00000100,false,Rx,0,8,71,00,00,00,F0,00,4E,FA,
68527998,00000120,false,Rx,0,8,04,00,00,00,F0,00,45,9F,
68529122,00000110,false,Rx,0,8,62,00,00,00,10,00,05,99,
68529124,00000130,false,Rx,0,8,D9,FF,FF,FF,00,00,07,22,
68530124,00000100,false,Rx,0,8,71,00,00,00,00,00,0A,FA,
68530125,00000120,false,Rx,0,8,04,00,00,00,00,00,01,9F,
68531123,00000110,false,Rx,0,8,62,00,00,00,20,00,11,99,
68531124,00000130,false,Rx,0,8,F8,FF,FF,FF,10,00,0C,53,
68532126,00000100,false,Rx,0,8,88,00,00,00,10,00,13,53,
68532127,00000120,false,Rx,0,8,04,00,00,00,10,00,0C,5F,
68533122,00000110,false,Rx,0,8,1D,00,00,00,30,00,17,96,
68533123,00000130,false,Rx,0,8,F8,FF,FF,FF,20,00,18,53,
68534236,00000100,false,Rx,0,8,9F,00,00,00,20,00,04,74,
68534237,00000120,false,Rx,0,8,CB,FF,FF,FF,20,00,1D,90,
68535219,00000110,false,Rx,0,8,1D,00,00,00,40,00,32,56,
68535220,00000130,false,Rx,0,8,18,00,00,00,30,00,17,C3,
68536217,00000100,false,Rx,0,8,71,00,00,00,30,00,1E,FA,
68536217,00000120,false,Rx,0,8,CB,FF,FF,FF,30,00,10,50,
68537217,00000110,false,Rx,0,8,62,00,00,00,50,00,34,59,
68537218,00000130,false,Rx,0,8,18,00,00,00,40,00,32,03,
68538217,00000100,false,Rx,0,8,71,00,00,00,40,00,3B,3A,
68538218,00000120,false,Rx,0,8,04,00,00,00,40,00,30,5F,
68539342,00000110,false,Rx,0,8,62,00,00,00,60,00,20,59,
68539342,00000130,false,Rx,0,8,F8,FF,FF,FF,50,00,3D,93,
68539343,00000100,false,Rx,0,8,71,00,00,00,50,00,36,FA,
68540593,00000140,false,Rx,0,8,01,00,FF,FF,70,00,24,2E,
68540593,00000120,false,Rx,0,8,04,00,00,00,50,00,3D,9F,
68540594,00000110,false,Rx,0,8,62,00,00,00,70,00,2D,99,
68542089,00000130,false,Rx,0,8,F8,FF,FF,FF,60,00,29,93,
68542090,00000100,false,Rx,0,8,5A,00,00,00,60,00,24,E1,
68543241,00000120,false,Rx,0,8,3D,00,00,00,60,00,2C,F6,
68543242,00000110,false,Rx,0,8,62,00,00,00,80,00,69,99,
68544241,00000130,false,Rx,0,8,F8,FF,FF,FF,70,00,24,53,
68544242,00000100,false,Rx,0,8,2C,00,00,00,70,00,22,77,
68544242,00000120,false,Rx,0,8,3D,00,00,00,70,00,21,36,
68545491,00000110,false,Rx,0,8,79,00,00,00,90,00,67,B2,
68545492,00000050,false,Rx,0,6,41,5C,FF,FB,5F,FF,00,00,
68545492,00000130,false,Rx,0,8,EB,95,FF,FF,83,80,7B,A9,
68546491,00000100,false,Rx,0,8,5A,00,00,00,80,00,6D,21,
68546492,00000120,false,Rx,0,8,04,00,00,00,80,00,60,5F,
68547491,00000110,false,Rx,0,8,79,00,00,00,A0,00,73,B2,
68547492,00000130,false,Rx,0,8,95,00,00,00,90,00,71,1E,
68548636,00000100,false,Rx,0,8,71,00,00,00,90,00,66,FA,
68548637,00000120,false,Rx,0,8,04,00,00,00,90,00,6D,9F,
68549605,00000110,false,Rx,0,8,62,00,00,00,B0,00,7D,99,
68549606,00000130,false,Rx,0,8,F8,FF,FF,FF,A0,00,79,93,
68550602,00000100,false,Rx,0,8,5A,00,00,00,A0,00,74,E1,
68550603,00000120,false,Rx,0,8,E7,FF,FF,FF,A0,00,7B,FC,
68551601,00000110,false,Rx,0,8,62,00,00,00,C0,00,58,59,
68551602,00000130,false,Rx,0,8,18,00,00,00,B0,00,76,03,
68552745,00000100,false,Rx,0,8,88,00,00,00,B0,00,6B,53,
68552747,00000120,false,Rx,0,8,E7,FF,FF,FF,B0,00,76,3C,
68553760,00000110,false,Rx,0,8,34,00,00,00,D0,00,59,AF,
68553762,00000130,false,Rx,0,8,F8,FF,FF,FF,C0,00,51,93,
68554751,00000100,false,Rx,0,8,9F,00,00,00,C0,00,4D,B4,
68554753,00000120,false,Rx,0,8,E7,FF,FF,FF,C0,00,53,FC,
68555749,00000110,false,Rx,0,8,34,00,00,00,E0,00,4D,AF,
68555750,00000130,false,Rx,0,8,18,00,00,00,D0,00,5E,03,
68556848,00000100,false,Rx,0,8,71,00,00,00,D0,00,57,3A,
68556849,00000120,false,Rx,0,8,E7,FF,FF,FF,D0,00,5E,3C,
68557899,00000110,false,Rx,0,8,62,00,00,00,F0,00,4C,59,
68557900,00000130,false,Rx,0,8,F8,FF,FF,FF,E0,00,48,53,
68558875,00000100,false,Rx,0,8,71,00,00,00,E0,00,43,3A,
68558876,00000120,false,Rx,0,8,20,00,00,00,E0,00,4E,BB,
68559873,00000110,false,Rx,0,8,62,00,00,00,00,00,08,59,
68559874,00000130,false,Rx,0,8,F8,FF,FF,FF,F0,00,45,93,
68560874,00000100,false,Rx,0,8,5A,00,00,00,F0,00,48,E1,
68560876,00000140,false,Rx,0,8,01,00,FF,FF,80,00,60,2E,
68560876,00000120,false,Rx,0,8,20,00,00,00,F0,00,43,7B,
68562001,00000110,false,Rx,0,8,79,00,00,00,10,00,06,72,
68562002,00000130,false,Rx,0,8,F8,FF,FF,FF,00,00,01,93,
68563001,00000100,false,Rx,0,8,5A,00,00,00,00,00,0C,E1,
68563002,00000120,false,Rx,0,8,59,00,00,00,00,00,0C,D2,
68563999,00000110,false,Rx,0,8,79,00,00,00,20,00,12,72,
68564000,00000130,false,Rx,0,8,37,00,00,00,10,00,09,9C,
68564997,00000100,false,Rx,0,8,5A,00,00,00,10,00,01,21,
68564998,00000120,false,Rx,0,8,59,00,00,00,10,00,01,12,
68564999,00000110,false,Rx,0,8,79,00,00,00,30,00,1F,B2,
68566236,00000050,false,Rx,0,6,41,5C,FF,FB,5F,FF,00,00,
68566237,00000130,false,Rx,0,8,0D,BA,F5,FF,23,80,C3,B1,
68566238,00000100,false,Rx,0,8,5A,00,00,00,20,00,15,21,
68567873,00000120,false,Rx,0,8,04,00,00,00,20,00,18,5F,
68567875,00000110,false,Rx,0,8,79,00,00,00,40,00,3A,72,
68568858,00000130,false,Rx,0,8,B5,00,00,00,30,00,0E,7E,
68568858,00000100,false,Rx,0,8,5A,00,00,00,30,00,18,E1,
68569982,00000120,false,Rx,0,8,04,00,00,00,30,00,15,9F,
68569983,00000110,false,Rx,0,8,62,00,00,00,50,00,34,59,
68569983,00000170,false,Rx,0,8,00,00,00,57,50,81,05,24,
68570985,00000130,false,Rx,0,8,D9,FF,FF,FF,40,00,36,E2,
68570986,00000100,false,Rx,0,8,71,00,00,00,40,00,3B,3A,
68571984,00000120,false,Rx,0,8,E7,FF,FF,FF,40,00,32,3C,
68571985,00000110,false,Rx,0,8,62,00,00,00,60,00,20,59,
68572985,00000130,false,Rx,0,8,37,00,00,00,50,00,38,5C,
68572986,00000100,false,Rx,0,8,9F,00,00,00,50,00,21,B4,
68574137,00000120,false,Rx,0,8,E7,FF,FF,FF,50,00,3F,FC,
68574138,00000110,false,Rx,0,8,1D,00,00,00,70,00,26,56,
68575132,00000130,false,Rx,0,8,18,00,00,00,60,00,2B,C3,
68575133,00000100,false,Rx,0,8,88,00,00,00,60,00,36,93,
68576115,00000120,false,Rx,0,8,E7,FF,FF,FF,60,00,2B,FC,
68576116,00000110,false,Rx,0,8,1D,00,00,00,80,00,62,56,
68577115,00000130,false,Rx,0,8,F8,FF,FF,FF,70,00,24,53,
68577116,00000100,false,Rx,0,8,88,00,00,00,70,00,3B,53,
68578105,00000120,false,Rx,0,8,E7,FF,FF,FF,70,00,26,3C,
68578106,00000110,false,Rx,0,8,4B,00,00,00,90,00,63,A0,
68579261,00000130,false,Rx,0,8,F8,FF,FF,FF,80,00,60,53,
68579261,00000100,false,Rx,0,8,71,00,00,00,80,00,6B,3A,
68580266,00000120,false,Rx,0,8,04,00,00,00,80,00,60,5F,
68580266,00000110,false,Rx,0,8,4B,00,00,00,A0,00,77,A0,
68581240,00000130,false,Rx,0,8,37,00,00,00,90,00,68,5C,
68581240,00000100,false,Rx,0,8,5A,00,00,00,90,00,60,E1,
68581241,00000140,false,Rx,0,8,01,00,FF,FF,90,00,6D,EE,
68582230,00000120,false,Rx,0,8,04,00,00,00,90,00,6D,9F,
68582231,00000110,false,Rx,0,8,79,00,00,00,B0,00,7E,72,
68583382,00000130,false,Rx,0,8,F8,FF,FF,FF,A0,00,79,93,
68583383,00000100,false,Rx,0,8,43,00,00,00,A0,00,76,E8,
68584359,00000120,false,Rx,0,8,3D,00,00,00,A0,00,7C,F6,
68584360,00000110,false,Rx,0,8,79,00,00,00,C0,00,5B,B2,
68585351,00000130,false,Rx,0,8,37,00,00,00,B0,00,71,9C,
68585351,00000100,false,Rx,0,8,43,00,00,00,B0,00,7B,28,
68585352,00000120,false,Rx,0,8,3D,00,00,00,B0,00,71,36,
68586638,00000110,false,Rx,0,8,90,00,00,00,D0,00,40,8B,
68586639,00000050,false,Rx,0,6,41,5C,FF,FB,5F,FF,00,00,
68586640,00000130,false,Rx,0,8,4D,21,00,00,C3,80,E2,91,
68587603,00000100,false,Rx,0,8,71,00,00,00,C0,00,5A,FA,
68587603,00000120,false,Rx,0,8,20,00,00,00,C0,00,57,7B,
68588603,00000110,false,Rx,0,8,90,00,00,00,E0,00,54,8B,
68588604,00000130,false,Rx,0,8,D9,FF,FF,FF,D0,00,5A,E2,
68589748,00000100,false,Rx,0,8,71,00,00,00,D0,00,57,3A,
68589750,00000120,false,Rx,0,8,20,00,00,00,D0,00,5A,BB,
68590746,00000110,false,Rx,0,8,62,00,00,00,F0,00,4C,59,
68590747,00000130,false,Rx,0,8,D9,FF,FF,FF,E0,00,4E,E2,
68591754,00000100,false,Rx,0,8,88,00,00,00,E0,00,57,53,
68591755,00000120,false,Rx,0,8,CB,FF,FF,FF,E0,00,4D,90,
68592753,00000110,false,Rx,0,8,62,00,00,00,00,00,08,59,
68592754,00000130,false,Rx,0,8,18,00,00,00,F0,00,47,C3,
68593907,00000100,false,Rx,0,8,9F,00,00,00,F0,00,59,B4,
68593908,00000120,false,Rx,0,8,CB,FF,FF,FF,F0,00,40,50,
68594883,00000110,false,Rx,0,8,34,00,00,00,10,00,09,AF,
68594884,00000130,false,Rx,0,8,F8,FF,FF,FF,00,00,01,93,
68595883,00000100,false,Rx,0,8,88,00,00,00,00,00,1E,93,
68595885,00000120,false,Rx,0,8,04,00,00,00,00,00,01,9F,
68596874,00000110,false,Rx,0,8,34,00,00,00,20,00,1D,AF,
68596876,00000130,false,Rx,0,8,D9,FF,FF,FF,10,00,0A,E2,
68598028,00000100,false,Rx,0,8,71,00,00,00,10,00,07,3A,
68598029,00000120,false,Rx,0,8,04,00,00,00,10,00,0C,5F,
68599006,00000110,false,Rx,0,8,62,00,00,00,30,00,1C,59,
68599008,00000130,false,Rx,0,8,D9,FF,FF,FF,20,00,1E,E2,
68600008,00000100,false,Rx,0,8,71,00,00,00,20,00,13,3A,
68600009,00000120,false,Rx,0,8,04,00,00,00,20,00,18,5F,
68600976,00000110,false,Rx,0,8,62,00,00,00,40,00,39,99,
68600977,00000130,false,Rx,0,8,D9,FF,FF,FF,30,00,13,22,
68602003,00000100,false,Rx,0,8,5A,00,00,00,30,00,18,E1,
68602004,00000140,false,Rx,0,8,01,00,FF,FF,A0,00,79,EE,
68602005,00000120,false,Rx,0,8,04,00,00,00,30,00,15,9F,
68603157,00000110,false,Rx,0,8,79,00,00,00,50,00,37,B2,
68603159,00000130,false,Rx,0,8,18,00,00,00,40,00,32,03,
68604134,00000100,false,Rx,0,8,2C,00,00,00,40,00,36,77,
68604136,00000120,false,Rx,0,8,20,00,00,00,40,00,36,BB,
68605128,00000110,false,Rx,0,8,79,00,00,00,60,00,23,B2,
68605130,00000130,false,Rx,0,8,18,00,00,00,50,00,3F,C3,
68606121,00000100,false,Rx,0,8,5A,00,00,00,50,00,30,E1,
68606122,00000120,false,Rx,0,8,20,00,00,00,50,00,3B,7B,
68606123,00000110,false,Rx,0,8,A7,00,00,00,70,00,3C,CC,
68607374,00000050,false,Rx,0,6,41,5C,FF,FB,5F,FF,00,00,
