Time Stamp,ID,Extended,Dir,Bus,LEN,D1,D2,D3,D4,D5,D6,D7,D8
5271056,00000135,false,Rx,0,8,AA,00,00,00,10,00,15,D1,
5271058,00000110,false,Rx,0,8,00,00,00,00,13,00,0D,2B,
5272180,00000135,false,Rx,0,8,AA,00,00,00,20,00,01,D1,
5272182,00000110,false,Rx,0,8,00,00,00,00,23,00,19,2B,
5272182,00000130,false,Rx,0,8,F8,FF,FF,FF,10,00,0C,53,
5273430,00000100,false,Rx,0,8,71,00,00,00,10,00,07,3A,
5273433,00000120,false,Rx,0,8,00,00,00,00,13,00,0D,2B,
5274433,00000110,false,Rx,0,8,46,F8,FF,FF,30,00,BB,4D,
5274434,00000050,false,Rx,0,6,41,54,FF,E9,57,FF,00,00,
5274435,00000130,false,Rx,0,8,2C,BA,F5,FF,23,80,C5,00,
5275401,00000100,false,Rx,0,8,5A,00,00,00,20,00,15,21,
5275402,00000120,false,Rx,0,8,73,EC,FF,FF,20,00,83,2B,
5276409,00000110,false,Rx,0,8,46,F8,FF,FF,40,00,9E,8D,
5276410,00000210,false,Rx,0,8,75,69,00,05,06,5F,01,03,
5276411,00000130,false,Rx,0,8,76,00,00,00,30,00,1F,4D,
5277558,00000100,false,Rx,0,8,5A,00,00,00,30,00,18,E1,
5277559,00000120,false,Rx,0,8,73,EC,FF,FF,30,00,8E,EB,
5278560,00000110,false,Rx,0,8,74,F8,FF,FF,50,00,97,5F,
5278561,00000130,false,Rx,0,8,D9,FF,FF,FF,40,00,36,E2,
5279533,00000100,false,Rx,0,8,43,00,00,00,40,00,3F,28,
5279535,00000120,false,Rx,0,8,90,EC,FF,FF,40,00,BD,78,
5280527,00000110,false,Rx,0,8,74,F8,FF,FF,60,00,83,5F,
5280529,00000130,false,Rx,0,8,18,00,00,00,50,00,3F,C3,
5281532,00000100,false,Rx,0,8,71,00,00,00,50,00,36,FA,
5281533,00000120,false,Rx,0,8,90,EC,FF,FF,50,00,B0,B8,
5282654,00000110,false,Rx,0,8,A2,F8,FF,FF,70,00,9D,69,
5282655,00000130,false,Rx,0,8,F8,FF,FF,FF,60,00,29,93,
5283653,00000100,false,Rx,0,8,71,00,00,00,60,00,22,FA,
5283654,00000120,false,Rx,0,8,73,EC,FF,FF,60,00,B2,EB,
5284649,00000110,false,Rx,0,8,A2,F8,FF,FF,80,00,D9,69,
5284650,00000130,false,Rx,0,8,F8,FF,FF,FF,70,00,24,53,
5285659,00000100,false,Rx,0,8,88,00,00,00,70,00,3B,53,
5285660,00000120,false,Rx,0,8,73,EC,FF,FF,70,00,BF,2B,
5286654,00000110,false,Rx,0,8,B9,F8,FF,FF,90,00,D7,42,
5286656,00000130,false,Rx,0,8,B9,FF,FF,FF,80,00,6F,42,
5287805,00000100,false,Rx,0,8,88,00,00,00,80,00,7F,53,
5287806,00000120,false,Rx,0,8,73,EC,FF,FF,80,00,FB,2B,
5288784,00000110,false,Rx,0,8,B9,F8,FF,FF,A0,00,C3,42,
5288786,00000130,false,Rx,0,8,D9,FF,FF,FF,90,00,6B,22,
5289785,00000100,false,Rx,0,8,88,00,00,00,90,00,72,93,
5289787,00000140,false,Rx,0,8,00,00,00,00,11,11,CC,47,
5289787,00000120,false,Rx,0,8,73,EC,FF,FF,90,00,F6,EB,
5290807,00000110,false,Rx,0,8,D0,F8,FF,FF,B0,00,C7,BB,
5290808,00000130,false,Rx,0,8,F8,FF,FF,FF,A0,00,79,93,
5291931,00000100,false,Rx,0,8,71,00,00,00,A0,00,72,FA,
5291933,00000120,false,Rx,0,8,73,EC,FF,FF,A0,00,E2,EB,
5292933,00000110,false,Rx,0,8,D0,F8,FF,FF,C0,00,E2,7B,
5292934,00000130,false,Rx,0,8,18,00,00,00,B0,00,76,03,
5293913,00000100,false,Rx,0,8,71,00,00,00,B0,00,7F,3A,
5293914,00000120,false,Rx,0,8,73,EC,FF,FF,B0,00,EF,2B,
5294907,00000110,false,Rx,0,8,15,F9,FF,FF,D0,00,C3,2E,
5294909,00000050,false,Rx,0,6,41,5C,FF,EB,5F,FF,00,00,
5294910,00000130,false,Rx,0,8,4D,21,00,00,C3,80,E2,91,
5296009,00000100,false,Rx,0,8,5A,00,00,00,C0,00,5C,E1,
5296011,00000120,false,Rx,0,8,73,EC,FF,FF,C0,00,CA,EB,
5297051,00000110,false,Rx,0,8,15,F9,FF,FF,E0,00,D7,2E,
5297052,00000130,false,Rx,0,8,F8,FF,FF,FF,D0,00,5C,53,
5298012,00000100,false,Rx,0,8,5A,00,00,00,D0,00,51,21,
5298013,00000120,false,Rx,0,8,73,EC,FF,FF,D0,00,C7,2B,
5299157,00000110,false,Rx,0,8,E7,F8,FF,FF,F0,00,F2,3C,
5299159,00000130,false,Rx,0,8,D9,FF,FF,FF,E0,00,4E,E2,
5300159,00000100,false,Rx,0,8,71,00,00,00,E0,00,43,3A,
5300160,00000120,false,Rx,0,8,73,EC,FF,FF,E0,00,D3,2B,
5301158,00000110,false,Rx,0,8,E7,F8,FF,FF,00,00,B6,3C,
5301159,00000130,false,Rx,0,8,D9,FF,FF,FF,F0,00,43,22,
5302158,00000100,false,Rx,0,8,71,00,00,00,F0,00,4E,FA,
5302160,00000120,false,Rx,0,8,73,EC,FF,FF,F0,00,DE,EB,
5303150,00000110,false,Rx,0,8,FE,F8,FF,FF,10,00,B9,F5,
5303152,00000130,false,Rx,0,8,F8,FF,FF,FF,00,00,01,93,
5304315,00000100,false,Rx,0,8,71,00,00,00,00,00,0A,FA,
5304317,00000120,false,Rx,0,8,73,EC,FF,FF,00,00,9A,EB,
5305284,00000110,false,Rx,0,8,FE,F8,FF,FF,20,00,AD,F5,
5305285,00000130,false,Rx,0,8,F8,FF,FF,FF,10,00,0C,53,
5306287,00000100,false,Rx,0,8,88,00,00,00,10,00,13,53,
5306288,00000120,false,Rx,0,8,73,EC,FF,FF,10,00,97,2B,
5307273,00000110,false,Rx,0,8,15,F9,FF,FF,30,00,8A,EE,
5307275,00000130,false,Rx,0,8,F8,FF,FF,FF,20,00,18,53,
5308431,00000100,false,Rx,0,8,88,00,00,00,20,00,07,53,
5308432,00000120,false,Rx,0,8,90,EC,FF,FF,20,00,95,78,
5309433,00000110,false,Rx,0,8,15,F9,FF,FF,40,00,AF,2E,
5309434,00000130,false,Rx,0,8,F8,FF,FF,FF,30,00,15,93,
5310437,00000100,false,Rx,0,8,88,00,00,00,30,00,0A,93,
5310438,00000140,false,Rx,0,8,01,00,FF,FF,20,00,18,2E,
5310439,00000120,false,Rx,0,8,90,EC,FF,FF,30,00,98,B8,
5311420,00000110,false,Rx,0,8,15,F9,FF,FF,50,00,A2,EE,
5311421,00000130,false,Rx,0,8,F8,FF,FF,FF,40,00,30,53,
5312502,00000100,false,Rx,0,8,71,00,00,00,40,00,3B,3A,
5312503,00000120,false,Rx,0,8,90,EC,FF,FF,40,00,BD,78,
5313551,00000110,false,Rx,0,8,15,F9,FF,FF,60,00,B6,EE,
5313552,00000130,false,Rx,0,8,F8,FF,FF,FF,50,00,3D,93,
5314561,00000100,false,Rx,0,8,5A,00,00,00,50,00,30,E1,
5314562,00000120,false,Rx,0,8,90,EC,FF,FF,50,00,B0,B8,
5314563,00000110,false,Rx,0,8,5A,F9,FF,FF,70,00,B5,11,
5315652,00000050,false,Rx,0,6,41,5C,FF,EB,5F,FF,00,00,
5315653,00000130,false,Rx,0,8,99,34,03,00,63,80,85,02,
5315654,00000100,false,Rx,0,8,5A,00,00,00,60,00,24,E1,
5317297,00000120,false,Rx,0,8,90,EC,FF,FF,60,00,A4,B8,
5317298,00000110,false,Rx,0,8,5A,F9,FF,FF,80,00,F1,11,
5318432,00000130,false,Rx,0,8,18,00,00,00,70,00,26,03,
5318434,00000100,false,Rx,0,8,5A,00,00,00,70,00,29,21,
5319408,00000120,false,Rx,0,8,90,EC,FF,FF,70,00,A9,78,
5319409,00000110,false,Rx,0,8,2C,F9,FF,FF,90,00,F7,87,
5320403,00000130,false,Rx,0,8,D9,FF,FF,FF,80,00,66,E2,
5320405,00000100,false,Rx,0,8,71,00,00,00,80,00,6B,3A,
5321556,00000120,false,Rx,0,8,73,EC,FF,FF,80,00,FB,2B,
5321557,00000110,false,Rx,0,8,2C,F9,FF,FF,A0,00,E3,87,
5322557,00000130,false,Rx,0,8,F8,FF,FF,FF,90,00,6D,93,
5322558,00000100,false,Rx,0,8,5A,00,00,00,90,00,60,E1,
5323547,00000120,false,Rx,0,8,73,EC,FF,FF,90,00,F6,EB,
5323549,00000110,false,Rx,0,8,43,F9,FF,FF,B0,00,E7,18,
5324547,00000130,false,Rx,0,8,D9,FF,FF,FF,A0,00,7F,22,
5324548,00000100,false,Rx,0,8,71,00,00,00,A0,00,72,FA,
5325525,00000120,false,Rx,0,8,73,EC,FF,FF,A0,00,E2,EB,
5325527,00000110,false,Rx,0,8,43,F9,FF,FF,C0,00,C2,D8,
5326630,00000130,false,Rx,0,8,D9,FF,FF,FF,B0,00,72,E2,
5326632,00000100,false,Rx,0,8,88,00,00,00,B0,00,6B,53,
5327630,00000120,false,Rx,0,8,73,EC,FF,FF,B0,00,EF,2B,
5327631,00000110,false,Rx,0,8,43,F9,FF,FF,D0,00,CF,18,
5328653,00000130,false,Rx,0,8,18,00,00,00,C0,00,53,C3,
5328655,00000100,false,Rx,0,8,88,00,00,00,C0,00,4E,93,
5329650,00000120,false,Rx,0,8,73,EC,FF,FF,C0,00,CA,EB,
5329652,00000110,false,Rx,0,8,43,F9,FF,FF,E0,00,DB,18,
5330775,00000130,false,Rx,0,8,D9,FF,FF,FF,D0,00,5A,E2,
5330776,00000100,false,Rx,0,8,71,00,00,00,D0,00,57,3A,
5330777,00000140,false,Rx,0,8,01,00,FF,FF,30,00,15,EE,
5331783,00000120,false,Rx,0,8,73,EC,FF,FF,D0,00,C7,2B,
5331784,00000110,false,Rx,0,8,43,F9,FF,FF,F0,00,D6,D8,
5332801,00000130,false,Rx,0,8,18,00,00,00,E0,00,4A,03,
5332803,00000100,false,Rx,0,8,5A,00,00,00,E0,00,45,21,
5333784,00000120,false,Rx,0,8,73,EC,FF,FF,E0,00,D3,2B,
5333785,00000110,false,Rx,0,8,43,F9,FF,FF,00,00,92,D8,
5334772,00000130,false,Rx,0,8,D9,FF,FF,FF,F0,00,43,22,
5334774,00000100,false,Rx,0,8,5A,00,00,00,F0,00,48,E1,
5334774,00000120,false,Rx,0,8,73,EC,FF,FF,F0,00,DE,EB,
5336048,00000110,false,Rx,0,8,43,F9,FF,FF,10,00,9F,18,
5336049,00000050,false,Rx,0,6,41,5C,FF,EB,5F,FF,00,00,
5336050,00000130,false,Rx,0,8,EB,95,FF,FF,03,80,1A,69,
5337183,00000100,false,Rx,0,8,5A,00,00,00,00,00,0C,E1,
5337184,00000120,false,Rx,0,8,73,EC,FF,FF,00,00,9A,EB,
5338173,00000110,false,Rx,0,8,43,F9,FF,FF,20,00,8B,18,
5338174,00000130,false,Rx,0,8,95,00,00,00,10,00,10,DE,
5339175,00000100,false,Rx,0,8,5A,00,00,00,10,00,01,21,
5339176,00000120,false,Rx,0,8,73,EC,FF,FF,10,00,97,2B,
5340253,00000110,false,Rx,0,8,A0,F9,FF,FF,30,00,90,8B,
5340254,00000130,false,Rx,0,8,F8,FF,FF,FF,20,00,18,53,
5341308,00000100,false,Rx,0,8,5A,00,00,00,20,00,15,21,
5341309,00000120,false,Rx,0,8,73,EC,FF,FF,20,00,83,2B,
5342281,00000110,false,Rx,0,8,A0,F9,FF,FF,40,00,B5,4B,
5342283,00000130,false,Rx,0,8,18,00,00,00,30,00,17,C3,
5343294,00000100,false,Rx,0,8,71,00,00,00,30,00,1E,FA,
5343295,00000120,false,Rx,0,8,73,EC,FF,FF,30,00,8E,EB,
5344278,00000110,false,Rx,0,8,89,F9,FF,FF,50,00,BF,72,
5344279,00000130,false,Rx,0,8,F8,FF,FF,FF,40,00,30,53,
5345432,00000100,false,Rx,0,8,88,00,00,00,40,00,2F,53,
5345434,00000120,false,Rx,0,8,73,EC,FF,FF,40,00,AB,2B,
5346431,00000110,false,Rx,0,8,89,F9,FF,FF,60,00,AB,72,
5346434,00000130,false,Rx,0,8,F8,FF,FF,FF,50,00,3D,93,
5347406,00000100,false,Rx,0,8,88,00,00,00,50,00,22,93,
5347407,00000120,false,Rx,0,8,73,EC,FF,FF,50,00,A6,EB,
5348406,00000110,false,Rx,0,8,89,F9,FF,FF,70,00,A6,B2,
5348407,00000130,false,Rx,0,8,F8,FF,FF,FF,60,00,29,93,
5349555,00000100,false,Rx,0,8,88,00,00,00,60,00,36,93,
5349556,00000120,false,Rx,0,8,73,EC,FF,FF,60,00,B2,EB,
5350526,00000110,false,Rx,0,8,89,F9,FF,FF,80,00,E2,B2,
5350528,00000130,false,Rx,0,8,F8,FF,FF,FF,70,00,24,53,
5351527,00000100,false,Rx,0,8,88,00,00,00,70,00,3B,53,
5351528,00000140,false,Rx,0,8,01,00,FF,FF,40,00,30,2E,
5351529,00000120,false,Rx,0,8,73,EC,FF,FF,70,00,BF,2B,
5352550,00000110,false,Rx,0,8,89,F9,FF,FF,90,00,EF,72,
5352552,00000130,false,Rx,0,8,D9,FF,FF,FF,80,00,66,E2,
5353529,00000100,false,Rx,0,8,71,00,00,00,80,00,6B,3A,
5353531,00000120,false,Rx,0,8,90,EC,FF,FF,80,00,ED,78,
5354651,00000110,false,Rx,0,8,89,F9,FF,FF,A0,00,FB,72,
5354653,00000130,false,Rx,0,8,18,00,00,00,90,00,6F,C3,
5355650,00000100,false,Rx,0,8,5A,00,00,00,90,00,60,E1,
5355651,00000120,false,Rx,0,8,90,EC,FF,FF,90,00,E0,B8,
5355652,00000110,false,Rx,0,8,72,F9,FF,FF,B0,00,E3,39,
5356803,00000050,false,Rx,0,6,41,5C,FF,FB,5F,FF,00,00,
5356805,00000130,false,Rx,0,8,4C,BA,F5,FF,A3,80,AD,60,
5356805,00000100,false,Rx,0,8,5A,00,00,00,A0,00,74,E1,
5358377,00000120,false,Rx,0,8,73,EC,FF,FF,A0,00,E2,EB,
5358378,00000110,false,Rx,0,8,72,F9,FF,FF,C0,00,C6,F9,
5359556,00000130,false,Rx,0,8,95,00,00,00,B0,00,68,DE,
5359557,00000100,false,Rx,0,8,5A,00,00,00,B0,00,79,21,
5360532,00000120,false,Rx,0,8,73,EC,FF,FF,B0,00,EF,2B,
5360533,00000110,false,Rx,0,8,89,F9,FF,FF,D0,00,DE,B2,
5361649,00000130,false,Rx,0,8,D9,FF,FF,FF,C0,00,57,22,
5361650,00000100,false,Rx,0,8,71,00,00,00,C0,00,5A,FA,
5362647,00000120,false,Rx,0,8,73,EC,FF,FF,C0,00,CA,EB,
5362649,00000110,false,Rx,0,8,89,F9,FF,FF,E0,00,CA,B2,
5363649,00000130,false,Rx,0,8,F8,FF,FF,FF,D0,00,5C,53,
5363651,00000100,false,Rx,0,8,88,00,00,00,D0,00,43,53,
5364651,00000120,false,Rx,0,8,73,EC,FF,FF,D0,00,C7,2B,
5364652,00000110,false,Rx,0,8,89,F9,FF,FF,F0,00,C7,72,
5365650,00000130,false,Rx,0,8,F8,FF,FF,FF,E0,00,48,53,
5365651,00000100,false,Rx,0,8,71,00,00,00,E0,00,43,3A,
5366774,00000120,false,Rx,0,8,73,EC,FF,FF,E0,00,D3,2B,
5366776,00000110,false,Rx,0,8,89,F9,FF,FF,00,00,83,72,
5367805,00000130,false,Rx,0,8,18,00,00,00,F0,00,47,C3,
5367807,00000100,false,Rx,0,8,88,00,00,00,F0,00,5A,93,
5368806,00000120,false,Rx,0,8,73,EC,FF,FF,F0,00,DE,EB,
5368807,00000110,false,Rx,0,8,89,F9,FF,FF,10,00,8E,B2,
5369783,00000130,false,Rx,0,8,18,00,00,00,00,00,03,C3,
5369785,00000100,false,Rx,0,8,88,00,00,00,00,00,1E,93,
5370806,00000120,false,Rx,0,8,57,EC,FF,FF,00,00,9C,0F,
5370808,00000110,false,Rx,0,8,89,F9,FF,FF,20,00,9A,B2,
5371931,00000130,false,Rx,0,8,F8,FF,FF,FF,10,00,0C,53,
5371932,00000100,false,Rx,0,8,71,00,00,00,10,00,07,3A,
5371932,00000140,false,Rx,0,8,01,00,FF,FF,50,00,3D,EE,
5372932,00000120,false,Rx,0,8,57,EC,FF,FF,10,00,91,CF,
5372933,00000110,false,Rx,0,8,89,F9,FF,FF,30,00,97,72,
5373907,00000130,false,Rx,0,8,F8,FF,FF,FF,20,00,18,53,
5373909,00000100,false,Rx,0,8,5A,00,00,00,20,00,15,21,
5374898,00000120,false,Rx,0,8,73,EC,FF,FF,20,00,83,2B,
5374899,00000110,false,Rx,0,8,89,F9,FF,FF,40,00,B2,B2,
5376030,00000130,false,Rx,0,8,18,00,00,00,30,00,17,C3,
5376031,00000100,false,Rx,0,8,43,00,00,00,30,00,1A,E8,
5376032,00000120,false,Rx,0,8,73,EC,FF,FF,30,00,8E,EB,
5377126,00000110,false,Rx,0,8,A0,F9,FF,FF,50,00,B8,8B,
5377127,00000050,false,Rx,0,6,41,5C,FF,FB,5F,FF,00,00,
5377127,00000130,false,Rx,0,8,4D,21,00,00,43,80,83,51,
5378251,00000100,false,Rx,0,8,43,00,00,00,40,00,3F,28,
5378252,00000120,false,Rx,0,8,73,EC,FF,FF,40,00,AB,2B,
5379247,00000110,false,Rx,0,8,A0,F9,FF,FF,60,00,AC,8B,
5379248,00000130,false,Rx,0,8,F8,FF,FF,FF,50,00,3D,93,
5380246,00000100,false,Rx,0,8,5A,00,00,00,50,00,30,E1,
5380246,00000120,false,Rx,0,8,73,EC,FF,FF,50,00,A6,EB,
5381371,00000110,false,Rx,0,8,72,F9,FF,FF,70,00,B3,39,
5381372,00000130,false,Rx,0,8,D9,FF,FF,FF,60,00,2F,22,
5382370,00000100,false,Rx,0,8,71,00,00,00,60,00,22,FA,
5382370,00000120,false,Rx,0,8,73,EC,FF,FF,60,00,B2,EB,
5383373,00000110,false,Rx,0,8,72,F9,FF,FF,80,00,F7,39,
5383374,00000130,false,Rx,0,8,18,00,00,00,70,00,26,03,
5384373,00000100,false,Rx,0,8,88,00,00,00,70,00,3B,53,
5384374,00000120,false,Rx,0,8,73,EC,FF,FF,70,00,BF,2B,
5385373,00000110,false,Rx,0,8,72,F9,FF,FF,90,00,FA,F9,
5385373,00000130,false,Rx,0,8,18,00,00,00,80,00,62,03,
5386497,00000100,false,Rx,0,8,88,00,00,00,80,00,7F,53,
5386498,00000120,false,Rx,0,8,90,EC,FF,FF,80,00,ED,78,
5387497,00000110,false,Rx,0,8,72,F9,FF,FF,A0,00,EE,F9,
5387498,00000130,false,Rx,0,8,D9,FF,FF,FF,90,00,6B,22,
5388497,00000100,false,Rx,0,8,88,00,00,00,90,00,72,93,
5388497,00000120,false,Rx,0,8,90,EC,FF,FF,90,00,E0,B8,
5389497,00000110,false,Rx,0,8,72,F9,FF,FF,B0,00,E3,39,
5389498,00000130,false,Rx,0,8,F8,FF,FF,FF,A0,00,79,93,
5390621,00000100,false,Rx,0,8,71,00,00,00,A0,00,72,FA,
5390622,00000120,false,Rx,0,8,73,EC,FF,FF,A0,00,E2,EB,
5391620,00000110,false,Rx,0,8,72,F9,FF,FF,C0,00,C6,F9,
5391621,00000130,false,Rx,0,8,F8,FF,FF,FF,B0,00,74,53,
5392621,00000100,false,Rx,0,8,5A,00,00,00,B0,00,79,21,
5392622,00000140,false,Rx,0,8,01,00,FF,FF,60,00,29,EE,
5392623,00000120,false,Rx,0,8,73,EC,FF,FF,B0,00,EF,2B,
5393621,00000110,false,Rx,0,8,5A,F9,FF,FF,D0,00,CD,11,
5393622,00000130,false,Rx,0,8,F8,FF,FF,FF,C0,00,51,93,
5394747,00000100,false,Rx,0,8,71,00,00,00,C0,00,5A,FA,
5394749,00000120,false,Rx,0,8,73,EC,FF,FF,C0,00,CA,EB,
5395747,00000110,false,Rx,0,8,5A,F9,FF,FF,E0,00,D9,11,
5395748,00000130,false,Rx,0,8,18,00,00,00,D0,00,5E,03,
5396747,00000100,false,Rx,0,8,5A,00,00,00,D0,00,51,21,
5396748,00000120,false,Rx,0,8,73,EC,FF,FF,D0,00,C7,2B,
5396748,00000110,false,Rx,0,8,89,F9,FF,FF,F0,00,C7,72,
5397872,00000050,false,Rx,0,6,41,5C,FF,FB,5F,FF,00,00,
5397872,00000130,false,Rx,0,8,99,34,03,00,E3,80,E4,C2,
5397873,00000100,false,Rx,0,8,43,00,00,00,E0,00,47,28,
5399496,00000120,false,Rx,0,8,73,EC,FF,FF,E0,00,D3,2B,
5399498,00000110,false,Rx,0,8,89,F9,FF,FF,00,00,83,72,
5400620,00000130,false,Rx,0,8,D9,FF,FF,FF,F0,00,43,22,
5400621,00000100,false,Rx,0,8,5A,00,00,00,F0,00,48,E1,
5401621,00000120,false,Rx,0,8,73,EC,FF,FF,F0,00,DE,EB,
5401621,00000110,false,Rx,0,8,72,F9,FF,FF,10,00,9B,39,
5402746,00000130,false,Rx,0,8,18,00,00,00,00,00,03,C3,
5402747,00000100,false,Rx,0,8,71,00,00,00,00,00,0A,FA,
5403746,00000120,false,Rx,0,8,73,EC,FF,FF,00,00,9A,EB,
5403747,00000110,false,Rx,0,8,72,F9,FF,FF,20,00,8F,39,
5404746,00000130,false,Rx,0,8,F8,FF,FF,FF,10,00,0C,53,
5404747,00000100,false,Rx,0,8,71,00,00,00,10,00,07,3A,
5405747,00000120,false,Rx,0,8,73,EC,FF,FF,10,00,97,2B,
5405748,00000110,false,Rx,0,8,72,F9,FF,FF,30,00,82,F9,
5406747,00000130,false,Rx,0,8,F8,FF,FF,FF,20,00,18,53,
5406748,00000100,false,Rx,0,8,71,00,00,00,20,00,13,3A,
5407746,00000120,false,Rx,0,8,73,EC,FF,FF,20,00,83,2B,
5407747,00000110,false,Rx,0,8,72,F9,FF,FF,40,00,A7,39,
5408871,00000130,false,Rx,0,8,F8,FF,FF,FF,30,00,15,93,
5408872,00000100,false,Rx,0,8,88,00,00,00,30,00,0A,93,
5409871,00000120,false,Rx,0,8,73,EC,FF,FF,30,00,8E,EB,
5409872,00000110,false,Rx,0,8,5A,F9,FF,FF,50,00,AC,D1,
5410871,00000130,false,Rx,0,8,F8,FF,FF,FF,40,00,30,53,
5410872,00000100,false,Rx,0,8,71,00,00,00,40,00,3B,3A,
5411871,00000120,false,Rx,0,8,73,EC,FF,FF,40,00,AB,2B,
5411872,00000110,false,Rx,0,8,5A,F9,FF,FF,60,00,B8,D1,
5412996,00000130,false,Rx,0,8,D9,FF,FF,FF,50,00,3B,22,
5412997,00000100,false,Rx,0,8,71,00,00,00,50,00,36,FA,
5412997,00000140,false,Rx,0,8,01,00,FF,FF,70,00,24,2E,
5413996,00000120,false,Rx,0,8,73,EC,FF,FF,50,00,A6,EB,
5413997,00000110,false,Rx,0,8,72,F9,FF,FF,70,00,B3,39,
5414996,00000130,false,Rx,0,8,F8,FF,FF,FF,60,00,29,93,
5414998,00000100,false,Rx,0,8,5A,00,00,00,60,00,24,E1,
5415997,00000120,false,Rx,0,8,73,EC,FF,FF,60,00,B2,EB,
5415998,00000110,false,Rx,0,8,72,F9,FF,FF,80,00,F7,39,
5417122,00000130,false,Rx,0,8,18,00,00,00,70,00,26,03,
5417123,00000100,false,Rx,0,8,5A,00,00,00,70,00,29,21,
5417124,00000120,false,Rx,0,8,73,EC,FF,FF,70,00,BF,2B,
5418246,00000110,false,Rx,0,8,72,F9,FF,FF,90,00,FA,F9,
5418247,00000050,false,Rx,0,6,41,5C,FF,FB,5F,FF,00,00,
5418247,00000130,false,Rx,0,8,EB,95,FF,FF,83,80,7B,A9,
5419371,00000100,false,Rx,0,8,5A,00,00,00,80,00,6D,21,
5419372,00000120,false,Rx,0,8,73,EC,FF,FF,80,00,FB,2B,
5420371,00000110,false,Rx,0,8,72,F9,FF,FF,A0,00,EE,F9,
5420372,00000130,false,Rx,0,8,76,00,00,00,90,00,67,4D,
5421372,00000100,false,Rx,0,8,71,00,00,00,90,00,66,FA,
5421373,00000120,false,Rx,0,8,73,EC,FF,FF,90,00,F6,EB,
5422497,00000110,false,Rx,0,8,72,F9,FF,FF,B0,00,E3,39,
5422498,00000130,false,Rx,0,8,D9,FF,FF,FF,A0,00,7F,22,
5423497,00000100,false,Rx,0,8,71,00,00,00,A0,00,72,FA,
5423498,00000120,false,Rx,0,8,73,EC,FF,FF,A0,00,E2,EB,
5424495,00000110,false,Rx,0,8,72,F9,FF,FF,C0,00,C6,F9,
5424496,00000130,false,Rx,0,8,D9,FF,FF,FF,B0,00,72,E2,
5425496,00000100,false,Rx,0,8,71,00,00,00,B0,00,7F,3A,
5425496,00000120,false,Rx,0,8,73,EC,FF,FF,B0,00,EF,2B,
5426536,00000110,false,Rx,0,8,72,F9,FF,FF,D0,00,CB,39,
5426537,00000130,false,Rx,0,8,F8,FF,FF,FF,C0,00,51,93,
5427635,00000100,false,Rx,0,8,88,00,00,00,C0,00,4E,93,
5427636,00000120,false,Rx,0,8,73,EC,FF,FF,C0,00,CA,EB,
5428643,00000110,false,Rx,0,8,72,F9,FF,FF,E0,00,DF,39,
5428645,00000130,false,Rx,0,8,18,00,00,00,D0,00,5E,03,
5429638,00000100,false,Rx,0,8,88,00,00,00,D0,00,43,53,
5429640,00000120,false,Rx,0,8,73,EC,FF,FF,D0,00,C7,2B,
5430639,00000110,false,Rx,0,8,72,F9,FF,FF,F0,00,D2,F9,
5430641,00000130,false,Rx,0,8,D9,FF,FF,FF,E0,00,4E,E2,
5431772,00000100,false,Rx,0,8,71,00,00,00,E0,00,43,3A,
5431773,00000120,false,Rx,0,8,73,EC,FF,FF,E0,00,D3,2B,
5432767,00000110,false,Rx,0,8,72,F9,FF,FF,00,00,96,F9,
5432768,00000130,false,Rx,0,8,D9,FF,FF,FF,F0,00,43,22,
5433765,00000100,false,Rx,0,8,5A,00,00,00,F0,00,48,E1,
5433765,00000140,false,Rx,0,8,01,00,FF,FF,80,00,60,2E,
5433766,00000120,false,Rx,0,8,73,EC,FF,FF,F0,00,DE,EB,
5434772,00000110,false,Rx,0,8,72,F9,FF,FF,10,00,9B,39,
5434773,00000130,false,Rx,0,8,F8,FF,FF,FF,00,00,01,93,
5435895,00000100,false,Rx,0,8,5A,00,00,00,00,00,0C,E1,
5435896,00000120,false,Rx,0,8,73,EC,FF,FF,00,00,9A,EB,
5435897,00000110,false,Rx,0,8,72,F9,FF,FF,20,00,8F,39,
5437637,00000130,false,Rx,0,8,18,00,00,00,10,00,0E,03,
5437638,00000100,false,Rx,0,8,5A,00,00,00,10,00,01,21,
5437638,00000120,false,Rx,0,8,73,EC,FF,FF,10,00,97,2B,
5438883,00000110,false,Rx,0,8,5A,F9,FF,FF,30,00,84,D1,
5438883,00000050,false,Rx,0,6,41,5C,FF,FB,5F,FF,00,00,
5438884,00000130,false,Rx,0,8,4C,BA,F5,FF,23,80,CC,A0,
5439883,00000100,false,Rx,0,8,5A,00,00,00,20,00,15,21,
5439884,00000120,false,Rx,0,8,73,EC,FF,FF,20,00,83,2B,
5440883,00000110,false,Rx,0,8,5A,F9,FF,FF,40,00,A1,11,
5440883,00000210,false,Rx,0,8,75,69,00,05,06,5F,01,03,
5440884,00000130,false,Rx,0,8,95,00,00,00,30,00,09,1E,
5442007,00000100,false,Rx,0,8,71,00,00,00,30,00,1E,FA,
5442008,00000120,false,Rx,0,8,73,EC,FF,FF,30,00,8E,EB,
5443008,00000110,false,Rx,0,8,5A,F9,FF,FF,50,00,AC,D1,
5443008,00000130,false,Rx,0,8,37,00,00,00,40,00,35,9C,
5444008,00000100,false,Rx,0,8,71,00,00,00,40,00,3B,3A,
5444009,00000120,false,Rx,0,8,57,EC,FF,FF,40,00,AD,CF,
5445133,00000110,false,Rx,0,8,5A,F9,FF,FF,60,00,B8,D1,
5445133,00000130,false,Rx,0,8,18,00,00,00,50,00,3F,C3,
5446133,00000100,false,Rx,0,8,88,00,00,00,50,00,22,93,
5446134,00000120,false,Rx,0,8,57,EC,FF,FF,50,00,A0,0F,
5447135,00000110,false,Rx,0,8,72,F9,FF,FF,70,00,B3,39,
5447136,00000130,false,Rx,0,8,D9,FF,FF,FF,60,00,2F,22,
5448132,00000100,false,Rx,0,8,88,00,00,00,60,00,36,93,
5448133,00000120,false,Rx,0,8,73,EC,FF,FF,60,00,B2,EB,
5449255,00000110,false,Rx,0,8,72,F9,FF,FF,80,00,F7,39,
5449255,00000130,false,Rx,0,8,18,00,00,00,70,00,26,03,
5450255,00000100,false,Rx,0,8,71,00,00,00,70,00,2F,3A,
5450256,00000120,false,Rx,0,8,73,EC,FF,FF,70,00,BF,2B,
5451252,00000110,false,Rx,0,8,72,F9,FF,FF,90,00,FA,F9,
5451252,00000130,false,Rx,0,8,D9,FF,FF,FF,80,00,66,E2,
5452256,00000100,false,Rx,0,8,71,00,00,00,80,00,6B,3A,
5452257,00000120,false,Rx,0,8,90,EC,FF,FF,80,00,ED,78,
5453257,00000110,false,Rx,0,8,72,F9,FF,FF,A0,00,EE,F9,
5453258,00000130,false,Rx,0,8,F8,FF,FF,FF,90,00,6D,93,
5454381,00000100,false,Rx,0,8,5A,00,00,00,90,00,60,E1,
5454382,00000140,false,Rx,0,8,01,00,FF,FF,90,00,6D,EE,
5454382,00000120,false,Rx,0,8,90,EC,FF,FF,90,00,E0,B8,
5455381,00000110,false,Rx,0,8,5A,F9,FF,FF,B0,00,E5,11,
5455381,00000130,false,Rx,0,8,D9,FF,FF,FF,A0,00,7F,22,
5456379,00000100,false,Rx,0,8,5A,00,00,00,A0,00,74,E1,
5456380,00000120,false,Rx,0,8,57,EC,FF,FF,A0,00,E4,0F,
5457380,00000110,false,Rx,0,8,5A,F9,FF,FF,C0,00,C0,D1,
5457381,00000130,false,Rx,0,8,D9,FF,FF,FF,B0,00,72,E2,
5458380,00000100,false,Rx,0,8,43,00,00,00,B0,00,7B,28,
5458381,00000120,false,Rx,0,8,57,EC,FF,FF,B0,00,E9,CF,
5458381,00000110,false,Rx,0,8,89,F9,FF,FF,D0,00,DE,B2,
5459627,00000050,false,Rx,0,6,41,5C,FF,FB,5F,FF,00,00,
5459628,00000130,false,Rx,0,8,6C,21,00,00,C3,80,E4,20,
5459629,00000100,false,Rx,0,8,5A,00,00,00,C0,00,5C,E1,
5461249,00000120,false,Rx,0,8,73,EC,FF,FF,C0,00,CA,EB,
5461250,00000110,false,Rx,0,8,89,F9,FF,FF,E0,00,CA,B2,
5462262,00000130,false,Rx,0,8,D9,FF,FF,FF,D0,00,5A,E2,
5462263,00000100,false,Rx,0,8,71,00,00,00,D0,00,57,3A,
5463382,00000120,false,Rx,0,8,73,EC,FF,FF,D0,00,C7,2B,
5463383,00000110,false,Rx,0,8,72,F9,FF,FF,F0,00,D2,F9,
5464383,00000130,false,Rx,0,8,D9,FF,FF,FF,E0,00,4E,E2,
5464384,00000100,false,Rx,0,8,71,00,00,00,E0,00,43,3A,
5465384,00000120,false,Rx,0,8,73,EC,FF,FF,E0,00,D3,2B,
5465386,00000110,false,Rx,0,8,72,F9,FF,FF,00,00,96,F9,
5466383,00000130,false,Rx,0,8,D9,FF,FF,FF,F0,00,43,22,
5466384,00000100,false,Rx,0,8,88,00,00,00,F0,00,5A,93,
5467508,00000120,false,Rx,0,8,73,EC,FF,FF,F0,00,DE,EB,
5467509,00000110,false,Rx,0,8,72,F9,FF,FF,10,00,9B,39,
5468495,00000130,false,Rx,0,8,B9,FF,FF,FF,00,00,0E,82,
5468496,00000100,false,Rx,0,8,88,00,00,00,00,00,1E,93,
5469492,00000120,false,Rx,0,8,73,EC,FF,FF,00,00,9A,EB,
5469493,00000110,false,Rx,0,8,72,F9,FF,FF,20,00,8F,39,
5470621,00000130,false,Rx,0,8,D9,FF,FF,FF,10,00,0A,E2,
5470622,00000100,false,Rx,0,8,71,00,00,00,10,00,07,3A,
5471564,00000120,false,Rx,0,8,73,EC,FF,FF,10,00,97,2B,
5471564,00000110,false,Rx,0,8,72,F9,FF,FF,30,00,82,F9,
5472734,00000130,false,Rx,0,8,18,00,00,00,20,00,1A,03,
5472734,00000100,false,Rx,0,8,71,00,00,00,20,00,13,3A,
5473670,00000120,false,Rx,0,8,73,EC,FF,FF,20,00,83,2B,
5473671,00000110,false,Rx,0,8,72,F9,FF,FF,40,00,A7,39,
5474620,00000130,false,Rx,0,8,F8,FF,FF,FF,30,00,15,93,
5474621,00000100,false,Rx,0,8,5A,00,00,00,30,00,18,E1,
5474622,00000140,false,Rx,0,8,01,00,FF,FF,A0,00,79,EE,
5475620,00000120,false,Rx,0,8,73,EC,FF,FF,30,00,8E,EB,
5475620,00000110,false,Rx,0,8,72,F9,FF,FF,50,00,AA,F9,
5476756,00000130,false,Rx,0,8,F8,FF,FF,FF,40,00,30,53,
5476757,00000100,false,Rx,0,8,5A,00,00,00,40,00,3D,21,
5477757,00000120,false,Rx,0,8,90,EC,FF,FF,40,00,BD,78,
5477758,00000110,false,Rx,0,8,72,F9,FF,FF,60,00,BE,F9,
5478757,00000130,false,Rx,0,8,37,00,00,00,50,00,38,5C,
5478758,00000100,false,Rx,0,8,5A,00,00,00,50,00,30,E1,
5478759,00000120,false,Rx,0,8,90,EC,FF,FF,50,00,B0,B8,
5480008,00000110,false,Rx,0,8,89,F9,FF,FF,70,00,A6,B2,
5480009,00000050,false,Rx,0,6,41,5C,FF,FB,5F,FF,00,00,
5480010,00000130,false,Rx,0,8,B8,34,03,00,63,80,83,B3,
5481006,00000100,false,Rx,0,8,5A,00,00,00,60,00,24,E1,
5481007,00000120,false,Rx,0,8,90,EC,FF,FF,60,00,A4,B8,
5482008,00000110,false,Rx,0,8,89,F9,FF,FF,80,00,E2,B2,
5482009,00000130,false,Rx,0,8,D9,FF,FF,FF,70,00,22,E2,
5483132,00000100,false,Rx,0,8,71,00,00,00,70,00,2F,3A,
5483133,00000120,false,Rx,0,8,90,EC,FF,FF,70,00,A9,78,
5484134,00000110,false,Rx,0,8,5A,F9,FF,FF,90,00,FC,D1,
5484135,00000170,false,Rx,0,8,00,00,00,01,00,00,00,68,
5484135,00000130,false,Rx,0,8,D9,FF,FF,FF,80,00,66,E2,
5485133,00000100,false,Rx,0,8,88,00,00,00,80,00,7F,53,
5485134,00000120,false,Rx,0,8,73,EC,FF,FF,80,00,FB,2B,
5486256,00000110,false,Rx,0,8,5A,F9,FF,FF,A0,00,E8,D1,
5486257,00000130,false,Rx,0,8,F8,FF,FF,FF,90,00,6D,93,
5487255,00000100,false,Rx,0,8,88,00,00,00,90,00,72,93,
5487256,00000120,false,Rx,0,8,73,EC,FF,FF,90,00,F6,EB,
5488259,00000110,false,Rx,0,8,5A,F9,FF,FF,B0,00,E5,11,
5488260,00000130,false,Rx,0,8,18,00,00,00,A0,00,7B,C3,
5489256,00000100,false,Rx,0,8,88,00,00,00,A0,00,66,93,
5489257,00000120,false,Rx,0,8,90,EC,FF,FF,A0,00,F4,B8,
5490380,00000110,false,Rx,0,8,5A,F9,FF,FF,C0,00,C0,D1,
5490381,00000130,false,Rx,0,8,18,00,00,00,B0,00,76,03,
5491382,00000100,false,Rx,0,8,71,00,00,00,B0,00,7F,3A,
5491383,00000120,false,Rx,0,8,90,EC,FF,FF,B0,00,F9,78,
5492382,00000110,false,Rx,0,8,72,F9,FF,FF,D0,00,CB,39,
5492383,00000130,false,Rx,0,8,F8,FF,FF,FF,C0,00,51,93,
5493382,00000100,false,Rx,0,8,5A,00,00,00,C0,00,5C,E1,
5493383,00000120,false,Rx,0,8,73,EC,FF,FF,C0,00,CA,EB,
5494382,00000110,false,Rx,0,8,72,F9,FF,FF,E0,00,DF,39,
5494383,00000130,false,Rx,0,8,F8,FF,FF,FF,D0,00,5C,53,
5495507,00000100,false,Rx,0,8,5A,00,00,00,D0,00,51,21,
5495509,00000140,false,Rx,0,8,01,00,FF,FF,B0,00,74,2E,
5495509,00000120,false,Rx,0,8,73,EC,FF,FF,D0,00,C7,2B,
5496506,00000110,false,Rx,0,8,72,F9,FF,FF,F0,00,D2,F9,
5496507,00000130,false,Rx,0,8,D9,FF,FF,FF,E0,00,4E,E2,
5497522,00000100,false,Rx,0,8,5A,00,00,00,E0,00,45,21,
5497522,00000120,false,Rx,0,8,73,EC,FF,FF,E0,00,D3,2B,
5498508,00000110,false,Rx,0,8,72,F9,FF,FF,00,00,96,F9,
5498509,00000130,false,Rx,0,8,18,00,00,00,F0,00,47,C3,
5499721,00000100,false,Rx,0,8,5A,00,00,00,F0,00,48,E1,
5499721,00000120,false,Rx,0,8,73,EC,FF,FF,F0,00,DE,EB,
5499722,00000110,false,Rx,0,8,72,F9,FF,FF,10,00,9B,39,
5500764,00000050,false,Rx,0,6,41,5C,FF,FB,5F,FF,00,00,
5500765,00000130,false,Rx,0,8,EB,95,FF,FF,03,80,1A,69,
5500766,00000100,false,Rx,0,8,71,00,00,00,00,00,0A,FA,
5502413,00000120,false,Rx,0,8,90,EC,FF,FF,00,00,8C,B8,
5502414,00000110,false,Rx,0,8,72,F9,FF,FF,20,00,8F,39,
5503382,00000130,false,Rx,0,8,B5,00,00,00,10,00,17,BE,
5503383,00000100,false,Rx,0,8,88,00,00,00,10,00,13,53,
5504537,00000120,false,Rx,0,8,90,EC,FF,FF,10,00,81,78,
5504537,00000110,false,Rx,0,8,5A,F9,FF,FF,30,00,84,D1,
5505541,00000130,false,Rx,0,8,F8,FF,FF,FF,20,00,18,53,
5505542,00000100,false,Rx,0,8,71,00,00,00,20,00,13,3A,
5506534,00000120,false,Rx,0,8,57,EC,FF,FF,20,00,85,CF,
5506535,00000110,false,Rx,0,8,5A,F9,FF,FF,40,00,A1,11,
5507521,00000130,false,Rx,0,8,F8,FF,FF,FF,30,00,15,93,
5507522,00000100,false,Rx,0,8,88,00,00,00,30,00,0A,93,
5508633,00000120,false,Rx,0,8,57,EC,FF,FF,30,00,88,0F,
5508634,00000110,false,Rx,0,8,5A,F9,FF,FF,50,00,AC,D1,
5509636,00000130,false,Rx,0,8,18,00,00,00,40,00,32,03,
5509637,00000100,false,Rx,0,8,88,00,00,00,40,00,2F,53,
5510655,00000120,false,Rx,0,8,73,EC,FF,FF,40,00,AB,2B,
5510656,00000110,false,Rx,0,8,5A,F9,FF,FF,60,00,B8,D1,
5511645,00000130,false,Rx,0,8,F8,FF,FF,FF,50,00,3D,93,
5511646,00000100,false,Rx,0,8,71,00,00,00,50,00,36,FA,
5512645,00000120,false,Rx,0,8,73,EC,FF,FF,50,00,A6,EB,
5512647,00000110,false,Rx,0,8,5A,F9,FF,FF,70,00,B5,11,
5513770,00000130,false,Rx,0,8,37,00,00,00,60,00,2C,5C,
5513771,00000100,false,Rx,0,8,71,00,00,00,60,00,22,FA,
5514767,00000120,false,Rx,0,8,73,EC,FF,FF,60,00,B2,EB,
5514768,00000110,false,Rx,0,8,5A,F9,FF,FF,80,00,F1,11,
5515770,00000130,false,Rx,0,8,18,00,00,00,70,00,26,03,
5515771,00000100,false,Rx,0,8,5A,00,00,00,70,00,29,21,
5515772,00000140,false,Rx,0,8,01,00,FF,FF,C0,00,51,EE,
5516891,00000120,false,Rx,0,8,73,EC,FF,FF,70,00,BF,2B,
5516892,00000110,false,Rx,0,8,5A,F9,FF,FF,90,00,FC,D1,
5517906,00000130,false,Rx,0,8,D9,FF,FF,FF,80,00,66,E2,
5517908,00000100,false,Rx,0,8,5A,00,00,00,80,00,6D,21,
5518905,00000120,false,Rx,0,8,73,EC,FF,FF,80,00,FB,2B,
5518906,00000110,false,Rx,0,8,5A,F9,FF,FF,A0,00,E8,D1,
5519907,00000130,false,Rx,0,8,D9,FF,FF,FF,90,00,6B,22,
5519908,00000100,false,Rx,0,8,71,00,00,00,90,00,66,FA,
5519909,00000120,false,Rx,0,8,73,EC,FF,FF,90,00,F6,EB,
5521149,00000110,false,Rx,0,8,5A,F9,FF,FF,B0,00,E5,11,
5521150,00000050,false,Rx,0,6,41,5C,FF,FB,5F,FF,00,00,
5521151,00000130,false,Rx,0,8,4C,BA,F5,FF,A3,80,AD,60,
5522156,00000100,false,Rx,0,8,71,00,00,00,A0,00,72,FA,
5522157,00000120,false,Rx,0,8,73,EC,FF,FF,A0,00,E2,EB,
5523148,00000110,false,Rx,0,8,5A,F9,FF,FF,C0,00,C0,D1,
5523150,00000130,false,Rx,0,8,76,00,00,00,B0,00,7E,8D,
5524304,00000100,false,Rx,0,8,71,00,00,00,B0,00,7F,3A,
5524306,00000120,false,Rx,0,8,73,EC,FF,FF,B0,00,EF,2B,
5525280,00000110,false,Rx,0,8,72,F9,FF,FF,D0,00,CB,39,
5525281,00000130,false,Rx,0,8,D9,FF,FF,FF,C0,00,57,22,
5526301,00000100,false,Rx,0,8,88,00,00,00,C0,00,4E,93,
5526302,00000120,false,Rx,0,8,73,EC,FF,FF,C0,00,CA,EB,
5527430,00000110,false,Rx,0,8,72,F9,FF,FF,E0,00,DF,39,
5527431,00000130,false,Rx,0,8,D9,FF,FF,FF,D0,00,5A,E2,
5528427,00000100,false,Rx,0,8,88,00,00,00,D0,00,43,53,
5528428,00000120,false,Rx,0,8,73,EC,FF,FF,D0,00,C7,2B,
5529407,00000110,false,Rx,0,8,5A,F9,FF,FF,F0,00,D4,D1,
5529408,00000130,false,Rx,0,8,F8,FF,FF,FF,E0,00,48,53,
5530396,00000100,false,Rx,0,8,71,00,00,00,E0,00,43,3A,
5530397,00000120,false,Rx,0,8,57,EC,FF,FF,E0,00,D5,CF,
5531558,00000110,false,Rx,0,8,5A,F9,FF,FF,00,00,90,D1,
5531559,00000130,false,Rx,0,8,18,00,00,00,F0,00,47,C3,
5532551,00000100,false,Rx,0,8,71,00,00,00,F0,00,4E,FA,
5532552,00000120,false,Rx,0,8,57,EC,FF,FF,F0,00,D8,0F,
5533551,00000110,false,Rx,0,8,5A,F9,FF,FF,10,00,9D,11,
5533552,00000130,false,Rx,0,8,D9,FF,FF,FF,00,00,07,22,
5534529,00000100,false,Rx,0,8,5A,00,00,00,00,00,0C,E1,
5534530,00000120,false,Rx,0,8,73,EC,FF,FF,00,00,9A,EB,
5535520,00000110,false,Rx,0,8,5A,F9,FF,FF,20,00,89,11,
5535522,00000130,false,Rx,0,8,D9,FF,FF,FF,10,00,0A,E2,
5536633,00000100,false,Rx,0,8,71,00,00,00,10,00,07,3A,
5536634,00000140,false,Rx,0,8,01,00,FF,FF,D0,00,5C,2E,
5536635,00000120,false,Rx,0,8,73,EC,FF,FF,10,00,97,2B,
5537636,00000110,false,Rx,0,8,5A,F9,FF,FF,30,00,84,D1,
5537637,00000130,false,Rx,0,8,18,00,00,00,20,00,1A,03,
5538655,00000100,false,Rx,0,8,71,00,00,00,20,00,13,3A,
5538656,00000120,false,Rx,0,8,73,EC,FF,FF,20,00,83,2B,
5539645,00000110,false,Rx,0,8,5A,F9,FF,FF,40,00,A1,11,
5539646,00000130,false,Rx,0,8,18,00,00,00,30,00,17,C3,
5540806,00000100,false,Rx,0,8,5A,00,00,00,30,00,18,E1,
5540808,00000120,false,Rx,0,8,73,EC,FF,FF,30,00,8E,EB,
5540808,00000110,false,Rx,0,8,89,F9,FF,FF,50,00,BF,72,
5541896,00000050,false,Rx,0,6,41,5C,FF,FB,5F,FF,00,00,
5541898,00000130,false,Rx,0,8,4D,21,00,00,43,80,83,51,
5541898,00000100,false,Rx,0,8,71,00,00,00,40,00,3B,3A,
5543550,00000120,false,Rx,0,8,57,EC,FF,FF,40,00,AD,CF,
5543552,00000110,false,Rx,0,8,89,F9,FF,FF,60,00,AB,72,
5544523,00000130,false,Rx,0,8,D9,FF,FF,FF,50,00,3B,22,
5544525,00000100,false,Rx,0,8,5A,00,00,00,50,00,30,E1,
5545655,00000120,false,Rx,0,8,57,EC,FF,FF,50,00,A0,0F,
5545656,00000110,false,Rx,0,8,72,F9,FF,FF,70,00,B3,39,
5546655,00000130,false,Rx,0,8,D9,FF,FF,FF,60,00,2F,22,
5546656,00000100,false,Rx,0,8,71,00,00,00,60,00,22,FA,
5547654,00000120,false,Rx,0,8,73,EC,FF,FF,60,00,B2,EB,
5547656,00000110,false,Rx,0,8,72,F9,FF,FF,80,00,F7,39,
5548654,00000130,false,Rx,0,8,18,00,00,00,70,00,26,03,
5548656,00000100,false,Rx,0,8,88,00,00,00,70,00,3B,53,
5549801,00000120,false,Rx,0,8,73,EC,FF,FF,70,00,BF,2B,
5549803,00000110,false,Rx,0,8,72,F9,FF,FF,90,00,FA,F9,
5550802,00000130,false,Rx,0,8,D9,FF,FF,FF,80,00,66,E2,
5550803,00000100,false,Rx,0,8,71,00,00,00,80,00,6B,3A,
5551780,00000120,false,Rx,0,8,73,EC,FF,FF,80,00,FB,2B,
5551781,00000110,false,Rx,0,8,72,F9,FF,FF,A0,00,EE,F9,
5552795,00000130,false,Rx,0,8,F8,FF,FF,FF,90,00,6D,93,
5552797,00000100,false,Rx,0,8,71,00,00,00,90,00,66,FA,
5553926,00000120,false,Rx,0,8,73,EC,FF,FF,90,00,F6,EB,
5553927,00000110,false,Rx,0,8,72,F9,FF,FF,B0,00,E3,39,
5554926,00000130,false,Rx,0,8,F8,FF,FF,FF,A0,00,79,93,
5554927,00000100,false,Rx,0,8,5A,00,00,00,A0,00,74,E1,
5555927,00000120,false,Rx,0,8,73,EC,FF,FF,A0,00,E2,EB,
5555928,00000110,false,Rx,0,8,72,F9,FF,FF,C0,00,C6,F9,
5556897,00000130,false,Rx,0,8,F8,FF,FF,FF,B0,00,74,53,
5556898,00000100,false,Rx,0,8,5A,00,00,00,B0,00,79,21,
5556899,00000140,false,Rx,0,8,01,00,FF,FF,E0,00,48,2E,
5558051,00000120,false,Rx,0,8,73,EC,FF,FF,B0,00,EF,2B,
5558052,00000110,false,Rx,0,8,72,F9,FF,FF,D0,00,CB,39,
5559051,00000130,false,Rx,0,8,D9,FF,FF,FF,C0,00,57,22,
5559052,00000100,false,Rx,0,8,71,00,00,00,C0,00,5A,FA,
5560028,00000120,false,Rx,0,8,73,EC,FF,FF,C0,00,CA,EB,
5560030,00000110,false,Rx,0,8,72,F9,FF,FF,E0,00,DF,39,
5561022,00000130,false,Rx,0,8,56,00,00,00,D0,00,51,ED,
5561023,00000100,false,Rx,0,8,5A,00,00,00,D0,00,51,21,
5561024,00000120,false,Rx,0,8,73,EC,FF,FF,D0,00,C7,2B,
5562292,00000110,false,Rx,0,8,89,F9,FF,FF,F0,00,C7,72,
5562294,00000050,false,Rx,0,6,41,5C,FF,FB,5F,FF,00,00,
5562295,00000130,false,Rx,0,8,B8,34,03,00,E3,80,E2,73,
5563279,00000100,false,Rx,0,8,71,00,00,00,E0,00,43,3A,
5563281,00000120,false,Rx,0,8,73,EC,FF,FF,E0,00,D3,2B,
5564270,00000110,false,Rx,0,8,89,F9,FF,FF,00,00,83,72,
5564271,00000130,false,Rx,0,8,F8,FF,FF,FF,F0,00,45,93,
5565405,00000100,false,Rx,0,8,88,00,00,00,F0,00,5A,93,
5565406,00000120,false,Rx,0,8,73,EC,FF,FF,F0,00,DE,EB,
5566397,00000110,false,Rx,0,8,5A,F9,FF,FF,10,00,9D,11,
5566398,00000130,false,Rx,0,8,18,00,00,00,00,00,03,C3,
5567524,00000100,false,Rx,0,8,88,00,00,00,00,00,1E,93,
5567525,00000120,false,Rx,0,8,90,EC,FF,FF,00,00,8C,B8,
5567526,00000110,false,Rx,0,8,5A,F9,FF,FF,20,00,89,11,
5569297,00000130,false,Rx,0,8,B9,FF,FF,FF,10,00,03,42,
5569298,00000100,false,Rx,0,8,88,00,00,00,10,00,13,53,
5570280,00000120,false,Rx,0,8,90,EC,FF,FF,10,00,81,78,
5570281,00000110,false,Rx,0,8,5A,F9,FF,FF,30,00,84,D1,
5571269,00000130,false,Rx,0,8,18,00,00,00,20,00,1A,03,
5571270,00000100,false,Rx,0,8,71,00,00,00,20,00,13,3A,
5572427,00000120,false,Rx,0,8,73,EC,FF,FF,20,00,83,2B,
5572428,00000110,false,Rx,0,8,5A,F9,FF,FF,40,00,A1,11,
5573425,00000130,false,Rx,0,8,D9,FF,FF,FF,30,00,13,22,
5573426,00000100,false,Rx,0,8,71,00,00,00,30,00,1E,FA,
5574402,00000120,false,Rx,0,8,73,EC,FF,FF,30,00,8E,EB,
5574403,00000110,false,Rx,0,8,5A,F9,FF,FF,50,00,AC,D1,
5575402,00000130,false,Rx,0,8,D9,FF,FF,FF,40,00,36,E2,
5575403,00000100,false,Rx,0,8,5A,00,00,00,40,00,3D,21,
5576397,00000120,false,Rx,0,8,90,EC,FF,FF,40,00,BD,78,
5576398,00000110,false,Rx,0,8,5A,F9,FF,FF,60,00,B8,D1,
5577553,00000130,false,Rx,0,8,F8,FF,FF,FF,50,00,3D,93,
5577555,00000100,false,Rx,0,8,5A,00,00,00,50,00,30,E1,
5577555,00000140,false,Rx,0,8,01,00,FF,FF,F0,00,45,EE,
5578547,00000120,false,Rx,0,8,90,EC,FF,FF,50,00,B0,B8,
5578549,00000110,false,Rx,0,8,72,F9,FF,FF,70,00,B3,39,
5579541,00000130,false,Rx,0,8,18,00,00,00,60,00,2B,C3,
5579543,00000100,false,Rx,0,8,71,00,00,00,60,00,22,FA,
5580531,00000120,false,Rx,0,8,73,EC,FF,FF,60,00,B2,EB,
5580532,00000110,false,Rx,0,8,72,F9,FF,FF,80,00,F7,39,
5581629,00000130,false,Rx,0,8,18,00,00,00,70,00,26,03,
5581630,00000100,false,Rx,0,8,71,00,00,00,70,00,2F,3A,
5581631,00000120,false,Rx,0,8,73,EC,FF,FF,70,00,BF,2B,
5582798,00000110,false,Rx,0,8,5A,F9,FF,FF,90,00,FC,D1,
5582799,00000050,false,Rx,0,6,41,5C,FF,FB,5F,FF,00,00,
5582800,00000130,false,Rx,0,8,EB,95,FF,FF,83,80,7B,A9,
5583925,00000100,false,Rx,0,8,71,00,00,00,80,00,6B,3A,
5583927,00000120,false,Rx,0,8,73,EC,FF,FF,80,00,FB,2B,
5584928,00000110,false,Rx,0,8,5A,F9,FF,FF,A0,00,E8,D1,
5584929,00000130,false,Rx,0,8,76,00,00,00,90,00,67,4D,
5585903,00000100,false,Rx,0,8,88,00,00,00,90,00,72,93,
5585904,00000120,false,Rx,0,8,73,EC,FF,FF,90,00,F6,EB,
5587056,00000110,false,Rx,0,8,72,F9,FF,FF,B0,00,E3,39,
5587057,00000170,false,Rx,0,8,00,00,00,52,50,41,05,D4,
5587058,00000130,false,Rx,0,8,18,00,00,00,A0,00,7B,C3,
5588028,00000100,false,Rx,0,8,71,00,00,00,A0,00,72,FA,
5588030,00000120,false,Rx,0,8,73,EC,FF,FF,A0,00,E2,EB,
5589021,00000110,false,Rx,0,8,72,F9,FF,FF,C0,00,C6,F9,
5589023,00000130,false,Rx,0,8,D9,FF,FF,FF,B0,00,72,E2,
5590028,00000100,false,Rx,0,8,88,00,00,00,B0,00,6B,53,
5590029,00000120,false,Rx,0,8,73,EC,FF,FF,B0,00,EF,2B,
5591022,00000110,false,Rx,0,8,72,F9,FF,FF,D0,00,CB,39,
5591024,00000130,false,Rx,0,8,F8,FF,FF,FF,C0,00,51,93,
5592177,00000100,false,Rx,0,8,71,00,00,00,C0,00,5A,FA,
5592178,00000120,false,Rx,0,8,73,EC,FF,FF,C0,00,CA,EB,
5593156,00000110,false,Rx,0,8,72,F9,FF,FF,E0,00,DF,39,
5593158,00000130,false,Rx,0,8,F8,FF,FF,FF,D0,00,5C,53,
5594174,00000100,false,Rx,0,8,71,00,00,00,D0,00,57,3A,
5594175,00000120,false,Rx,0,8,73,EC,FF,FF,D0,00,C7,2B,
5595144,00000110,false,Rx,0,8,5A,F9,FF,FF,F0,00,D4,D1,
5595145,00000130,false,Rx,0,8,18,00,00,00,E0,00,4A,03,
5596300,00000100,false,Rx,0,8,5A,00,00,00,E0,00,45,21,
5596302,00000120,false,Rx,0,8,73,EC,FF,FF,E0,00,D3,2B,
5597301,00000110,false,Rx,0,8,5A,F9,FF,FF,00,00,90,D1,
5597303,00000130,false,Rx,0,8,D9,FF,FF,FF,F0,00,43,22,
5598279,00000100,false,Rx,0,8,43,00,00,00,F0,00,4A,E8,
5598280,00000140,false,Rx,0,8,01,00,FF,FF,00,00,01,EE,
5598281,00000120,false,Rx,0,8,73,EC,FF,FF,F0,00,DE,EB,
5599296,00000110,false,Rx,0,8,72,F9,FF,FF,10,00,9B,39,
5599297,00000130,false,Rx,0,8,18,00,00,00,00,00,03,C3,
5600426,00000100,false,Rx,0,8,5A,00,00,00,00,00,0C,E1,
5600427,00000120,false,Rx,0,8,73,EC,FF,FF,00,00,9A,EB,
5601400,00000110,false,Rx,0,8,72,F9,FF,FF,20,00,8F,39,
5601401,00000130,false,Rx,0,8,18,00,00,00,10,00,0E,03,
5602403,00000100,false,Rx,0,8,71,00,00,00,10,00,07,3A,
5602404,00000120,false,Rx,0,8,73,EC,FF,FF,10,00,97,2B,
5602405,00000110,false,Rx,0,8,5A,F9,FF,FF,30,00,84,D1,
5603525,00000050,false,Rx,0,6,41,5C,FF,FB,5F,FF,00,00,
5603526,00000130,false,Rx,0,8,4C,BA,F5,FF,23,80,CC,A0,
5603526,00000100,false,Rx,0,8,88,00,00,00,20,00,07,53,
5605152,00000120,false,Rx,0,8,73,EC,FF,FF,20,00,83,2B,
5605154,00000110,false,Rx,0,8,5A,F9,FF,FF,40,00,A1,11,
5605154,00000210,false,Rx,0,8,75,69,00,05,06,5F,01,03,
5606272,00000130,false,Rx,0,8,56,00,00,00,30,00,18,2D,
5606273,00000100,false,Rx,0,8,88,00,00,00,30,00,0A,93,
5607277,00000120,false,Rx,0,8,73,EC,FF,FF,30,00,8E,EB,
5607278,00000110,false,Rx,0,8,72,F9,FF,FF,50,00,AA,F9,
5608402,00000130,false,Rx,0,8,18,00,00,00,40,00,32,03,
5608403,00000100,false,Rx,0,8,88,00,00,00,40,00,2F,53,
5609426,00000120,false,Rx,0,8,73,EC,FF,FF,40,00,AB,2B,
5609427,00000110,false,Rx,0,8,72,F9,FF,FF,60,00,BE,F9,
5610424,00000130,false,Rx,0,8,F8,FF,FF,FF,50,00,3D,93,
5610426,00000100,false,Rx,0,8,88,00,00,00,50,00,22,93,
5611405,00000120,false,Rx,0,8,73,EC,FF,FF,50,00,A6,EB,
5611406,00000110,false,Rx,0,8,5A,F9,FF,FF,70,00,B5,11,
5612394,00000130,false,Rx,0,8,F8,FF,FF,FF,60,00,29,93,
5612396,00000100,false,Rx,0,8,71,00,00,00,60,00,22,FA,
5613551,00000120,false,Rx,0,8,90,EC,FF,FF,60,00,A4,B8,
5613552,00000110,false,Rx,0,8,5A,F9,FF,FF,80,00,F1,11,
5614558,00000130,false,Rx,0,8,D9,FF,FF,FF,70,00,22,E2,
5614559,00000100,false,Rx,0,8,5A,00,00,00,70,00,29,21,
5615530,00000120,false,Rx,0,8,90,EC,FF,FF,70,00,A9,78,
5615531,00000110,false,Rx,0,8,5A,F9,FF,FF,90,00,FC,D1,
5616527,00000130,false,Rx,0,8,F8,FF,FF,FF,80,00,60,53,
5616528,00000100,false,Rx,0,8,5A,00,00,00,80,00,6D,21,
5617522,00000120,false,Rx,0,8,73,EC,FF,FF,80,00,FB,2B,
5617523,00000110,false,Rx,0,8,5A,F9,FF,FF,A0,00,E8,D1,
5618630,00000130,false,Rx,0,8,18,00,00,00,90,00,6F,C3,
5618632,00000100,false,Rx,0,8,43,00,00,00,90,00,62,E8,
5618632,00000140,false,Rx,0,8,01,00,FF,FF,10,00,0C,2E,
5619623,00000120,false,Rx,0,8,73,EC,FF,FF,90,00,F6,EB,
5619625,00000110,false,Rx,0,8,72,F9,FF,FF,B0,00,E3,39,
5620631,00000130,false,Rx,0,8,F8,FF,FF,FF,A0,00,79,93,
5620632,00000100,false,Rx,0,8,5A,00,00,00,A0,00,74,E1,
5621627,00000120,false,Rx,0,8,73,EC,FF,FF,A0,00,E2,EB,
5621628,00000110,false,Rx,0,8,72,F9,FF,FF,C0,00,C6,F9,
5622802,00000130,false,Rx,0,8,37,00,00,00,B0,00,71,9C,
5622804,00000100,false,Rx,0,8,71,00,00,00,B0,00,7F,3A,
5622804,00000120,false,Rx,0,8,73,EC,FF,FF,B0,00,EF,2B,
5623916,00000110,false,Rx,0,8,89,F9,FF,FF,D0,00,DE,B2,
5623917,00000050,false,Rx,0,6,41,5C,FF,FB,5F,FF,00,00,
5623918,00000130,false,Rx,0,8,4D,21,00,00,C3,80,E2,91,
5625046,00000100,false,Rx,0,8,71,00,00,00,C0,00,5A,FA,
5625047,00000120,false,Rx,0,8,73,EC,FF,FF,C0,00,CA,EB,
5626031,00000110,false,Rx,0,8,89,F9,FF,FF,E0,00,CA,B2,
5626032,00000130,false,Rx,0,8,18,00,00,00,D0,00,5E,03,
5627022,00000100,false,Rx,0,8,71,00,00,00,D0,00,57,3A,
5627023,00000120,false,Rx,0,8,73,EC,FF,FF,D0,00,C7,2B,
5628122,00000110,false,Rx,0,8,72,F9,FF,FF,F0,00,D2,F9,
5628123,00000130,false,Rx,0,8,18,00,00,00,E0,00,4A,03,
5629123,00000100,false,Rx,0,8,88,00,00,00,E0,00,57,53,
5629125,00000120,false,Rx,0,8,73,EC,FF,FF,E0,00,D3,2B,
5630118,00000110,false,Rx,0,8,72,F9,FF,FF,00,00,96,F9,
5630119,00000130,false,Rx,0,8,18,00,00,00,F0,00,47,C3,
5631119,00000100,false,Rx,0,8,71,00,00,00,F0,00,4E,FA,
5631120,00000120,false,Rx,0,8,73,EC,FF,FF,F0,00,DE,EB,
5632117,00000110,false,Rx,0,8,5A,F9,FF,FF,10,00,9D,11,
5632118,00000130,false,Rx,0,8,18,00,00,00,00,00,03,C3,
5633242,00000100,false,Rx,0,8,5A,00,00,00,00,00,0C,E1,
5633243,00000120,false,Rx,0,8,73,EC,FF,FF,00,00,9A,EB,
5634242,00000110,false,Rx,0,8,5A,F9,FF,FF,20,00,89,11,
5634243,00000130,false,Rx,0,8,F8,FF,FF,FF,10,00,0C,53,
5635241,00000100,false,Rx,0,8,71,00,00,00,10,00,07,3A,
5635242,00000120,false,Rx,0,8,73,EC,FF,FF,10,00,97,2B,
5636370,00000110,false,Rx,0,8,5A,F9,FF,FF,30,00,84,D1,
5636371,00000130,false,Rx,0,8,18,00,00,00,20,00,1A,03,
5637370,00000100,false,Rx,0,8,5A,00,00,00,20,00,15,21,
5637371,00000120,false,Rx,0,8,73,EC,FF,FF,20,00,83,2B,
5638369,00000110,false,Rx,0,8,5A,F9,FF,FF,40,00,A1,11,
5638370,00000130,false,Rx,0,8,18,00,00,00,30,00,17,C3,
5639368,00000100,false,Rx,0,8,71,00,00,00,30,00,1E,FA,
5639369,00000140,false,Rx,0,8,01,00,FF,FF,20,00,18,2E,
5639370,00000120,false,Rx,0,8,73,EC,FF,FF,30,00,8E,EB,
5640368,00000110,false,Rx,0,8,5A,F9,FF,FF,50,00,AC,D1,
5640369,00000130,false,Rx,0,8,F8,FF,FF,FF,40,00,30,53,
5641493,00000100,false,Rx,0,8,71,00,00,00,40,00,3B,3A,
5641494,00000120,false,Rx,0,8,73,EC,FF,FF,40,00,AB,2B,
5642494,00000110,false,Rx,0,8,5A,F9,FF,FF,60,00,B8,D1,
5642495,00000130,false,Rx,0,8,F8,FF,FF,FF,50,00,3D,93,
5643493,00000100,false,Rx,0,8,71,00,00,00,50,00,36,FA,
5643494,00000120,false,Rx,0,8,73,EC,FF,FF,50,00,A6,EB,
5643494,00000110,false,Rx,0,8,A0,F9,FF,FF,70,00,A1,4B,
5644744,00000050,false,Rx,0,6,41,5C,FF,FB,5F,FF,00,00,
5644745,00000130,false,Rx,0,8,B8,34,03,00,63,80,83,B3,
5644746,00000100,false,Rx,0,8,71,00,00,00,60,00,22,FA,
5646368,00000120,false,Rx,0,8,73,EC,FF,FF,60,00,B2,EB,
5646369,00000110,false,Rx,0,8,A0,F9,FF,FF,80,00,E5,4B,
5647368,00000130,false,Rx,0,8,F8,FF,FF,FF,70,00,24,53,
5647369,00000100,false,Rx,0,8,88,00,00,00,70,00,3B,53,
5648368,00000120,false,Rx,0,8,73,EC,FF,FF,70,00,BF,2B,
5648369,00000110,false,Rx,0,8,72,F9,FF,FF,90,00,FA,F9,
5649368,00000130,false,Rx,0,8,F8,FF,FF,FF,80,00,60,53,
5649369,00000100,false,Rx,0,8,88,00,00,00,80,00,7F,53,
5650493,00000120,false,Rx,0,8,73,EC,FF,FF,80,00,FB,2B,
5650494,00000110,false,Rx,0,8,72,F9,FF,FF,A0,00,EE,F9,
5651493,00000130,false,Rx,0,8,D9,FF,FF,FF,90,00,6B,22,
5651494,00000100,false,Rx,0,8,71,00,00,00,90,00,66,FA,
5652493,00000120,false,Rx,0,8,73,EC,FF,FF,90,00,F6,EB,
5652494,00000110,false,Rx,0,8,72,F9,FF,FF,B0,00,E3,39,
5653493,00000130,false,Rx,0,8,D9,FF,FF,FF,A0,00,7F,22,
5653494,00000100,false,Rx,0,8,71,00,00,00,A0,00,72,FA,
5654617,00000120,false,Rx,0,8,73,EC,FF,FF,A0,00,E2,EB,
5654618,00000110,false,Rx,0,8,72,F9,FF,FF,C0,00,C6,F9,
5655619,00000130,false,Rx,0,8,F8,FF,FF,FF,B0,00,74,53,
5655620,00000100,false,Rx,0,8,5A,00,00,00,B0,00,79,21,
5656617,00000120,false,Rx,0,8,73,EC,FF,FF,B0,00,EF,2B,
5656618,00000110,false,Rx,0,8,72,F9,FF,FF,D0,00,CB,39,
5657617,00000130,false,Rx,0,8,F8,FF,FF,FF,C0,00,51,93,
5657618,00000100,false,Rx,0,8,5A,00,00,00,C0,00,5C,E1,
5658743,00000120,false,Rx,0,8,73,EC,FF,FF,C0,00,CA,EB,
5658744,00000110,false,Rx,0,8,72,F9,FF,FF,E0,00,DF,39,
5659743,00000130,false,Rx,0,8,18,00,00,00,D0,00,5E,03,
5659744,00000100,false,Rx,0,8,5A,00,00,00,D0,00,51,21,
5659745,00000140,false,Rx,0,8,01,00,FF,FF,30,00,15,EE,
5660743,00000120,false,Rx,0,8,73,EC,FF,FF,D0,00,C7,2B,
5660744,00000110,false,Rx,0,8,5A,F9,FF,FF,F0,00,D4,D1,
5661743,00000130,false,Rx,0,8,B9,FF,FF,FF,E0,00,47,42,
5661743,00000100,false,Rx,0,8,71,00,00,00,E0,00,43,3A,
5662743,00000120,false,Rx,0,8,73,EC,FF,FF,E0,00,D3,2B,
5662743,00000110,false,Rx,0,8,5A,F9,FF,FF,00,00,90,D1,
5663868,00000130,false,Rx,0,8,D9,FF,FF,FF,F0,00,43,22,
5663869,00000100,false,Rx,0,8,71,00,00,00,F0,00,4E,FA,
5663869,00000120,false,Rx,0,8,73,EC,FF,FF,F0,00,DE,EB,
5664993,00000110,false,Rx,0,8,5A,F9,FF,FF,10,00,9D,11,
5664994,00000050,false,Rx,0,6,41,5C,FF,FB,5F,FF,00,00,
5664994,00000130,false,Rx,0,8,EB,95,FF,FF,03,80,1A,69,
5666118,00000100,false,Rx,0,8,88,00,00,00,00,00,1E,93,
5666119,00000120,false,Rx,0,8,73,EC,FF,FF,00,00,9A,EB,
5667118,00000110,false,Rx,0,8,5A,F9,FF,FF,20,00,89,11,
5667119,00000130,false,Rx,0,8,95,00,00,00,10,00,10,DE,
5668117,00000100,false,Rx,0,8,88,00,00,00,10,00,13,53,
5668118,00000120,false,Rx,0,8,73,EC,FF,FF,10,00,97,2B,
5669242,00000110,false,Rx,0,8,72,F9,FF,FF,30,00,82,F9,
5669243,00000130,false,Rx,0,8,18,00,00,00,20,00,1A,03,
5670243,00000100,false,Rx,0,8,71,00,00,00,20,00,13,3A,
5670244,00000120,false,Rx,0,8,73,EC,FF,FF,20,00,83,2B,
5671242,00000110,false,Rx,0,8,72,F9,FF,FF,40,00,A7,39,
5671243,00000130,false,Rx,0,8,F8,FF,FF,FF,30,00,15,93,
5672243,00000100,false,Rx,0,8,5A,00,00,00,30,00,18,E1,
5672244,00000120,false,Rx,0,8,73,EC,FF,FF,30,00,8E,EB,
5673368,00000110,false,Rx,0,8,72,F9,FF,FF,50,00,AA,F9,
5673369,00000130,false,Rx,0,8,F8,FF,FF,FF,40,00,30,53,
5674388,00000100,false,Rx,0,8,71,00,00,00,40,00,3B,3A,
5674389,00000120,false,Rx,0,8,90,EC,FF,FF,40,00,BD,78,
5675377,00000110,false,Rx,0,8,72,F9,FF,FF,60,00,BE,F9,
5675378,00000130,false,Rx,0,8,F8,FF,FF,FF,50,00,3D,93,
5676393,00000100,false,Rx,0,8,5A,00,00,00,50,00,30,E1,
5676395,00000120,false,Rx,0,8,90,EC,FF,FF,50,00,B0,B8,
5677397,00000110,false,Rx,0,8,5A,F9,FF,FF,70,00,B5,11,
5677398,00000130,false,Rx,0,8,18,00,00,00,60,00,2B,C3,
5678498,00000100,false,Rx,0,8,5A,00,00,00,60,00,24,E1,
5678499,00000120,false,Rx,0,8,73,EC,FF,FF,60,00,B2,EB,
5679495,00000110,false,Rx,0,8,5A,F9,FF,FF,80,00,F1,11,
5679496,00000130,false,Rx,0,8,F8,FF,FF,FF,70,00,24,53,
5680493,00000100,false,Rx,0,8,71,00,00,00,70,00,2F,3A,
5680494,00000140,false,Rx,0,8,01,00,FF,FF,40,00,30,2E,
5680495,00000120,false,Rx,0,8,73,EC,FF,FF,70,00,BF,2B,
5681493,00000110,false,Rx,0,8,5A,F9,FF,FF,90,00,FC,D1,
5681494,00000130,false,Rx,0,8,D9,FF,FF,FF,80,00,66,E2,
5682624,00000100,false,Rx,0,8,71,00,00,00,80,00,6B,3A,
5682624,00000120,false,Rx,0,8,90,EC,FF,FF,80,00,ED,78,
5683618,00000110,false,Rx,0,8,5A,F9,FF,FF,A0,00,E8,D1,
5683618,00000130,false,Rx,0,8,18,00,00,00,90,00,6F,C3,
5684617,00000100,false,Rx,0,8,71,00,00,00,90,00,66,FA,
5684618,00000120,false,Rx,0,8,90,EC,FF,FF,90,00,E0,B8,
5684618,00000110,false,Rx,0,8,5A,F9,FF,FF,B0,00,E5,11,
5685867,00000050,false,Rx,0,6,41,5C,FF,FB,5F,FF,00,00,
5685868,00000130,false,Rx,0,8,4C,BA,F5,FF,A3,80,AD,60,
5685870,00000100,false,Rx,0,8,71,00,00,00,A0,00,72,FA,
5687367,00000120,false,Rx,0,8,90,EC,FF,FF,A0,00,F4,B8,
5687368,00000110,false,Rx,0,8,5A,F9,FF,FF,C0,00,C0,D1,
5688492,00000130,false,Rx,0,8,95,00,00,00,B0,00,68,DE,
5688493,00000100,false,Rx,0,8,88,00,00,00,B0,00,6B,53,
5689492,00000120,false,Rx,0,8,90,EC,FF,FF,B0,00,F9,78,
5689493,00000110,false,Rx,0,8,5A,F9,FF,FF,D0,00,CD,11,
5689493,00000170,false,Rx,0,8,00,00,00,53,50,81,05,6A,
5690617,00000130,false,Rx,0,8,F8,FF,FF,FF,C0,00,51,93,
5690618,00000100,false,Rx,0,8,71,00,00,00,C0,00,5A,FA,
5691616,00000120,false,Rx,0,8,73,EC,FF,FF,C0,00,CA,EB,
5691617,00000110,false,Rx,0,8,5A,F9,FF,FF,E0,00,D9,11,
5692615,00000130,false,Rx,0,8,F8,FF,FF,FF,D0,00,5C,53,
5692616,00000100,false,Rx,0,8,71,00,00,00,D0,00,57,3A,
5693615,00000120,false,Rx,0,8,73,EC,FF,FF,D0,00,C7,2B,
5693616,00000110,false,Rx,0,8,72,F9,FF,FF,F0,00,D2,F9,
5694616,00000130,false,Rx,0,8,D9,FF,FF,FF,E0,00,4E,E2,
5694616,00000100,false,Rx,0,8,5A,00,00,00,E0,00,45,21,
5695742,00000120,false,Rx,0,8,73,EC,FF,FF,E0,00,D3,2B,
5695743,00000110,false,Rx,0,8,72,F9,FF,FF,00,00,96,F9,
5696742,00000130,false,Rx,0,8,F8,FF,FF,FF,F0,00,45,93,
5696743,00000100,false,Rx,0,8,5A,00,00,00,F0,00,48,E1,
5697741,00000120,false,Rx,0,8,73,EC,FF,FF,F0,00,DE,EB,
5697742,00000110,false,Rx,0,8,5A,F9,FF,FF,10,00,9D,11,
5698741,00000130,false,Rx,0,8,F8,FF,FF,FF,00,00,01,93,
5698742,00000100,false,Rx,0,8,5A,00,00,00,00,00,0C,E1,
5699867,00000120,false,Rx,0,8,73,EC,FF,FF,00,00,9A,EB,
5699867,00000110,false,Rx,0,8,5A,F9,FF,FF,20,00,89,11,
5700867,00000130,false,Rx,0,8,D9,FF,FF,FF,10,00,0A,E2,
5700868,00000100,false,Rx,0,8,71,00,00,00,10,00,07,3A,
5700869,00000140,false,Rx,0,8,01,00,FF,FF,50,00,3D,EE,
5701867,00000120,false,Rx,0,8,73,EC,FF,FF,10,00,97,2B,
5701868,00000110,false,Rx,0,8,5A,F9,FF,FF,30,00,84,D1,
5702867,00000130,false,Rx,0,8,F8,FF,FF,FF,20,00,18,53,
5702868,00000100,false,Rx,0,8,71,00,00,00,20,00,13,3A,
5703867,00000120,false,Rx,0,8,73,EC,FF,FF,20,00,83,2B,
5703868,00000110,false,Rx,0,8,5A,F9,FF,FF,40,00,A1,11,
5704991,00000130,false,Rx,0,8,18,00,00,00,30,00,17,C3,
5704992,00000100,false,Rx,0,8,71,00,00,00,30,00,1E,FA,
5704992,00000120,false,Rx,0,8,73,EC,FF,FF,30,00,8E,EB,
5706116,00000110,false,Rx,0,8,A0,F9,FF,FF,50,00,B8,8B,
5706117,00000050,false,Rx,0,6,41,5C,FF,FB,5F,FF,00,00,
5706117,00000130,false,Rx,0,8,4D,21,00,00,43,80,83,51,
5707240,00000100,false,Rx,0,8,88,00,00,00,40,00,2F,53,
5707241,00000120,false,Rx,0,8,57,EC,FF,FF,40,00,AD,CF,
5708241,00000110,false,Rx,0,8,A0,F9,FF,FF,60,00,AC,8B,
5708242,00000130,false,Rx,0,8,D9,FF,FF,FF,50,00,3B,22,
5709240,00000100,false,Rx,0,8,88,00,00,00,50,00,22,93,
5709241,00000120,false,Rx,0,8,57,EC,FF,FF,50,00,A0,0F,
5710365,00000110,false,Rx,0,8,5A,F9,FF,FF,70,00,B5,11,
5710366,00000130,false,Rx,0,8,F8,FF,FF,FF,60,00,29,93,
5711365,00000100,false,Rx,0,8,71,00,00,00,60,00,22,FA,
5711366,00000120,false,Rx,0,8,73,EC,FF,FF,60,00,B2,EB,
5712365,00000110,false,Rx,0,8,5A,F9,FF,FF,80,00,F1,11,
5712366,00000130,false,Rx,0,8,18,00,00,00,70,00,26,03,
5713365,00000100,false,Rx,0,8,5A,00,00,00,70,00,29,21,
5713366,00000120,false,Rx,0,8,73,EC,FF,FF,70,00,BF,2B,
5714489,00000110,false,Rx,0,8,5A,F9,FF,FF,90,00,FC,D1,
5714490,00000130,false,Rx,0,8,D9,FF,FF,FF,80,00,66,E2,
5715490,00000100,false,Rx,0,8,5A,00,00,00,80,00,6D,21,
5715490,00000120,false,Rx,0,8,90,EC,FF,FF,80,00,ED,78,
5716489,00000110,false,Rx,0,8,5A,F9,FF,FF,A0,00,E8,D1,
5716490,00000130,false,Rx,0,8,F8,FF,FF,FF,90,00,6D,93,
5717495,00000100,false,Rx,0,8,71,00,00,00,90,00,66,FA,
5717496,00000120,false,Rx,0,8,90,EC,FF,FF,90,00,E0,B8,
5718491,00000110,false,Rx,0,8,5A,F9,FF,FF,B0,00,E5,11,
5718492,00000130,false,Rx,0,8,18,00,00,00,A0,00,7B,C3,
5719643,00000100,false,Rx,0,8,71,00,00,00,A0,00,72,FA,
5719645,00000120,false,Rx,0,8,73,EC,FF,FF,A0,00,E2,EB,
5720655,00000110,false,Rx,0,8,5A,F9,FF,FF,C0,00,C0,D1,
5720657,00000130,false,Rx,0,8,B9,FF,FF,FF,B0,00,7B,42,
5721649,00000100,false,Rx,0,8,71,00,00,00,B0,00,7F,3A,
5721651,00000140,false,Rx,0,8,01,00,FF,FF,60,00,29,EE,
5721652,00000120,false,Rx,0,8,73,EC,FF,FF,B0,00,EF,2B,
5722646,00000110,false,Rx,0,8,72,F9,FF,FF,D0,00,CB,39,
5722647,00000130,false,Rx,0,8,F8,FF,FF,FF,C0,00,51,93,
5723772,00000100,false,Rx,0,8,71,00,00,00,C0,00,5A,FA,
5723773,00000120,false,Rx,0,8,73,EC,FF,FF,C0,00,CA,EB,
5724799,00000110,false,Rx,0,8,72,F9,FF,FF,E0,00,DF,39,
5724800,00000130,false,Rx,0,8,F8,FF,FF,FF,D0,00,5C,53,
5725773,00000100,false,Rx,0,8,71,00,00,00,D0,00,57,3A,
5725775,00000120,false,Rx,0,8,73,EC,FF,FF,D0,00,C7,2B,
5725775,00000110,false,Rx,0,8,89,F9,FF,FF,F0,00,C7,72,
5727018,00000050,false,Rx,0,6,41,5C,FF,FB,5F,FF,00,00,
5727019,00000130,false,Rx,0,8,B8,34,03,00,E3,80,E2,73,
5727020,00000100,false,Rx,0,8,71,00,00,00,E0,00,43,3A,
5728496,00000120,false,Rx,0,8,73,EC,FF,FF,E0,00,D3,2B,
5728497,00000110,false,Rx,0,8,89,F9,FF,FF,00,00,83,72,
5729614,00000130,false,Rx,0,8,F8,FF,FF,FF,F0,00,45,93,
5729615,00000100,false,Rx,0,8,88,00,00,00,F0,00,5A,93,
5730614,00000120,false,Rx,0,8,73,EC,FF,FF,F0,00,DE,EB,
5730615,00000110,false,Rx,0,8,72,F9,FF,FF,10,00,9B,39,
5731741,00000130,false,Rx,0,8,F8,FF,FF,FF,00,00,01,93,
5731742,00000100,false,Rx,0,8,71,00,00,00,00,00,0A,FA,
5732740,00000120,false,Rx,0,8,90,EC,FF,FF,00,00,8C,B8,
5732741,00000110,false,Rx,0,8,72,F9,FF,FF,20,00,8F,39,
5733740,00000130,false,Rx,0,8,F8,FF,FF,FF,10,00,0C,53,
5733741,00000100,false,Rx,0,8,5A,00,00,00,10,00,01,21,
5734741,00000120,false,Rx,0,8,90,EC,FF,FF,10,00,81,78,
5734742,00000110,false,Rx,0,8,5A,F9,FF,FF,30,00,84,D1,
5735739,00000130,false,Rx,0,8,18,00,00,00,20,00,1A,03,
5735740,00000100,false,Rx,0,8,5A,00,00,00,20,00,15,21,
5736863,00000120,false,Rx,0,8,73,EC,FF,FF,20,00,83,2B,
5736864,00000110,false,Rx,0,8,5A,F9,FF,FF,40,00,A1,11,
5737866,00000130,false,Rx,0,8,D9,FF,FF,FF,30,00,13,22,
5737867,00000100,false,Rx,0,8,5A,00,00,00,30,00,18,E1,
5738863,00000120,false,Rx,0,8,73,EC,FF,FF,30,00,8E,EB,
5738864,00000110,false,Rx,0,8,72,F9,FF,FF,50,00,AA,F9,
5739863,00000130,false,Rx,0,8,D9,FF,FF,FF,40,00,36,E2,
5739863,00000100,false,Rx,0,8,5A,00,00,00,40,00,3D,21,
5740863,00000120,false,Rx,0,8,73,EC,FF,FF,40,00,AB,2B,
5740863,00000110,false,Rx,0,8,72,F9,FF,FF,60,00,BE,F9,
5741988,00000130,false,Rx,0,8,18,00,00,00,50,00,3F,C3,
5741989,00000100,false,Rx,0,8,71,00,00,00,50,00,36,FA,
5741990,00000140,false,Rx,0,8,01,00,FF,FF,70,00,24,2E,
5742988,00000120,false,Rx,0,8,73,EC,FF,FF,50,00,A6,EB,
5742989,00000110,false,Rx,0,8,72,F9,FF,FF,70,00,B3,39,
5743988,00000130,false,Rx,0,8,D9,FF,FF,FF,60,00,2F,22,
5743989,00000100,false,Rx,0,8,71,00,00,00,60,00,22,FA,
5744987,00000120,false,Rx,0,8,73,EC,FF,FF,60,00,B2,EB,
5744988,00000110,false,Rx,0,8,72,F9,FF,FF,80,00,F7,39,
5746113,00000130,false,Rx,0,8,18,00,00,00,70,00,26,03,
5746113,00000100,false,Rx,0,8,71,00,00,00,70,00,2F,3A,
5746114,00000120,false,Rx,0,8,73,EC,FF,FF,70,00,BF,2B,
5747239,00000110,false,Rx,0,8,5A,F9,FF,FF,90,00,FC,D1,
5747240,00000050,false,Rx,0,6,41,5C,FF,FB,5F,FF,00,00,
5747241,00000130,false,Rx,0,8,EB,95,FF,FF,83,80,7B,A9,
5748363,00000100,false,Rx,0,8,88,00,00,00,80,00,7F,53,
5748364,00000120,false,Rx,0,8,73,EC,FF,FF,80,00,FB,2B,
5749363,00000110,false,Rx,0,8,5A,F9,FF,FF,A0,00,E8,D1,
5749364,00000130,false,Rx,0,8,76,00,00,00,90,00,67,4D,
5750364,00000100,false,Rx,0,8,88,00,00,00,90,00,72,93,
5750364,00000120,false,Rx,0,8,73,EC,FF,FF,90,00,F6,EB,
5751549,00000110,false,Rx,0,8,5A,F9,FF,FF,B0,00,E5,11,
5751550,00000130,false,Rx,0,8,D9,FF,FF,FF,A0,00,7F,22,
5752553,00000100,false,Rx,0,8,71,00,00,00,A0,00,72,FA,
5752555,00000120,false,Rx,0,8,73,EC,FF,FF,A0,00,E2,EB,
5753525,00000110,false,Rx,0,8,5A,F9,FF,FF,C0,00,C0,D1,
5753527,00000130,false,Rx,0,8,D9,FF,FF,FF,B0,00,72,E2,
5754526,00000100,false,Rx,0,8,5A,00,00,00,B0,00,79,21,
5754527,00000120,false,Rx,0,8,73,EC,FF,FF,B0,00,EF,2B,
5755520,00000110,false,Rx,0,8,72,F9,FF,FF,D0,00,CB,39,
5755521,00000130,false,Rx,0,8,F8,FF,FF,FF,C0,00,51,93,
5756640,00000100,false,Rx,0,8,5A,00,00,00,C0,00,5C,E1,
5756641,00000120,false,Rx,0,8,73,EC,FF,FF,C0,00,CA,EB,
5757621,00000110,false,Rx,0,8,72,F9,FF,FF,E0,00,DF,39,
5757623,00000130,false,Rx,0,8,37,00,00,00,D0,00,59,9C,
5758639,00000100,false,Rx,0,8,5A,00,00,00,D0,00,51,21,
5758640,00000120,false,Rx,0,8,73,EC,FF,FF,D0,00,C7,2B,
5759804,00000110,false,Rx,0,8,5A,F9,FF,FF,F0,00,D4,D1,
5759806,00000130,false,Rx,0,8,18,00,00,00,E0,00,4A,03,
5760801,00000100,false,Rx,0,8,5A,00,00,00,E0,00,45,21,
5760802,00000120,false,Rx,0,8,90,EC,FF,FF,E0,00,C5,78,
5761776,00000110,false,Rx,0,8,5A,F9,FF,FF,00,00,90,D1,
5761777,00000130,false,Rx,0,8,18,00,00,00,F0,00,47,C3,
5762762,00000100,false,Rx,0,8,71,00,00,00,F0,00,4E,FA,
5762764,00000140,false,Rx,0,8,01,00,FF,FF,80,00,60,2E,
5762765,00000120,false,Rx,0,8,90,EC,FF,FF,F0,00,C8,B8,
5763770,00000110,false,Rx,0,8,5A,F9,FF,FF,10,00,9D,11,
5763771,00000130,false,Rx,0,8,D9,FF,FF,FF,00,00,07,22,
5764966,00000100,false,Rx,0,8,71,00,00,00,00,00,0A,FA,
5764967,00000120,false,Rx,0,8,73,EC,FF,FF,00,00,9A,EB,
5765902,00000110,false,Rx,0,8,5A,F9,FF,FF,20,00,89,11,
5765903,00000130,false,Rx,0,8,F8,FF,FF,FF,10,00,0C,53,
5766902,00000100,false,Rx,0,8,88,00,00,00,10,00,13,53,
5766904,00000120,false,Rx,0,8,73,EC,FF,FF,10,00,97,2B,
5766904,00000110,false,Rx,0,8,5A,F9,FF,FF,30,00,84,D1,
5768017,00000050,false,Rx,0,6,41,5C,FF,FB,5F,FF,00,00,
5768018,00000130,false,Rx,0,8,6B,BA,F5,FF,23,80,CA,77,
5768019,00000100,false,Rx,0,8,88,00,00,00,20,00,07,53,
5769639,00000120,false,Rx,0,8,90,EC,FF,FF,20,00,95,78,
5769641,00000110,false,Rx,0,8,5A,F9,FF,FF,40,00,A1,11,
5769641,00000210,false,Rx,0,8,75,69,00,05,06,5F,01,03,
5770800,00000130,false,Rx,0,8,95,00,00,00,30,00,09,1E,
5770802,00000100,false,Rx,0,8,71,00,00,00,30,00,1E,FA,
5771777,00000120,false,Rx,0,8,90,EC,FF,FF,30,00,98,B8,
5771778,00000110,false,Rx,0,8,72,F9,FF,FF,50,00,AA,F9,
5772926,00000130,false,Rx,0,8,18,00,00,00,40,00,32,03,
5772927,00000100,false,Rx,0,8,71,00,00,00,40,00,3B,3A,
5773923,00000120,false,Rx,0,8,73,EC,FF,FF,40,00,AB,2B,
5773925,00000110,false,Rx,0,8,72,F9,FF,FF,60,00,BE,F9,
5774900,00000130,false,Rx,0,8,F8,FF,FF,FF,50,00,3D,93,
5774902,00000100,false,Rx,0,8,71,00,00,00,50,00,36,FA,
5775903,00000120,false,Rx,0,8,73,EC,FF,FF,50,00,A6,EB,
5775904,00000110,false,Rx,0,8,5A,F9,FF,FF,70,00,B5,11,
5776922,00000130,false,Rx,0,8,37,00,00,00,60,00,2C,5C,
5776924,00000100,false,Rx,0,8,5A,00,00,00,60,00,24,E1,
5778044,00000120,false,Rx,0,8,73,EC,FF,FF,60,00,B2,EB,
5778046,00000110,false,Rx,0,8,5A,F9,FF,FF,80,00,F1,11,
5779049,00000130,false,Rx,0,8,F8,FF,FF,FF,70,00,24,53,
5779050,00000100,false,Rx,0,8,5A,00,00,00,70,00,29,21,
5780022,00000120,false,Rx,0,8,73,EC,FF,FF,70,00,BF,2B,
5780024,00000110,false,Rx,0,8,5A,F9,FF,FF,90,00,FC,D1,
5781021,00000130,false,Rx,0,8,18,00,00,00,80,00,62,03,
5781022,00000100,false,Rx,0,8,5A,00,00,00,80,00,6D,21,
5782152,00000120,false,Rx,0,8,57,EC,FF,FF,80,00,FD,CF,
5782153,00000110,false,Rx,0,8,5A,F9,FF,FF,A0,00,E8,D1,
5783157,00000130,false,Rx,0,8,F8,FF,FF,FF,90,00,6D,93,
5783158,00000100,false,Rx,0,8,71,00,00,00,90,00,66,FA,
5783159,00000140,false,Rx,0,8,01,00,FF,FF,90,00,6D,EE,
5784154,00000120,false,Rx,0,8,57,EC,FF,FF,90,00,F0,0F,
5784155,00000110,false,Rx,0,8,5A,F9,FF,FF,B0,00,E5,11,
5785165,00000130,false,Rx,0,8,18,00,00,00,A0,00,7B,C3,
5785166,00000100,false,Rx,0,8,71,00,00,00,A0,00,72,FA,
5786147,00000120,false,Rx,0,8,73,EC,FF,FF,A0,00,E2,EB,
5786148,00000110,false,Rx,0,8,5A,F9,FF,FF,C0,00,C0,D1,
5787298,00000130,false,Rx,0,8,F8,FF,FF,FF,B0,00,74,53,
5787299,00000100,false,Rx,0,8,71,00,00,00,B0,00,7F,3A,
5787300,00000120,false,Rx,0,8,73,EC,FF,FF,B0,00,EF,2B,
5788391,00000110,false,Rx,0,8,89,F9,FF,FF,D0,00,DE,B2,
5788393,00000050,false,Rx,0,6,41,5C,FF,FB,5F,FF,00,00,
5788393,00000130,false,Rx,0,8,6C,21,00,00,C3,80,E4,20,
5789548,00000100,false,Rx,0,8,88,00,00,00,C0,00,4E,93,
5789550,00000120,false,Rx,0,8,73,EC,FF,FF,C0,00,CA,EB,
5790547,00000110,false,Rx,0,8,89,F9,FF,FF,E0,00,CA,B2,
5790549,00000130,false,Rx,0,8,D9,FF,FF,FF,D0,00,5A,E2,
5791517,00000100,false,Rx,0,8,71,00,00,00,D0,00,57,3A,
5791519,00000120,false,Rx,0,8,73,EC,FF,FF,D0,00,C7,2B,
5792648,00000110,false,Rx,0,8,5A,F9,FF,FF,F0,00,D4,D1,
5792649,00000170,false,Rx,0,8,00,00,00,54,50,81,05,9E,
5792650,00000130,false,Rx,0,8,F8,FF,FF,FF,E0,00,48,53,
5793642,00000100,false,Rx,0,8,5A,00,00,00,E0,00,45,21,
5793643,00000120,false,Rx,0,8,57,EC,FF,FF,E0,00,D5,CF,
5794638,00000110,false,Rx,0,8,5A,F9,FF,FF,00,00,90,D1,
5794640,00000130,false,Rx,0,8,18,00,00,00,F0,00,47,C3,
5795642,00000100,false,Rx,0,8,5A,00,00,00,F0,00,48,E1,
5795643,00000120,false,Rx,0,8,57,EC,FF,FF,F0,00,D8,0F,
5796803,00000110,false,Rx,0,8,5A,F9,FF,FF,10,00,9D,11,
5796804,00000130,false,Rx,0,8,18,00,00,00,00,00,03,C3,
5797801,00000100,false,Rx,0,8,5A,00,00,00,00,00,0C,E1,
5797803,00000120,false,Rx,0,8,73,EC,FF,FF,00,00,9A,EB,
5798777,00000110,false,Rx,0,8,5A,F9,FF,FF,20,00,89,11,
5798778,00000130,false,Rx,0,8,D9,FF,FF,FF,10,00,0A,E2,
5799789,00000100,false,Rx,0,8,5A,00,00,00,10,00,01,21,
5799791,00000120,false,Rx,0,8,73,EC,FF,FF,10,00,97,2B,
5800924,00000110,false,Rx,0,8,72,F9,FF,FF,30,00,82,F9,
5800926,00000130,false,Rx,0,8,F8,FF,FF,FF,20,00,18,53,
5801924,00000100,false,Rx,0,8,88,00,00,00,20,00,07,53,
5801925,00000120,false,Rx,0,8,90,EC,FF,FF,20,00,95,78,
5802899,00000110,false,Rx,0,8,72,F9,FF,FF,40,00,A7,39,
5802901,00000130,false,Rx,0,8,18,00,00,00,30,00,17,C3,
5803902,00000100,false,Rx,0,8,71,00,00,00,30,00,1E,FA,
5803904,00000140,false,Rx,0,8,01,00,FF,FF,A0,00,79,EE,
5803904,00000120,false,Rx,0,8,90,EC,FF,FF,30,00,98,B8,
5805053,00000110,false,Rx,0,8,72,F9,FF,FF,50,00,AA,F9,
5805054,00000130,false,Rx,0,8,F8,FF,FF,FF,40,00,30,53,
5806049,00000100,false,Rx,0,8,71,00,00,00,40,00,3B,3A,
5806050,00000120,false,Rx,0,8,73,EC,FF,FF,40,00,AB,2B,
5807027,00000110,false,Rx,0,8,72,F9,FF,FF,60,00,BE,F9,
5807028,00000130,false,Rx,0,8,37,00,00,00,50,00,38,5C,
5808025,00000100,false,Rx,0,8,71,00,00,00,50,00,36,FA,
5808027,00000120,false,Rx,0,8,73,EC,FF,FF,50,00,A6,EB,
5808027,00000110,false,Rx,0,8,A0,F9,FF,FF,70,00,A1,4B,
5809149,00000050,false,Rx,0,6,41,5C,FF,FB,5F,FF,00,00,
5809151,00000130,false,Rx,0,8,D8,34,03,00,63,80,8A,13,
5809151,00000100,false,Rx,0,8,88,00,00,00,60,00,36,93,
5810769,00000120,false,Rx,0,8,73,EC,FF,FF,60,00,B2,EB,
5810770,00000110,false,Rx,0,8,A0,F9,FF,FF,80,00,E5,4B,
5811926,00000130,false,Rx,0,8,B9,FF,FF,FF,70,00,2B,42,
5811927,00000100,false,Rx,0,8,71,00,00,00,70,00,2F,3A,
5812901,00000120,false,Rx,0,8,73,EC,FF,FF,70,00,BF,2B,
5812902,00000110,false,Rx,0,8,89,F9,FF,FF,90,00,EF,72,
5813891,00000130,false,Rx,0,8,18,00,00,00,80,00,62,03,
5813892,00000100,false,Rx,0,8,5A,00,00,00,80,00,6D,21,
5815047,00000120,false,Rx,0,8,73,EC,FF,FF,80,00,FB,2B,
5815049,00000110,false,Rx,0,8,89,F9,FF,FF,A0,00,FB,72,
5816051,00000130,false,Rx,0,8,B9,FF,FF,FF,90,00,62,82,
5816052,00000100,false,Rx,0,8,5A,00,00,00,90,00,60,E1,
5817040,00000120,false,Rx,0,8,73,EC,FF,FF,90,00,F6,EB,
5817041,00000110,false,Rx,0,8,5A,F9,FF,FF,B0,00,E5,11,
5818018,00000130,false,Rx,0,8,F8,FF,FF,FF,A0,00,79,93,
5818019,00000100,false,Rx,0,8,5A,00,00,00,A0,00,74,E1,
5819178,00000120,false,Rx,0,8,57,EC,FF,FF,A0,00,E4,0F,
5819179,00000110,false,Rx,0,8,5A,F9,FF,FF,C0,00,C0,D1,
5820171,00000130,false,Rx,0,8,F8,FF,FF,FF,B0,00,74,53,
5820172,00000100,false,Rx,0,8,5A,00,00,00,B0,00,79,21,
5821150,00000120,false,Rx,0,8,57,EC,FF,FF,B0,00,E9,CF,
5821152,00000110,false,Rx,0,8,72,F9,FF,FF,D0,00,CB,39,
5822157,00000130,false,Rx,0,8,D9,FF,FF,FF,C0,00,57,22,
5822158,00000100,false,Rx,0,8,71,00,00,00,C0,00,5A,FA,
5823150,00000120,false,Rx,0,8,73,EC,FF,FF,C0,00,CA,EB,
5823152,00000110,false,Rx,0,8,72,F9,FF,FF,E0,00,DF,39,
5824294,00000130,false,Rx,0,8,F8,FF,FF,FF,D0,00,5C,53,
5824295,00000100,false,Rx,0,8,71,00,00,00,D0,00,57,3A,
5824295,00000140,false,Rx,0,8,01,00,FF,FF,B0,00,74,2E,
5825276,00000120,false,Rx,0,8,73,EC,FF,FF,D0,00,C7,2B,
5825278,00000110,false,Rx,0,8,72,F9,FF,FF,F0,00,D2,F9,
5826269,00000130,false,Rx,0,8,F8,FF,FF,FF,E0,00,48,53,
5826271,00000100,false,Rx,0,8,71,00,00,00,E0,00,43,3A,
5827270,00000120,false,Rx,0,8,57,EC,FF,FF,E0,00,D5,CF,
5827271,00000110,false,Rx,0,8,72,F9,FF,FF,00,00,96,F9,
5828403,00000130,false,Rx,0,8,18,00,00,00,F0,00,47,C3,
5828405,00000100,false,Rx,0,8,88,00,00,00,F0,00,5A,93,
5828405,00000120,false,Rx,0,8,57,EC,FF,FF,F0,00,D8,0F,
5829518,00000110,false,Rx,0,8,72,F9,FF,FF,10,00,9B,39,
5829519,00000050,false,Rx,0,6,41,5C,FF,FB,5F,FF,00,00,
5829520,00000130,false,Rx,0,8,EB,95,FF,FF,03,80,1A,69,
5830645,00000100,false,Rx,0,8,71,00,00,00,00,00,0A,FA,
5830647,00000120,false,Rx,0,8,73,EC,FF,FF,00,00,9A,EB,
5831643,00000110,false,Rx,0,8,72,F9,FF,FF,20,00,8F,39,
5831644,00000130,false,Rx,0,8,76,00,00,00,10,00,06,8D,
5832643,00000100,false,Rx,0,8,71,00,00,00,10,00,07,3A,
5832644,00000120,false,Rx,0,8,73,EC,FF,FF,10,00,97,2B,
5833768,00000110,false,Rx,0,8,5A,F9,FF,FF,30,00,84,D1,
5833769,00000130,false,Rx,0,8,18,00,00,00,20,00,1A,03,
5834801,00000100,false,Rx,0,8,71,00,00,00,20,00,13,3A,
5834803,00000120,false,Rx,0,8,73,EC,FF,FF,20,00,83,2B,
5835777,00000110,false,Rx,0,8,5A,F9,FF,FF,40,00,A1,11,
5835778,00000130,false,Rx,0,8,F8,FF,FF,FF,30,00,15,93,
5836776,00000100,false,Rx,0,8,71,00,00,00,30,00,1E,FA,
5836777,00000120,false,Rx,0,8,73,EC,FF,FF,30,00,8E,EB,
5837923,00000110,false,Rx,0,8,5A,F9,FF,FF,50,00,AC,D1,
5837924,00000130,false,Rx,0,8,18,00,00,00,40,00,32,03,
5838919,00000100,false,Rx,0,8,5A,00,00,00,40,00,3D,21,
5838921,00000120,false,Rx,0,8,73,EC,FF,FF,40,00,AB,2B,
5838922,00000110,false,Rx,0,8,5A,F9,FF,FF,60,00,B8,D1,
5840644,00000130,false,Rx,0,8,18,00,00,00,50,00,3F,C3,
5840646,00000100,false,Rx,0,8,71,00,00,00,50,00,36,FA,
5841769,00000120,false,Rx,0,8,73,EC,FF,FF,50,00,A6,EB,
5841770,00000110,false,Rx,0,8,72,F9,FF,FF,70,00,B3,39,
5842799,00000130,false,Rx,0,8,B9,FF,FF,FF,60,00,26,82,
5842801,00000100,false,Rx,0,8,71,00,00,00,60,00,22,FA,
5843773,00000120,false,Rx,0,8,73,EC,FF,FF,60,00,B2,EB,
5843775,00000110,false,Rx,0,8,72,F9,FF,FF,80,00,F7,39,
5844776,00000130,false,Rx,0,8,F8,FF,FF,FF,70,00,24,53,
5844777,00000100,false,Rx,0,8,71,00,00,00,70,00,2F,3A,
5844778,00000140,false,Rx,0,8,01,00,FF,FF,C0,00,51,EE,
5845772,00000120,false,Rx,0,8,73,EC,FF,FF,70,00,BF,2B,
5845774,00000110,false,Rx,0,8,5A,F9,FF,FF,90,00,FC,D1,
5846921,00000130,false,Rx,0,8,18,00,00,00,80,00,62,03,
5846922,00000100,false,Rx,0,8,88,00,00,00,80,00,7F,53,
5847927,00000120,false,Rx,0,8,73,EC,FF,FF,80,00,FB,2B,
5847928,00000110,false,Rx,0,8,5A,F9,FF,FF,A0,00,E8,D1,
5848903,00000130,false,Rx,0,8,18,00,00,00,90,00,6F,C3,
5848904,00000100,false,Rx,0,8,88,00,00,00,90,00,72,93,
5848905,00000120,false,Rx,0,8,73,EC,FF,FF,90,00,F6,EB,
5850172,00000110,false,Rx,0,8,5A,F9,FF,FF,B0,00,E5,11,
5850174,00000050,false,Rx,0,6,41,5C,FF,FB,5F,FF,00,00,
5850174,00000130,false,Rx,0,8,6B,BA,F5,FF,A3,80,AB,B7,
5851150,00000100,false,Rx,0,8,71,00,00,00,A0,00,72,FA,
5851152,00000120,false,Rx,0,8,73,EC,FF,FF,A0,00,E2,EB,
5852145,00000110,false,Rx,0,8,5A,F9,FF,FF,C0,00,C0,D1,
5852147,00000130,false,Rx,0,8,76,00,00,00,B0,00,7E,8D,
5853272,00000100,false,Rx,0,8,71,00,00,00,B0,00,7F,3A,
5853273,00000120,false,Rx,0,8,73,EC,FF,FF,B0,00,EF,2B,
5854268,00000110,false,Rx,0,8,5A,F9,FF,FF,D0,00,CD,11,
5854269,00000130,false,Rx,0,8,D9,FF,FF,FF,C0,00,57,22,
5855274,00000100,false,Rx,0,8,5A,00,00,00,C0,00,5C,E1,
5855275,00000120,false,Rx,0,8,73,EC,FF,FF,C0,00,CA,EB,
5856398,00000110,false,Rx,0,8,5A,F9,FF,FF,E0,00,D9,11,
5856399,00000130,false,Rx,0,8,18,00,00,00,D0,00,5E,03,
5857422,00000100,false,Rx,0,8,5A,00,00,00,D0,00,51,21,
5857423,00000120,false,Rx,0,8,73,EC,FF,FF,D0,00,C7,2B,
5858392,00000110,false,Rx,0,8,5A,F9,FF,FF,F0,00,D4,D1,
5858394,00000130,false,Rx,0,8,18,00,00,00,E0,00,4A,03,
5859417,00000100,false,Rx,0,8,5A,00,00,00,E0,00,45,21,
5859418,00000120,false,Rx,0,8,90,EC,FF,FF,E0,00,C5,78,
5860547,00000110,false,Rx,0,8,5A,F9,FF,FF,00,00,90,D1,
5860549,00000130,false,Rx,0,8,18,00,00,00,F0,00,47,C3,
5861547,00000100,false,Rx,0,8,71,00,00,00,F0,00,4E,FA,
5861548,00000120,false,Rx,0,8,90,EC,FF,FF,F0,00,C8,B8,
5862546,00000110,false,Rx,0,8,72,F9,FF,FF,10,00,9B,39,
5862547,00000130,false,Rx,0,8,18,00,00,00,00,00,03,C3,
5863525,00000100,false,Rx,0,8,88,00,00,00,00,00,1E,93,
5863526,00000120,false,Rx,0,8,57,EC,FF,FF,00,00,9C,0F,
5864517,00000110,false,Rx,0,8,72,F9,FF,FF,20,00,8F,39,
5864518,00000130,false,Rx,0,8,F8,FF,FF,FF,10,00,0C,53,
5865643,00000100,false,Rx,0,8,71,00,00,00,10,00,07,3A,
5865645,00000140,false,Rx,0,8,01,00,FF,FF,D0,00,5C,2E,
5865645,00000120,false,Rx,0,8,57,EC,FF,FF,10,00,91,CF,
5866644,00000110,false,Rx,0,8,5A,F9,FF,FF,30,00,84,D1,
5866645,00000130,false,Rx,0,8,D9,FF,FF,FF,20,00,1E,E2,
5867644,00000100,false,Rx,0,8,88,00,00,00,20,00,07,53,
5867646,00000120,false,Rx,0,8,73,EC,FF,FF,20,00,83,2B,
5868641,00000110,false,Rx,0,8,5A,F9,FF,FF,40,00,A1,11,
5868642,00000130,false,Rx,0,8,56,00,00,00,30,00,18,2D,
5869798,00000100,false,Rx,0,8,71,00,00,00,30,00,1E,FA,
5869799,00000120,false,Rx,0,8,73,EC,FF,FF,30,00,8E,EB,
5869800,00000110,false,Rx,0,8,89,F9,FF,FF,50,00,BF,72,
5870900,00000050,false,Rx,0,6,41,5C,FF,FB,5F,FF,00,00,
5870902,00000130,false,Rx,0,8,4D,21,00,00,43,80,83,51,
5870902,00000100,false,Rx,0,8,71,00,00,00,40,00,3B,3A,
5872523,00000120,false,Rx,0,8,90,EC,FF,FF,40,00,BD,78,
5872525,00000110,false,Rx,0,8,89,F9,FF,FF,60,00,AB,72,
5873525,00000130,false,Rx,0,8,F8,FF,FF,FF,50,00,3D,93,
5873527,00000100,false,Rx,0,8,71,00,00,00,50,00,36,FA,
5874644,00000120,false,Rx,0,8,90,EC,FF,FF,50,00,B0,B8,
5874645,00000110,false,Rx,0,8,72,F9,FF,FF,70,00,B3,39,
5875641,00000130,false,Rx,0,8,18,00,00,00,60,00,2B,C3,
5875642,00000100,false,Rx,0,8,5A,00,00,00,60,00,24,E1,
5876649,00000120,false,Rx,0,8,73,EC,FF,FF,60,00,B2,EB,
5876650,00000110,false,Rx,0,8,72,F9,FF,FF,80,00,F7,39,
5877620,00000130,false,Rx,0,8,18,00,00,00,70,00,26,03,
5877621,00000100,false,Rx,0,8,5A,00,00,00,70,00,29,21,
5878768,00000120,false,Rx,0,8,73,EC,FF,FF,70,00,BF,2B,
5878769,00000110,false,Rx,0,8,72,F9,FF,FF,90,00,FA,F9,
5879768,00000130,false,Rx,0,8,18,00,00,00,80,00,62,03,
5879769,00000100,false,Rx,0,8,71,00,00,00,80,00,6B,3A,
5880770,00000120,false,Rx,0,8,90,EC,FF,FF,80,00,ED,78,
5880771,00000110,false,Rx,0,8,72,F9,FF,FF,A0,00,EE,F9,
5881768,00000130,false,Rx,0,8,18,00,00,00,90,00,6F,C3,
5881769,00000100,false,Rx,0,8,5A,00,00,00,90,00,60,E1,
5882770,00000120,false,Rx,0,8,90,EC,FF,FF,90,00,E0,B8,
5882771,00000110,false,Rx,0,8,5A,F9,FF,FF,B0,00,E5,11,
5883890,00000130,false,Rx,0,8,D9,FF,FF,FF,A0,00,7F,22,
5883892,00000100,false,Rx,0,8,71,00,00,00,A0,00,72,FA,
5884893,00000120,false,Rx,0,8,73,EC,FF,FF,A0,00,E2,EB,
5884895,00000110,false,Rx,0,8,5A,F9,FF,FF,C0,00,C0,D1,
5885895,00000130,false,Rx,0,8,D9,FF,FF,FF,B0,00,72,E2,
5885896,00000100,false,Rx,0,8,71,00,00,00,B0,00,7F,3A,
5885897,00000140,false,Rx,0,8,01,00,FF,FF,E0,00,48,2E,
5886893,00000120,false,Rx,0,8,73,EC,FF,FF,B0,00,EF,2B,
5886895,00000110,false,Rx,0,8,72,F9,FF,FF,D0,00,CB,39,
5888018,00000130,false,Rx,0,8,F8,FF,FF,FF,C0,00,51,93,
5888019,00000100,false,Rx,0,8,9F,00,00,00,C0,00,4D,B4,
5889016,00000120,false,Rx,0,8,73,EC,FF,FF,C0,00,CA,EB,
5889018,00000110,false,Rx,0,8,72,F9,FF,FF,E0,00,DF,39,
5890017,00000130,false,Rx,0,8,37,00,00,00,D0,00,59,9C,
5890018,00000100,false,Rx,0,8,71,00,00,00,D0,00,57,3A,
5890019,00000120,false,Rx,0,8,73,EC,FF,FF,D0,00,C7,2B,
5891265,00000110,false,Rx,0,8,89,F9,FF,FF,F0,00,C7,72,
5891266,00000050,false,Rx,0,6,41,5C,FF,FB,5F,FF,00,00,
5891267,00000130,false,Rx,0,8,D8,34,03,00,E3,80,EB,D3,
5892267,00000100,false,Rx,0,8,5A,00,00,00,E0,00,45,21,
5892268,00000120,false,Rx,0,8,73,EC,FF,FF,E0,00,D3,2B,
5893269,00000110,false,Rx,0,8,89,F9,FF,FF,00,00,83,72,
5893270,00000130,false,Rx,0,8,D9,FF,FF,FF,F0,00,43,22,
5894393,00000100,false,Rx,0,8,5A,00,00,00,F0,00,48,E1,
5894395,00000120,false,Rx,0,8,73,EC,FF,FF,F0,00,DE,EB,
5895392,00000110,false,Rx,0,8,5A,F9,FF,FF,10,00,9D,11,
5895394,00000170,false,Rx,0,8,00,00,00,55,50,81,05,03,
5895394,00000130,false,Rx,0,8,F8,FF,FF,FF,00,00,01,93,
5896517,00000100,false,Rx,0,8,5A,00,00,00,00,00,0C,E1,
5896518,00000120,false,Rx,0,8,90,EC,FF,FF,00,00,8C,B8,
5896519,00000110,false,Rx,0,8,5A,F9,FF,FF,20,00,89,11,
5898267,00000130,false,Rx,0,8,F8,FF,FF,FF,10,00,0C,53,
5898269,00000100,false,Rx,0,8,5A,00,00,00,10,00,01,21,
5899268,00000120,false,Rx,0,8,90,EC,FF,FF,10,00,81,78,
5899270,00000110,false,Rx,0,8,5A,F9,FF,FF,30,00,84,D1,
5900268,00000130,false,Rx,0,8,F8,FF,FF,FF,20,00,18,53,
5900270,00000100,false,Rx,0,8,71,00,00,00,20,00,13,3A,
5901393,00000120,false,Rx,0,8,73,EC,FF,FF,20,00,83,2B,
5901395,00000110,false,Rx,0,8,5A,F9,FF,FF,40,00,A1,11,
5902392,00000130,false,Rx,0,8,F8,FF,FF,FF,30,00,15,93,
5902394,00000100,false,Rx,0,8,71,00,00,00,30,00,1E,FA,
5903395,00000120,false,Rx,0,8,73,EC,FF,FF,30,00,8E,EB,
5903396,00000110,false,Rx,0,8,5A,F9,FF,FF,50,00,AC,D1,
5904393,00000130,false,Rx,0,8,18,00,00,00,40,00,32,03,
5904394,00000100,false,Rx,0,8,71,00,00,00,40,00,3B,3A,
5905393,00000120,false,Rx,0,8,90,EC,FF,FF,40,00,BD,78,
5905394,00000110,false,Rx,0,8,5A,F9,FF,FF,60,00,B8,D1,
5906518,00000130,false,Rx,0,8,F8,FF,FF,FF,50,00,3D,93,
5906519,00000100,false,Rx,0,8,71,00,00,00,50,00,36,FA,
5906520,00000140,false,Rx,0,8,01,00,FF,FF,F0,00,45,EE,
5907517,00000120,false,Rx,0,8,90,EC,FF,FF,50,00,B0,B8,
5907519,00000110,false,Rx,0,8,72,F9,FF,FF,70,00,B3,39,
5908519,00000130,false,Rx,0,8,18,00,00,00,60,00,2B,C3,
5908520,00000100,false,Rx,0,8,88,00,00,00,60,00,36,93,
5909518,00000120,false,Rx,0,8,90,EC,FF,FF,60,00,A4,B8,
5909519,00000110,false,Rx,0,8,72,F9,FF,FF,80,00,F7,39,
5910630,00000130,false,Rx,0,8,18,00,00,00,70,00,26,03,
5910631,00000100,false,Rx,0,8,71,00,00,00,70,00,2F,3A,
5910632,00000120,false,Rx,0,8,90,EC,FF,FF,70,00,A9,78,
5911769,00000110,false,Rx,0,8,5A,F9,FF,FF,90,00,FC,D1,
5911770,00000050,false,Rx,0,6,41,5C,FF,FB,5F,FF,00,00,
5911770,00000130,false,Rx,0,8,EB,95,FF,FF,83,80,7B,A9,
5912892,00000100,false,Rx,0,8,71,00,00,00,80,00,6B,3A,
5912893,00000120,false,Rx,0,8,57,EC,FF,FF,80,00,FD,CF,
5913893,00000110,false,Rx,0,8,5A,F9,FF,FF,A0,00,E8,D1,
5913894,00000130,false,Rx,0,8,76,00,00,00,90,00,67,4D,
5914894,00000100,false,Rx,0,8,5A,00,00,00,90,00,60,E1,
5914896,00000120,false,Rx,0,8,57,EC,FF,FF,90,00,F0,0F,
5916019,00000110,false,Rx,0,8,72,F9,FF,FF,B0,00,E3,39,
5916020,00000130,false,Rx,0,8,D9,FF,FF,FF,A0,00,7F,22,
5917017,00000100,false,Rx,0,8,5A,00,00,00,A0,00,74,E1,
5917018,00000120,false,Rx,0,8,90,EC,FF,FF,A0,00,F4,B8,
5918017,00000110,false,Rx,0,8,72,F9,FF,FF,C0,00,C6,F9,
5918018,00000130,false,Rx,0,8,F8,FF,FF,FF,B0,00,74,53,
5919014,00000100,false,Rx,0,8,71,00,00,00,B0,00,7F,3A,
5919015,00000120,false,Rx,0,8,90,EC,FF,FF,B0,00,F9,78,
5920142,00000110,false,Rx,0,8,5A,F9,FF,FF,D0,00,CD,11,
5920143,00000130,false,Rx,0,8,18,00,00,00,C0,00,53,C3,
5921143,00000100,false,Rx,0,8,71,00,00,00,C0,00,5A,FA,
5921144,00000120,false,Rx,0,8,73,EC,FF,FF,C0,00,CA,EB,
5922144,00000110,false,Rx,0,8,5A,F9,FF,FF,E0,00,D9,11,
5922145,00000130,false,Rx,0,8,F8,FF,FF,FF,D0,00,5C,53,
5923143,00000100,false,Rx,0,8,71,00,00,00,D0,00,57,3A,
5923145,00000120,false,Rx,0,8,73,EC,FF,FF,D0,00,C7,2B,
5924267,00000110,false,Rx,0,8,72,F9,FF,FF,F0,00,D2,F9,
5924268,00000130,false,Rx,0,8,37,00,00,00,E0,00,4D,9C,
5925267,00000100,false,Rx,0,8,71,00,00,00,E0,00,43,3A,
5925269,00000120,false,Rx,0,8,73,EC,FF,FF,E0,00,D3,2B,
5926267,00000110,false,Rx,0,8,72,F9,FF,FF,00,00,96,F9,
5926268,00000130,false,Rx,0,8,F8,FF,FF,FF,F0,00,45,93,
5927265,00000100,false,Rx,0,8,88,00,00,00,F0,00,5A,93,
5927266,00000140,false,Rx,0,8,01,00,FF,FF,00,00,01,EE,
5927267,00000120,false,Rx,0,8,73,EC,FF,FF,F0,00,DE,EB,
5928265,00000110,false,Rx,0,8,72,F9,FF,FF,10,00,9B,39,
5928266,00000130,false,Rx,0,8,18,00,00,00,00,00,03,C3,
5929390,00000100,false,Rx,0,8,71,00,00,00,00,00,0A,FA,
5929391,00000120,false,Rx,0,8,73,EC,FF,FF,00,00,9A,EB,
5930390,00000110,false,Rx,0,8,72,F9,FF,FF,20,00,8F,39,
5930391,00000130,false,Rx,0,8,F8,FF,FF,FF,10,00,0C,53,
5931389,00000100,false,Rx,0,8,71,00,00,00,10,00,07,3A,
5931390,00000120,false,Rx,0,8,73,EC,FF,FF,10,00,97,2B,
5931390,00000110,false,Rx,0,8,5A,F9,FF,FF,30,00,84,D1,
5932639,00000050,false,Rx,0,6,41,5C,FF,FB,5F,FF,00,00,
5932640,00000130,false,Rx,0,8,6B,BA,F5,FF,23,80,CA,77,
5932640,00000100,false,Rx,0,8,71,00,00,00,20,00,13,3A,
5934140,00000120,false,Rx,0,8,73,EC,FF,FF,20,00,83,2B,
5934141,00000110,false,Rx,0,8,5A,F9,FF,FF,40,00,A1,11,
5935267,00000130,false,Rx,0,8,95,00,00,00,30,00,09,1E,
5935269,00000100,false,Rx,0,8,5A,00,00,00,30,00,18,E1,
5936266,00000120,false,Rx,0,8,73,EC,FF,FF,30,00,8E,EB,
5936268,00000110,false,Rx,0,8,72,F9,FF,FF,50,00,AA,F9,
5937390,00000130,false,Rx,0,8,D9,FF,FF,FF,40,00,36,E2,
5937391,00000100,false,Rx,0,8,5A,00,00,00,40,00,3D,21,
5938390,00000120,false,Rx,0,8,73,EC,FF,FF,40,00,AB,2B,
5938392,00000110,false,Rx,0,8,72,F9,FF,FF,60,00,BE,F9,
5939389,00000130,false,Rx,0,8,F8,FF,FF,FF,50,00,3D,93,
5939391,00000100,false,Rx,0,8,71,00,00,00,50,00,36,FA,
5940387,00000120,false,Rx,0,8,73,EC,FF,FF,50,00,A6,EB,
5940388,00000110,false,Rx,0,8,72,F9,FF,FF,70,00,B3,39,
5941388,00000130,false,Rx,0,8,F8,FF,FF,FF,60,00,29,93,
5941389,00000100,false,Rx,0,8,71,00,00,00,60,00,22,FA,
5942513,00000120,false,Rx,0,8,73,EC,FF,FF,60,00,B2,EB,
5942514,00000110,false,Rx,0,8,72,F9,FF,FF,80,00,F7,39,
5943514,00000130,false,Rx,0,8,F8,FF,FF,FF,70,00,24,53,
5943515,00000100,false,Rx,0,8,88,00,00,00,70,00,3B,53,
5944514,00000120,false,Rx,0,8,73,EC,FF,FF,70,00,BF,2B,
5944516,00000110,false,Rx,0,8,5A,F9,FF,FF,90,00,FC,D1,
5945514,00000130,false,Rx,0,8,18,00,00,00,80,00,62,03,
5945516,00000100,false,Rx,0,8,71,00,00,00,80,00,6B,3A,
5946636,00000120,false,Rx,0,8,73,EC,FF,FF,80,00,FB,2B,
5946638,00000110,false,Rx,0,8,5A,F9,FF,FF,A0,00,E8,D1,
5947638,00000130,false,Rx,0,8,B9,FF,FF,FF,90,00,62,82,
5947639,00000100,false,Rx,0,8,88,00,00,00,90,00,72,93,
5947640,00000140,false,Rx,0,8,01,00,FF,FF,10,00,0C,2E,
5948639,00000120,false,Rx,0,8,73,EC,FF,FF,90,00,F6,EB,
5948640,00000110,false,Rx,0,8,72,F9,FF,FF,B0,00,E3,39,
5949646,00000130,false,Rx,0,8,D9,FF,FF,FF,A0,00,7F,22,
5949647,00000100,false,Rx,0,8,88,00,00,00,A0,00,66,93,
5950640,00000120,false,Rx,0,8,73,EC,FF,FF,A0,00,E2,EB,
5950641,00000110,false,Rx,0,8,72,F9,FF,FF,C0,00,C6,F9,
5951762,00000130,false,Rx,0,8,37,00,00,00,B0,00,71,9C,
5951763,00000100,false,Rx,0,8,5A,00,00,00,B0,00,79,21,
5951764,00000120,false,Rx,0,8,73,EC,FF,FF,B0,00,EF,2B,
5952888,00000110,false,Rx,0,8,89,F9,FF,FF,D0,00,DE,B2,
5952889,00000050,false,Rx,0,6,41,5C,FF,FB,5F,FF,00,00,
5952890,00000130,false,Rx,0,8,4D,21,00,00,C3,80,E2,91,
5954012,00000100,false,Rx,0,8,5A,00,00,00,C0,00,5C,E1,
5954013,00000120,false,Rx,0,8,73,EC,FF,FF,C0,00,CA,EB,
5955013,00000110,false,Rx,0,8,89,F9,FF,FF,E0,00,CA,B2,
5955014,00000130,false,Rx,0,8,B9,FF,FF,FF,D0,00,53,42,
5956136,00000100,false,Rx,0,8,5A,00,00,00,D0,00,51,21,
5956137,00000120,false,Rx,0,8,73,EC,FF,FF,D0,00,C7,2B,
5957135,00000110,false,Rx,0,8,5A,F9,FF,FF,F0,00,D4,D1,
5957136,00000130,false,Rx,0,8,18,00,00,00,E0,00,4A,03,
5958133,00000100,false,Rx,0,8,5A,00,00,00,E0,00,45,21,
5958134,00000120,false,Rx,0,8,73,EC,FF,FF,E0,00,D3,2B,
5959138,00000110,false,Rx,0,8,5A,F9,FF,FF,00,00,90,D1,
5959139,00000130,false,Rx,0,8,F8,FF,FF,FF,F0,00,45,93,
5960116,00000100,false,Rx,0,8,71,00,00,00,F0,00,4E,FA,
5960118,00000120,false,Rx,0,8,73,EC,FF,FF,F0,00,DE,EB,
5961239,00000110,false,Rx,0,8,72,F9,FF,FF,10,00,9B,39,
5961240,00000130,false,Rx,0,8,F8,FF,FF,FF,00,00,01,93,
5962238,00000100,false,Rx,0,8,71,00,00,00,00,00,0A,FA,
5962239,00000120,false,Rx,0,8,57,EC,FF,FF,00,00,9C,0F,
5963237,00000110,false,Rx,0,8,72,F9,FF,FF,20,00,8F,39,
5963238,00000130,false,Rx,0,8,18,00,00,00,10,00,0E,03,
5964237,00000100,false,Rx,0,8,71,00,00,00,10,00,07,3A,
5964238,00000120,false,Rx,0,8,57,EC,FF,FF,10,00,91,CF,
5965365,00000110,false,Rx,0,8,5A,F9,FF,FF,30,00,84,D1,
5965366,00000130,false,Rx,0,8,D9,FF,FF,FF,20,00,1E,E2,
5966421,00000100,false,Rx,0,8,71,00,00,00,20,00,13,3A,
5966423,00000120,false,Rx,0,8,57,EC,FF,FF,20,00,85,CF,
5967381,00000110,false,Rx,0,8,5A,F9,FF,FF,40,00,A1,11,
5967382,00000130,false,Rx,0,8,F8,FF,FF,FF,30,00,15,93,
5968398,00000100,false,Rx,0,8,88,00,00,00,30,00,0A,93,
5968399,00000140,false,Rx,0,8,01,00,FF,FF,20,00,18,2E,
5968400,00000120,false,Rx,0,8,57,EC,FF,FF,30,00,88,0F,
5969399,00000110,false,Rx,0,8,72,F9,FF,FF,50,00,AA,F9,
5969400,00000130,false,Rx,0,8,F8,FF,FF,FF,40,00,30,53,
5970517,00000100,false,Rx,0,8,88,00,00,00,40,00,2F,53,
5970518,00000120,false,Rx,0,8,73,EC,FF,FF,40,00,AB,2B,
5971514,00000110,false,Rx,0,8,72,F9,FF,FF,60,00,BE,F9,
5971515,00000130,false,Rx,0,8,37,00,00,00,50,00,38,5C,
5972516,00000100,false,Rx,0,8,71,00,00,00,50,00,36,FA,
5972518,00000120,false,Rx,0,8,73,EC,FF,FF,50,00,A6,EB,
5972518,00000110,false,Rx,0,8,A0,F9,FF,FF,70,00,A1,4B,
5973624,00000050,false,Rx,0,6,41,5C,FF,FB,5F,FF,00,00,
5973625,00000130,false,Rx,0,8,99,34,03,00,63,80,85,02,
5973626,00000100,false,Rx,0,8,5A,00,00,00,60,00,24,E1,
5975264,00000120,false,Rx,0,8,73,EC,FF,FF,60,00,B2,EB,
5975266,00000110,false,Rx,0,8,A0,F9,FF,FF,80,00,E5,4B,
5976391,00000130,false,Rx,0,8,D9,FF,FF,FF,70,00,22,E2,
5976392,00000100,false,Rx,0,8,5A,00,00,00,70,00,29,21,
5977390,00000120,false,Rx,0,8,73,EC,FF,FF,70,00,BF,2B,
5977391,00000110,false,Rx,0,8,72,F9,FF,FF,90,00,FA,F9,
5978516,00000130,false,Rx,0,8,F8,FF,FF,FF,80,00,60,53,
5978517,00000100,false,Rx,0,8,71,00,00,00,80,00,6B,3A,
5979515,00000120,false,Rx,0,8,57,EC,FF,FF,80,00,FD,CF,
5979516,00000110,false,Rx,0,8,72,F9,FF,FF,A0,00,EE,F9,
5980516,00000130,false,Rx,0,8,F8,FF,FF,FF,90,00,6D,93,
5980517,00000100,false,Rx,0,8,5A,00,00,00,90,00,60,E1,
5981516,00000120,false,Rx,0,8,57,EC,FF,FF,90,00,F0,0F,
5981518,00000110,false,Rx,0,8,5A,F9,FF,FF,B0,00,E5,11,
5982515,00000130,false,Rx,0,8,D9,FF,FF,FF,A0,00,7F,22,
5982516,00000100,false,Rx,0,8,71,00,00,00,A0,00,72,FA,
5983630,00000120,false,Rx,0,8,73,EC,FF,FF,A0,00,E2,EB,
5983631,00000110,false,Rx,0,8,5A,F9,FF,FF,C0,00,C0,D1,
5984630,00000130,false,Rx,0,8,18,00,00,00,B0,00,76,03,
5984631,00000100,false,Rx,0,8,5A,00,00,00,B0,00,79,21,
5985622,00000120,false,Rx,0,8,73,EC,FF,FF,B0,00,EF,2B,
5985623,00000110,false,Rx,0,8,5A,F9,FF,FF,D0,00,CD,11,
5986639,00000130,false,Rx,0,8,18,00,00,00,C0,00,53,C3,
5986641,00000100,false,Rx,0,8,88,00,00,00,C0,00,4E,93,
5987640,00000120,false,Rx,0,8,73,EC,FF,FF,C0,00,CA,EB,
5987641,00000110,false,Rx,0,8,5A,F9,FF,FF,E0,00,D9,11,
5988794,00000130,false,Rx,0,8,D9,FF,FF,FF,D0,00,5A,E2,
5988795,00000100,false,Rx,0,8,88,00,00,00,D0,00,43,53,
5988796,00000140,false,Rx,0,8,01,00,FF,FF,30,00,15,EE,
5989771,00000120,false,Rx,0,8,73,EC,FF,FF,D0,00,C7,2B,
5989773,00000110,false,Rx,0,8,72,F9,FF,FF,F0,00,D2,F9,
5990774,00000130,false,Rx,0,8,F8,FF,FF,FF,E0,00,48,53,
5990776,00000100,false,Rx,0,8,71,00,00,00,E0,00,43,3A,
5991794,00000120,false,Rx,0,8,57,EC,FF,FF,E0,00,D5,CF,
5991796,00000110,false,Rx,0,8,72,F9,FF,FF,00,00,96,F9,
5992921,00000130,false,Rx,0,8,18,00,00,00,F0,00,47,C3,
5992922,00000100,false,Rx,0,8,5A,00,00,00,F0,00,48,E1,
5992923,00000120,false,Rx,0,8,57,EC,FF,FF,F0,00,D8,0F,
5994014,00000110,false,Rx,0,8,72,F9,FF,FF,10,00,9B,39,
5994015,00000050,false,Rx,0,6,41,5C,FF,FB,5F,FF,00,00,
5994016,00000130,false,Rx,0,8,EB,95,FF,FF,03,80,1A,69,
5995168,00000100,false,Rx,0,8,5A,00,00,00,00,00,0C,E1,
5995169,00000120,false,Rx,0,8,90,EC,FF,FF,00,00,8C,B8,
5996167,00000110,false,Rx,0,8,72,F9,FF,FF,20,00,8F,39,
5996169,00000130,false,Rx,0,8,76,00,00,00,10,00,06,8D,
5997141,00000100,false,Rx,0,8,5A,00,00,00,10,00,01,21,
5997142,00000120,false,Rx,0,8,90,EC,FF,FF,10,00,81,78,
5998294,00000110,false,Rx,0,8,72,F9,FF,FF,30,00,82,F9,
5998296,00000170,false,Rx,0,8,00,00,00,56,50,81,05,B9,
5998296,00000130,false,Rx,0,8,D9,FF,FF,FF,20,00,1E,E2,
5999297,00000100,false,Rx,0,8,71,00,00,00,20,00,13,3A,
5999298,00000120,false,Rx,0,8,73,EC,FF,FF,20,00,83,2B,
6000296,00000110,false,Rx,0,8,72,F9,FF,FF,40,00,A7,39,
6000298,00000130,false,Rx,0,8,D9,FF,FF,FF,30,00,13,22,
6001357,00000100,false,Rx,0,8,71,00,00,00,30,00,1E,FA,
6001358,00000120,false,Rx,0,8,73,EC,FF,FF,30,00,8E,EB,
6002401,00000110,false,Rx,0,8,72,F9,FF,FF,50,00,AA,F9,
6002402,00000130,false,Rx,0,8,18,00,00,00,40,00,32,03,
6003392,00000100,false,Rx,0,8,71,00,00,00,40,00,3B,3A,
6003394,00000120,false,Rx,0,8,73,EC,FF,FF,40,00,AB,2B,
6004399,00000110,false,Rx,0,8,72,F9,FF,FF,60,00,BE,F9,
6004401,00000130,false,Rx,0,8,D9,FF,FF,FF,50,00,3B,22,
6005408,00000100,false,Rx,0,8,88,00,00,00,50,00,22,93,
6005410,00000120,false,Rx,0,8,73,EC,FF,FF,50,00,A6,EB,
6006389,00000110,false,Rx,0,8,72,F9,FF,FF,70,00,B3,39,
6006390,00000130,false,Rx,0,8,D9,FF,FF,FF,60,00,2F,22,
6007549,00000100,false,Rx,0,8,71,00,00,00,60,00,22,FA,
6007550,00000120,false,Rx,0,8,73,EC,FF,FF,60,00,B2,EB,
6008524,00000110,false,Rx,0,8,72,F9,FF,FF,80,00,F7,39,
6008525,00000130,false,Rx,0,8,F8,FF,FF,FF,70,00,24,53,
6009524,00000100,false,Rx,0,8,71,00,00,00,70,00,2F,3A,
6009525,00000140,false,Rx,0,8,01,00,FF,FF,40,00,30,2E,
6009526,00000120,false,Rx,0,8,73,EC,FF,FF,70,00,BF,2B,
6010515,00000110,false,Rx,0,8,72,F9,FF,FF,90,00,FA,F9,
6010517,00000130,false,Rx,0,8,F8,FF,FF,FF,80,00,60,53,
6011638,00000100,false,Rx,0,8,71,00,00,00,80,00,6B,3A,
6011639,00000120,false,Rx,0,8,73,EC,FF,FF,80,00,FB,2B,
6012627,00000110,false,Rx,0,8,72,F9,FF,FF,A0,00,EE,F9,
6012628,00000130,false,Rx,0,8,D9,FF,FF,FF,90,00,6B,22,
6013632,00000100,false,Rx,0,8,5A,00,00,00,90,00,60,E1,
6013633,00000120,false,Rx,0,8,73,EC,FF,FF,90,00,F6,EB,
6013634,00000110,false,Rx,0,8,72,F9,FF,FF,B0,00,E3,39,
6014763,00000050,false,Rx,0,6,41,5C,FF,FB,5F,FF,00,00,
6014764,00000130,false,Rx,0,8,6B,BA,F5,FF,A3,80,AB,B7,
6014765,00000100,false,Rx,0,8,5A,00,00,00,A0,00,74,E1,
6016545,00000120,false,Rx,0,8,73,EC,FF,FF,A0,00,E2,EB,
6016546,00000110,false,Rx,0,8,72,F9,FF,FF,C0,00,C6,F9,
6017546,00000130,false,Rx,0,8,95,00,00,00,B0,00,68,DE,
6017547,00000100,false,Rx,0,8,5A,00,00,00,B0,00,79,21,
6018516,00000120,false,Rx,0,8,73,EC,FF,FF,B0,00,EF,2B,
6018517,00000110,false,Rx,0,8,5A,F9,FF,FF,D0,00,CD,11,
6019524,00000130,false,Rx,0,8,D9,FF,FF,FF,C0,00,57,22,
6019525,00000100,false,Rx,0,8,5A,00,00,00,C0,00,5C,E1,
6020642,00000120,false,Rx,0,8,73,EC,FF,FF,C0,00,CA,EB,
6020644,00000110,false,Rx,0,8,5A,F9,FF,FF,E0,00,D9,11,
6021632,00000130,false,Rx,0,8,F8,FF,FF,FF,D0,00,5C,53,
6021633,00000100,false,Rx,0,8,71,00,00,00,D0,00,57,3A,
6022625,00000120,false,Rx,0,8,73,EC,FF,FF,D0,00,C7,2B,
6022626,00000110,false,Rx,0,8,5A,F9,FF,FF,F0,00,D4,D1,
6023765,00000130,false,Rx,0,8,18,00,00,00,E0,00,4A,03,
6023766,00000100,false,Rx,0,8,71,00,00,00,E0,00,43,3A,
6024796,00000120,false,Rx,0,8,73,EC,FF,FF,E0,00,D3,2B,
6024798,00000110,false,Rx,0,8,5A,F9,FF,FF,00,00,90,D1,
6025765,00000130,false,Rx,0,8,F8,FF,FF,FF,F0,00,45,93,
6025766,00000100,false,Rx,0,8,71,00,00,00,F0,00,4E,FA,
6026769,00000120,false,Rx,0,8,73,EC,FF,FF,F0,00,DE,EB,
6026770,00000110,false,Rx,0,8,72,F9,FF,FF,10,00,9B,39,
6027765,00000130,false,Rx,0,8,18,00,00,00,00,00,03,C3,
6027767,00000100,false,Rx,0,8,88,00,00,00,00,00,1E,93,
6028892,00000120,false,Rx,0,8,73,EC,FF,FF,00,00,9A,EB,
6028893,00000110,false,Rx,0,8,72,F9,FF,FF,20,00,8F,39,
6029900,00000130,false,Rx,0,8,F8,FF,FF,FF,10,00,0C,53,
6029901,00000100,false,Rx,0,8,71,00,00,00,10,00,07,3A,
6029902,00000140,false,Rx,0,8,01,00,FF,FF,50,00,3D,EE,
6030898,00000120,false,Rx,0,8,73,EC,FF,FF,10,00,97,2B,
6030899,00000110,false,Rx,0,8,72,F9,FF,FF,30,00,82,F9,
6031897,00000130,false,Rx,0,8,F8,FF,FF,FF,20,00,18,53,
6031899,00000100,false,Rx,0,8,5A,00,00,00,20,00,15,21,
6032888,00000120,false,Rx,0,8,73,EC,FF,FF,20,00,83,2B,
6032890,00000110,false,Rx,0,8,72,F9,FF,FF,40,00,A7,39,
6034044,00000130,false,Rx,0,8,37,00,00,00,30,00,10,5C,
6034046,00000100,false,Rx,0,8,5A,00,00,00,30,00,18,E1,
6034046,00000120,false,Rx,0,8,73,EC,FF,FF,30,00,8E,EB,
6035138,00000110,false,Rx,0,8,89,F9,FF,FF,50,00,BF,72,
6035140,00000050,false,Rx,0,6,41,5C,FF,FB,5F,FF,00,00,
6035140,00000130,false,Rx,0,8,4D,21,00,00,43,80,83,51,
6036293,00000100,false,Rx,0,8,5A,00,00,00,40,00,3D,21,
6036294,00000120,false,Rx,0,8,73,EC,FF,FF,40,00,AB,2B,
6037297,00000110,false,Rx,0,8,89,F9,FF,FF,60,00,AB,72,
6037298,00000130,false,Rx,0,8,F8,FF,FF,FF,50,00,3D,93,
6038264,00000100,false,Rx,0,8,5A,00,00,00,50,00,30,E1,
6038265,00000120,false,Rx,0,8,73,EC,FF,FF,50,00,A6,EB,
6039421,00000110,false,Rx,0,8,5A,F9,FF,FF,70,00,B5,11,
6039423,00000130,false,Rx,0,8,18,00,00,00,60,00,2B,C3,
6040419,00000100,false,Rx,0,8,71,00,00,00,60,00,22,FA,
6040420,00000120,false,Rx,0,8,57,EC,FF,FF,60,00,B4,0F,
6041397,00000110,false,Rx,0,8,5A,F9,FF,FF,80,00,F1,11,
6041398,00000130,false,Rx,0,8,D9,FF,FF,FF,70,00,22,E2,
6042388,00000100,false,Rx,0,8,71,00,00,00,70,00,2F,3A,
6042390,00000120,false,Rx,0,8,57,EC,FF,FF,70,00,B9,CF,
6043515,00000110,false,Rx,0,8,5A,F9,FF,FF,90,00,FC,D1,
6043516,00000130,false,Rx,0,8,D9,FF,FF,FF,80,00,66,E2,
6044530,00000100,false,Rx,0,8,71,00,00,00,80,00,6B,3A,
6044531,00000120,false,Rx,0,8,73,EC,FF,FF,80,00,FB,2B,
6045523,00000110,false,Rx,0,8,5A,F9,FF,FF,A0,00,E8,D1,
6045524,00000130,false,Rx,0,8,18,00,00,00,90,00,6F,C3,
6046537,00000100,false,Rx,0,8,71,00,00,00,90,00,66,FA,
6046538,00000120,false,Rx,0,8,73,EC,FF,FF,90,00,F6,EB,
6047518,00000110,false,Rx,0,8,5A,F9,FF,FF,B0,00,E5,11,
6047519,00000130,false,Rx,0,8,F8,FF,FF,FF,A0,00,79,93,
6048638,00000100,false,Rx,0,8,88,00,00,00,A0,00,66,93,
6048639,00000120,false,Rx,0,8,73,EC,FF,FF,A0,00,E2,EB,
6049622,00000110,false,Rx,0,8,5A,F9,FF,FF,C0,00,C0,D1,
6049623,00000130,false,Rx,0,8,F8,FF,FF,FF,B0,00,74,53,
6050639,00000100,false,Rx,0,8,71,00,00,00,B0,00,7F,3A,
6050641,00000140,false,Rx,0,8,01,00,FF,FF,60,00,29,EE,
6050641,00000120,false,Rx,0,8,73,EC,FF,FF,B0,00,EF,2B,
6051623,00000110,false,Rx,0,8,72,F9,FF,FF,D0,00,CB,39,
6051625,00000130,false,Rx,0,8,18,00,00,00,C0,00,53,C3,
6052797,00000100,false,Rx,0,8,5A,00,00,00,C0,00,5C,E1,
6052798,00000120,false,Rx,0,8,90,EC,FF,FF,C0,00,DC,B8,
6053772,00000110,false,Rx,0,8,72,F9,FF,FF,E0,00,DF,39,
6053774,00000130,false,Rx,0,8,18,00,00,00,D0,00,5E,03,
6054773,00000100,false,Rx,0,8,5A,00,00,00,D0,00,51,21,
6054774,00000120,false,Rx,0,8,90,EC,FF,FF,D0,00,D1,78,
6054775,00000110,false,Rx,0,8,89,F9,FF,FF,F0,00,C7,72,
6056046,00000050,false,Rx,0,6,41,5C,FF,FB,5F,FF,00,00,
6056048,00000130,false,Rx,0,8,B8,34,03,00,E3,80,E2,73,
6056048,00000100,false,Rx,0,8,5A,00,00,00,E0,00,45,21,
6057515,00000120,false,Rx,0,8,73,EC,FF,FF,E0,00,D3,2B,
6057516,00000110,false,Rx,0,8,89,F9,FF,FF,00,00,83,72,
6058648,00000130,false,Rx,0,8,F8,FF,FF,FF,F0,00,45,93,
6058649,00000100,false,Rx,0,8,5A,00,00,00,F0,00,48,E1,
6059627,00000120,false,Rx,0,8,73,EC,FF,FF,F0,00,DE,EB,
6059628,00000110,false,Rx,0,8,5A,F9,FF,FF,10,00,9D,11,
6060648,00000130,false,Rx,0,8,F8,FF,FF,FF,00,00,01,93,
6060649,00000100,false,Rx,0,8,5A,00,00,00,00,00,0C,E1,
6061798,00000120,false,Rx,0,8,73,EC,FF,FF,00,00,9A,EB,
6061799,00000110,false,Rx,0,8,5A,F9,FF,FF,20,00,89,11,
6062789,00000130,false,Rx,0,8,18,00,00,00,10,00,0E,03,
6062791,00000100,false,Rx,0,8,71,00,00,00,10,00,07,3A,
6063773,00000120,false,Rx,0,8,73,EC,FF,FF,10,00,97,2B,
6063774,00000110,false,Rx,0,8,72,F9,FF,FF,30,00,82,F9,
6064766,00000130,false,Rx,0,8,18,00,00,00,20,00,1A,03,
6064768,00000100,false,Rx,0,8,71,00,00,00,20,00,13,3A,
6065920,00000120,false,Rx,0,8,73,EC,FF,FF,20,00,83,2B,
6065922,00000110,false,Rx,0,8,72,F9,FF,FF,40,00,A7,39,
6066915,00000130,false,Rx,0,8,18,00,00,00,30,00,17,C3,
6066916,00000100,false,Rx,0,8,71,00,00,00,30,00,1E,FA,
6067894,00000120,false,Rx,0,8,73,EC,FF,FF,30,00,8E,EB,
6067895,00000110,false,Rx,0,8,72,F9,FF,FF,50,00,AA,F9,
6068887,00000130,false,Rx,0,8,F8,FF,FF,FF,40,00,30,53,
6068889,00000100,false,Rx,0,8,71,00,00,00,40,00,3B,3A,
6069891,00000120,false,Rx,0,8,73,EC,FF,FF,40,00,AB,2B,
6069892,00000110,false,Rx,0,8,72,F9,FF,FF,60,00,BE,F9,
6071047,00000130,false,Rx,0,8,18,00,00,00,50,00,3F,C3,
6071048,00000100,false,Rx,0,8,71,00,00,00,50,00,36,FA,
6071049,00000140,false,Rx,0,8,01,00,FF,FF,70,00,24,2E,
6072043,00000120,false,Rx,0,8,73,EC,FF,FF,50,00,A6,EB,
6072045,00000110,false,Rx,0,8,5A,F9,FF,FF,70,00,B5,11,
6073016,00000130,false,Rx,0,8,D9,FF,FF,FF,60,00,2F,22,
6073017,00000100,false,Rx,0,8,5A,00,00,00,60,00,24,E1,
6074020,00000120,false,Rx,0,8,73,EC,FF,FF,60,00,B2,EB,
6074022,00000110,false,Rx,0,8,5A,F9,FF,FF,80,00,F1,11,
6075140,00000130,false,Rx,0,8,F8,FF,FF,FF,70,00,24,53,
6075141,00000100,false,Rx,0,8,5A,00,00,00,70,00,29,21,
6075142,00000120,false,Rx,0,8,73,EC,FF,FF,70,00,BF,2B,
6076263,00000110,false,Rx,0,8,5A,F9,FF,FF,90,00,FC,D1,
6076265,00000050,false,Rx,0,6,41,5C,FF,FB,5F,FF,00,00,
6076265,00000130,false,Rx,0,8,EB,95,FF,FF,83,80,7B,A9,
6077388,00000100,false,Rx,0,8,5A,00,00,00,80,00,6D,21,
6077389,00000120,false,Rx,0,8,73,EC,FF,FF,80,00,FB,2B,
6078403,00000110,false,Rx,0,8,5A,F9,FF,FF,A0,00,E8,D1,
6078404,00000130,false,Rx,0,8,95,00,00,00,90,00,71,1E,
6079400,00000100,false,Rx,0,8,5A,00,00,00,90,00,60,E1,
6079401,00000120,false,Rx,0,8,73,EC,FF,FF,90,00,F6,EB,
6080547,00000110,false,Rx,0,8,72,F9,FF,FF,B0,00,E3,39,
6080548,00000130,false,Rx,0,8,18,00,00,00,A0,00,7B,C3,
6081546,00000100,false,Rx,0,8,71,00,00,00,A0,00,72,FA,
6081548,00000120,false,Rx,0,8,73,EC,FF,FF,A0,00,E2,EB,
6082524,00000110,false,Rx,0,8,72,F9,FF,FF,C0,00,C6,F9,
6082525,00000130,false,Rx,0,8,18,00,00,00,B0,00,76,03,
6083536,00000100,false,Rx,0,8,88,00,00,00,B0,00,6B,53,
6083538,00000120,false,Rx,0,8,73,EC,FF,FF,B0,00,EF,2B,
6084634,00000110,false,Rx,0,8,72,F9,FF,FF,D0,00,CB,39,
6084635,00000130,false,Rx,0,8,F8,FF,FF,FF,C0,00,51,93,
6085621,00000100,false,Rx,0,8,71,00,00,00,C0,00,5A,FA,
6085623,00000120,false,Rx,0,8,73,EC,FF,FF,C0,00,CA,EB,
6086621,00000110,false,Rx,0,8,72,F9,FF,FF,E0,00,DF,39,
6086622,00000130,false,Rx,0,8,18,00,00,00,D0,00,5E,03,
6087640,00000100,false,Rx,0,8,88,00,00,00,D0,00,43,53,
6087641,00000120,false,Rx,0,8,73,EC,FF,FF,D0,00,C7,2B,
6088639,00000110,false,Rx,0,8,72,F9,FF,FF,F0,00,D2,F9,
6088641,00000130,false,Rx,0,8,F8,FF,FF,FF,E0,00,48,53,
6089797,00000100,false,Rx,0,8,88,00,00,00,E0,00,57,53,
6089798,00000120,false,Rx,0,8,73,EC,FF,FF,E0,00,D3,2B,
6090789,00000110,false,Rx,0,8,72,F9,FF,FF,00,00,96,F9,
6090791,00000130,false,Rx,0,8,18,00,00,00,F0,00,47,C3,
6091771,00000100,false,Rx,0,8,71,00,00,00,F0,00,4E,FA,
6091772,00000140,false,Rx,0,8,01,00,FF,FF,80,00,60,2E,
6091773,00000120,false,Rx,0,8,73,EC,FF,FF,F0,00,DE,EB,
6092771,00000110,false,Rx,0,8,72,F9,FF,FF,10,00,9B,39,
6092773,00000130,false,Rx,0,8,F8,FF,FF,FF,00,00,01,93,
6093917,00000100,false,Rx,0,8,71,00,00,00,00,00,0A,FA,
6093918,00000120,false,Rx,0,8,57,EC,FF,FF,00,00,9C,0F,
6094892,00000110,false,Rx,0,8,72,F9,FF,FF,20,00,8F,39,
6094893,00000130,false,Rx,0,8,D9,FF,FF,FF,10,00,0A,E2,
6095895,00000100,false,Rx,0,8,5A,00,00,00,10,00,01,21,
6095896,00000120,false,Rx,0,8,57,EC,FF,FF,10,00,91,CF,
6095897,00000110,false,Rx,0,8,5A,F9,FF,FF,30,00,84,D1,
6097146,00000050,false,Rx,0,6,41,5C,FF,FB,5F,FF,00,00,
6097148,00000130,false,Rx,0,8,2C,BA,F5,FF,23,80,C5,00,
6097148,00000100,false,Rx,0,8,5A,00,00,00,20,00,15,21,
6098639,00000120,false,Rx,0,8,90,EC,FF,FF,20,00,95,78,
6098640,00000110,false,Rx,0,8,5A,F9,FF,FF,40,00,A1,11,
6099796,00000130,false,Rx,0,8,B5,00,00,00,30,00,0E,7E,
6099798,00000100,false,Rx,0,8,71,00,00,00,30,00,1E,FA,
6100773,00000120,false,Rx,0,8,90,EC,FF,FF,30,00,98,B8,
6100774,00000110,false,Rx,0,8,72,F9,FF,FF,50,00,AA,F9,
6100775,00000170,false,Rx,0,8,00,00,00,57,50,81,05,24,
6101762,00000130,false,Rx,0,8,18,00,00,00,40,00,32,03,
6101763,00000100,false,Rx,0,8,71,00,00,00,40,00,3B,3A,
6102920,00000120,false,Rx,0,8,73,EC,FF,FF,40,00,AB,2B,
6102922,00000110,false,Rx,0,8,72,F9,FF,FF,60,00,BE,F9,
6103896,00000130,false,Rx,0,8,18,00,00,00,50,00,3F,C3,
6103898,00000100,false,Rx,0,8,71,00,00,00,50,00,36,FA,
6104891,00000120,false,Rx,0,8,73,EC,FF,FF,50,00,A6,EB,
6104892,00000110,false,Rx,0,8,72,F9,FF,FF,70,00,B3,39,
6105911,00000130,false,Rx,0,8,F8,FF,FF,FF,60,00,29,93,
6105913,00000100,false,Rx,0,8,88,00,00,00,60,00,36,93,
6107020,00000120,false,Rx,0,8,73,EC,FF,FF,60,00,B2,EB,
6107021,00000110,false,Rx,0,8,72,F9,FF,FF,80,00,F7,39,
6108014,00000130,false,Rx,0,8,D9,FF,FF,FF,70,00,22,E2,
6108016,00000100,false,Rx,0,8,71,00,00,00,70,00,2F,3A,
6109023,00000120,false,Rx,0,8,73,EC,FF,FF,70,00,BF,2B,
6109024,00000110,false,Rx,0,8,72,F9,FF,FF,90,00,FA,F9,
6110036,00000130,false,Rx,0,8,D9,FF,FF,FF,80,00,66,E2,
6110038,00000100,false,Rx,0,8,71,00,00,00,80,00,6B,3A,
6111171,00000120,false,Rx,0,8,73,EC,FF,FF,80,00,FB,2B,
6111173,00000110,false,Rx,0,8,72,F9,FF,FF,A0,00,EE,F9,
6112175,00000130,false,Rx,0,8,F8,FF,FF,FF,90,00,6D,93,
6112176,00000100,false,Rx,0,8,71,00,00,00,90,00,66,FA,
6112177,00000140,false,Rx,0,8,01,00,FF,FF,90,00,6D,EE,
6113148,00000120,false,Rx,0,8,73,EC,FF,FF,90,00,F6,EB,
6113149,00000110,false,Rx,0,8,72,F9,FF,FF,B0,00,E3,39,
6114149,00000130,false,Rx,0,8,F8,FF,FF,FF,A0,00,79,93,
6114151,00000100,false,Rx,0,8,71,00,00,00,A0,00,72,FA,
6115139,00000120,false,Rx,0,8,90,EC,FF,FF,A0,00,F4,B8,
6115140,00000110,false,Rx,0,8,72,F9,FF,FF,C0,00,C6,F9,
6116294,00000130,false,Rx,0,8,18,00,00,00,B0,00,76,03,
6116295,00000100,false,Rx,0,8,5A,00,00,00,B0,00,79,21,
6116295,00000120,false,Rx,0,8,90,EC,FF,FF,B0,00,F9,78,
6117387,00000110,false,Rx,0,8,A0,F9,FF,FF,D0,00,D9,4B,
6117388,00000050,false,Rx,0,6,41,5C,FF,FB,5F,FF,00,00,
6117388,00000130,false,Rx,0,8,4D,21,00,00,C3,80,E2,91,
6118547,00000100,false,Rx,0,8,5A,00,00,00,C0,00,5C,E1,
6118548,00000120,false,Rx,0,8,73,EC,FF,FF,C0,00,CA,EB,
6119547,00000110,false,Rx,0,8,A0,F9,FF,FF,E0,00,CD,4B,
6119548,00000130,false,Rx,0,8,F8,FF,FF,FF,D0,00,5C,53,
6120624,00000100,false,Rx,0,8,5A,00,00,00,D0,00,51,21,
6120625,00000120,false,Rx,0,8,73,EC,FF,FF,D0,00,C7,2B,
6121632,00000110,false,Rx,0,8,5A,F9,FF,FF,F0,00,D4,D1,
6121633,00000130,false,Rx,0,8,18,00,00,00,E0,00,4A,03,
6122623,00000100,false,Rx,0,8,71,00,00,00,E0,00,43,3A,
6122625,00000120,false,Rx,0,8,73,EC,FF,FF,E0,00,D3,2B,
6123642,00000110,false,Rx,0,8,5A,F9,FF,FF,00,00,90,D1,
6123643,00000130,false,Rx,0,8,D9,FF,FF,FF,F0,00,43,22,
6124638,00000100,false,Rx,0,8,71,00,00,00,F0,00,4E,FA,
6124640,00000120,false,Rx,0,8,73,EC,FF,FF,F0,00,DE,EB,
6125794,00000110,false,Rx,0,8,5A,F9,FF,FF,10,00,9D,11,
6125796,00000130,false,Rx,0,8,F8,FF,FF,FF,00,00,01,93,
6126763,00000100,false,Rx,0,8,71,00,00,00,00,00,0A,FA,
6126765,00000120,false,Rx,0,8,73,EC,FF,FF,00,00,9A,EB,
6127767,00000110,false,Rx,0,8,5A,F9,FF,FF,20,00,89,11,
6127768,00000130,false,Rx,0,8,18,00,00,00,10,00,0E,03,
6128766,00000100,false,Rx,0,8,88,00,00,00,10,00,13,53,
6128768,00000120,false,Rx,0,8,73,EC,FF,FF,10,00,97,2B,
6129764,00000110,false,Rx,0,8,5A,F9,FF,FF,30,00,84,D1,
6129765,00000130,false,Rx,0,8,F8,FF,FF,FF,20,00,18,53,
6130891,00000100,false,Rx,0,8,71,00,00,00,20,00,13,3A,
6130893,00000120,false,Rx,0,8,57,EC,FF,FF,20,00,85,CF,
6131890,00000110,false,Rx,0,8,5A,F9,FF,FF,40,00,A1,11,
6131892,00000130,false,Rx,0,8,D9,FF,FF,FF,30,00,13,22,
6132891,00000100,false,Rx,0,8,5A,00,00,00,30,00,18,E1,
6132892,00000140,false,Rx,0,8,01,00,FF,FF,A0,00,79,EE,
6132893,00000120,false,Rx,0,8,57,EC,FF,FF,30,00,88,0F,
6133889,00000110,false,Rx,0,8,5A,F9,FF,FF,50,00,AC,D1,
6133891,00000130,false,Rx,0,8,18,00,00,00,40,00,32,03,
6135015,00000100,false,Rx,0,8,5A,00,00,00,40,00,3D,21,
6135016,00000120,false,Rx,0,8,73,EC,FF,FF,40,00,AB,2B,
6135017,00000110,false,Rx,0,8,5A,F9,FF,FF,60,00,B8,D1,
6136765,00000130,false,Rx,0,8,37,00,00,00,50,00,38,5C,
6136767,00000100,false,Rx,0,8,5A,00,00,00,50,00,30,E1,
6136767,00000120,false,Rx,0,8,73,EC,FF,FF,50,00,A6,EB,
6138016,00000110,false,Rx,0,8,A0,F9,FF,FF,70,00,A1,4B,
6138017,00000050,false,Rx,0,6,41,5C,FF,FB,5F,FF,00,00,
6138018,00000130,false,Rx,0,8,99,34,03,00,63,80,85,02,
6139013,00000100,false,Rx,0,8,5A,00,00,00,60,00,24,E1,
6139014,00000120,false,Rx,0,8,73,EC,FF,FF,60,00,B2,EB,
6140016,00000110,false,Rx,0,8,A0,F9,FF,FF,80,00,E5,4B,
6140017,00000130,false,Rx,0,8,D9,FF,FF,FF,70,00,22,E2,
6141139,00000100,false,Rx,0,8,71,00,00,00,70,00,2F,3A,
6141140,00000120,false,Rx,0,8,73,EC,FF,FF,70,00,BF,2B,
6142139,00000110,false,Rx,0,8,5A,F9,FF,FF,90,00,FC,D1,
6142140,00000130,false,Rx,0,8,F8,FF,FF,FF,80,00,60,53,
6143137,00000100,false,Rx,0,8,71,00,00,00,80,00,6B,3A,
6143139,00000120,false,Rx,0,8,90,EC,FF,FF,80,00,ED,78,
6144262,00000110,false,Rx,0,8,5A,F9,FF,FF,A0,00,E8,D1,
6144264,00000130,false,Rx,0,8,D9,FF,FF,FF,90,00,6B,22,
6145263,00000100,false,Rx,0,8,71,00,00,00,90,00,66,FA,
6145265,00000120,false,Rx,0,8,90,EC,FF,FF,90,00,E0,B8,
6146265,00000110,false,Rx,0,8,72,F9,FF,FF,B0,00,E3,39,
6146267,00000130,false,Rx,0,8,F8,FF,FF,FF,A0,00,79,93,
6147266,00000100,false,Rx,0,8,71,00,00,00,A0,00,72,FA,
6147267,00000120,false,Rx,0,8,73,EC,FF,FF,A0,00,E2,EB,
6148388,00000110,false,Rx,0,8,72,F9,FF,FF,C0,00,C6,F9,
6148390,00000130,false,Rx,0,8,F8,FF,FF,FF,B0,00,74,53,
6149386,00000100,false,Rx,0,8,88,00,00,00,B0,00,6B,53,
6149388,00000120,false,Rx,0,8,73,EC,FF,FF,B0,00,EF,2B,
6150388,00000110,false,Rx,0,8,5A,F9,FF,FF,D0,00,CD,11,
6150389,00000130,false,Rx,0,8,D9,FF,FF,FF,C0,00,57,22,
6151389,00000100,false,Rx,0,8,71,00,00,00,C0,00,5A,FA,
6151391,00000120,false,Rx,0,8,90,EC,FF,FF,C0,00,DC,B8,
6152389,00000110,false,Rx,0,8,5A,F9,FF,FF,E0,00,D9,11,
6152391,00000130,false,Rx,0,8,D9,FF,FF,FF,D0,00,5A,E2,
6153511,00000100,false,Rx,0,8,5A,00,00,00,D0,00,51,21,
6153512,00000140,false,Rx,0,8,01,00,FF,FF,B0,00,74,2E,
6153513,00000120,false,Rx,0,8,90,EC,FF,FF,D0,00,D1,78,
6154512,00000110,false,Rx,0,8,72,F9,FF,FF,F0,00,D2,F9,
