Time Stamp,ID,Extended,Dir,Bus,LEN,D1,D2,D3,D4,D5,D6,D7,D8
25144032,00000110,false,Rx,0,8,18,00,00,00,E0,00,4A,03,
25144034,00000130,false,Rx,0,8,F8,FF,FF,FF,D0,00,5C,53,
25144999,00000100,false,Rx,0,8,19,21,00,00,D0,00,E3,D5,
25145000,00000120,false,Rx,0,8,46,00,00,00,70,00,2B,7D,
25145001,00000110,false,Rx,0,8,2F,00,00,00,F0,00,43,84,
25146128,00000050,false,Rx,0,6,41,5C,FF,FB,5F,FF,00,00,
25146129,00000130,false,Rx,0,8,1E,34,03,00,E3,80,FA,B5,
25146130,00000100,false,Rx,0,8,19,21,00,00,E0,00,F7,D5,
25147762,00000120,false,Rx,0,8,2A,00,00,00,80,00,66,11,
25147763,00000110,false,Rx,0,8,2F,00,00,00,00,00,07,84,
25148903,00000130,false,Rx,0,8,B9,FF,FF,FF,F0,00,4A,82,
25148904,00000100,false,Rx,0,8,30,21,00,00,F0,00,FD,EC,
25149900,00000120,false,Rx,0,8,2A,00,00,00,90,00,6B,D1,
25149901,00000110,false,Rx,0,8,18,00,00,00,10,00,0E,03,
25150998,00000130,false,Rx,0,8,F8,FF,FF,FF,00,00,01,93,
25150999,00000100,false,Rx,0,8,19,21,00,00,00,00,BE,15,
25151897,00000120,false,Rx,0,8,63,00,00,00,A0,00,71,88,
25151898,00000110,false,Rx,0,8,18,00,00,00,20,00,1A,03,
25153122,00000130,false,Rx,0,8,D9,FF,FF,FF,10,00,0A,E2,
25153124,00000100,false,Rx,0,8,30,21,00,00,10,00,B4,2C,
25154021,00000120,false,Rx,0,8,63,00,00,00,B0,00,7C,48,
25154022,00000110,false,Rx,0,8,18,00,00,00,30,00,17,C3,
25155032,00000130,false,Rx,0,8,F8,FF,FF,FF,20,00,18,53,
25155033,00000100,false,Rx,0,8,19,21,00,00,20,00,A7,D5,
25156125,00000120,false,Rx,0,8,2A,00,00,00,C0,00,57,D1,
25156126,00000110,false,Rx,0,8,18,00,00,00,40,00,32,03,
25157127,00000130,false,Rx,0,8,18,00,00,00,30,00,17,C3,
25157128,00000100,false,Rx,0,8,19,21,00,00,30,00,AA,15,
25158150,00000120,false,Rx,0,8,2A,00,00,00,D0,00,5A,11,
25158151,00000110,false,Rx,0,8,18,00,00,00,50,00,3F,C3,
25159149,00000130,false,Rx,0,8,18,00,00,00,40,00,32,03,
25159151,00000100,false,Rx,0,8,19,21,00,00,40,00,8F,D5,
25160149,00000120,false,Rx,0,8,2A,00,00,00,E0,00,4E,11,
25160151,00000110,false,Rx,0,8,18,00,00,00,60,00,2B,C3,
25161150,00000130,false,Rx,0,8,D9,FF,FF,FF,50,00,3B,22,
25161151,00000100,false,Rx,0,8,19,21,00,00,50,00,82,15,
25161153,00000140,false,Rx,0,8,01,00,FF,FF,F0,00,45,EE,
25162147,00000120,false,Rx,0,8,2A,00,00,00,F0,00,43,D1,
25162149,00000110,false,Rx,0,8,2F,00,00,00,70,00,22,44,
25163272,00000130,false,Rx,0,8,F8,FF,FF,FF,60,00,29,93,
25163274,00000100,false,Rx,0,8,19,21,00,00,60,00,96,15,
25164283,00000120,false,Rx,0,8,2A,00,00,00,00,00,07,D1,
25164284,00000110,false,Rx,0,8,2F,00,00,00,80,00,66,44,
25165280,00000130,false,Rx,0,8,18,00,00,00,70,00,26,03,
25165281,00000100,false,Rx,0,8,19,21,00,00,70,00,9B,D5,
25165282,00000120,false,Rx,0,8,2A,00,00,00,10,00,0A,11,
25166531,00000110,false,Rx,0,8,01,00,00,00,90,00,6D,CA,
25166532,00000050,false,Rx,0,6,41,5C,FF,FB,5F,FF,00,00,
25166532,00000130,false,Rx,0,8,FB,95,FF,FF,83,80,79,39,
25167595,00000100,false,Rx,0,8,30,21,00,00,80,00,D8,2C,
25167596,00000120,false,Rx,0,8,2A,00,00,00,20,00,1E,11,
25168525,00000110,false,Rx,0,8,01,00,00,00,A0,00,79,CA,
25168527,00000130,false,Rx,0,8,95,00,00,00,90,00,71,1E,
25169677,00000100,false,Rx,0,8,30,21,00,00,90,00,D5,EC,
25169679,00000120,false,Rx,0,8,2A,00,00,00,30,00,13,D1,
25170670,00000110,false,Rx,0,8,18,00,00,00,B0,00,76,03,
25170672,00000130,false,Rx,0,8,F8,FF,FF,FF,A0,00,79,93,
25171805,00000100,false,Rx,0,8,30,21,00,00,A0,00,C1,EC,
25171807,00000120,false,Rx,0,8,46,00,00,00,40,00,3F,7D,
25172804,00000110,false,Rx,0,8,18,00,00,00,C0,00,53,C3,
25172805,00000130,false,Rx,0,8,D9,FF,FF,FF,B0,00,72,E2,
25173751,00000100,false,Rx,0,8,30,21,00,00,B0,00,CC,2C,
25173760,00000120,false,Rx,0,8,46,00,00,00,50,00,32,BD,
25174779,00000110,false,Rx,0,8,18,00,00,00,D0,00,5E,03,
25174780,00000130,false,Rx,0,8,D9,FF,FF,FF,C0,00,57,22,
25175777,00000100,false,Rx,0,8,19,21,00,00,C0,00,EE,15,
25175779,00000120,false,Rx,0,8,2A,00,00,00,60,00,2F,D1,
25176929,00000110,false,Rx,0,8,18,00,00,00,E0,00,4A,03,
25176930,00000130,false,Rx,0,8,18,00,00,00,D0,00,5E,03,
25177908,00000100,false,Rx,0,8,19,21,00,00,D0,00,E3,D5,
25177910,00000120,false,Rx,0,8,2A,00,00,00,70,00,22,11,
25178997,00000110,false,Rx,0,8,2F,00,00,00,F0,00,43,84,
25178998,00000130,false,Rx,0,8,37,00,00,00,E0,00,4D,9C,
25179906,00000100,false,Rx,0,8,19,21,00,00,E0,00,F7,D5,
25179908,00000120,false,Rx,0,8,46,00,00,00,80,00,6F,7D,
25181114,00000110,false,Rx,0,8,2F,00,00,00,00,00,07,84,
25181115,00000130,false,Rx,0,8,F8,FF,FF,FF,F0,00,45,93,
25181115,00000100,false,Rx,0,8,30,21,00,00,F0,00,FD,EC,
25182143,00000140,false,Rx,0,8,01,00,FF,FF,00,00,01,EE,
25182144,00000120,false,Rx,0,8,46,00,00,00,90,00,62,BD,
25182144,00000110,false,Rx,0,8,18,00,00,00,10,00,0E,03,
25183783,00000130,false,Rx,0,8,18,00,00,00,00,00,03,C3,
25183785,00000100,false,Rx,0,8,19,21,00,00,00,00,BE,15,
25184775,00000120,false,Rx,0,8,2A,00,00,00,A0,00,7F,D1,
25184776,00000110,false,Rx,0,8,18,00,00,00,20,00,1A,03,
25185774,00000130,false,Rx,0,8,18,00,00,00,10,00,0E,03,
25185776,00000100,false,Rx,0,8,19,21,00,00,10,00,B3,D5,
25185776,00000120,false,Rx,0,8,2A,00,00,00,B0,00,72,11,
25187025,00000110,false,Rx,0,8,01,00,00,00,30,00,15,CA,
25187026,00000050,false,Rx,0,6,41,5C,FF,FB,5F,FF,00,00,
25187027,00000130,false,Rx,0,8,55,BC,F5,FF,23,80,46,A9,
25188012,00000100,false,Rx,0,8,19,21,00,00,20,00,A7,D5,
25188013,00000120,false,Rx,0,8,2A,00,00,00,C0,00,57,D1,
25189178,00000110,false,Rx,0,8,01,00,00,00,40,00,30,0A,
25189179,00000130,false,Rx,0,8,76,00,00,00,30,00,1F,4D,
25190155,00000100,false,Rx,0,8,30,21,00,00,30,00,AD,EC,
25190156,00000120,false,Rx,0,8,2A,00,00,00,D0,00,5A,11,
25191149,00000110,false,Rx,0,8,18,00,00,00,50,00,3F,C3,
25191150,00000170,false,Rx,0,8,00,00,00,5F,50,81,05,B8,
25191151,00000130,false,Rx,0,8,18,00,00,00,40,00,32,03,
25192302,00000100,false,Rx,0,8,19,21,00,00,40,00,8F,D5,
25192304,00000120,false,Rx,0,8,46,00,00,00,E0,00,47,7D,
25193282,00000110,false,Rx,0,8,18,00,00,00,60,00,2B,C3,
25193283,00000130,false,Rx,0,8,F8,FF,FF,FF,50,00,3D,93,
25193284,00000100,false,Rx,0,8,30,21,00,00,50,00,85,EC,
25195017,00000120,false,Rx,0,8,46,00,00,00,F0,00,4A,BD,
25195018,00000110,false,Rx,0,8,18,00,00,00,70,00,26,03,
25196154,00000130,false,Rx,0,8,F8,FF,FF,FF,60,00,29,93,
25196156,00000100,false,Rx,0,8,30,21,00,00,60,00,91,EC,
25197141,00000120,false,Rx,0,8,2A,00,00,00,00,00,07,D1,
25197143,00000110,false,Rx,0,8,18,00,00,00,80,00,62,03,
25198150,00000130,false,Rx,0,8,F8,FF,FF,FF,70,00,24,53,
25198151,00000100,false,Rx,0,8,30,21,00,00,70,00,9C,2C,
25199151,00000120,false,Rx,0,8,2A,00,00,00,10,00,0A,11,
25199152,00000110,false,Rx,0,8,18,00,00,00,90,00,6F,C3,
25200264,00000130,false,Rx,0,8,B9,FF,FF,FF,80,00,6F,42,
25200265,00000100,false,Rx,0,8,19,21,00,00,80,00,DF,D5,
25201300,00000120,false,Rx,0,8,0E,00,00,00,20,00,18,F5,
25201302,00000110,false,Rx,0,8,18,00,00,00,A0,00,7B,C3,
25202306,00000130,false,Rx,0,8,D9,FF,FF,FF,90,00,6B,22,
25202307,00000100,false,Rx,0,8,30,21,00,00,90,00,D5,EC,
25202307,00000140,false,Rx,0,8,01,00,FF,FF,10,00,0C,2E,
25203293,00000120,false,Rx,0,8,0E,00,00,00,30,00,15,35,
25203294,00000110,false,Rx,0,8,18,00,00,00,B0,00,76,03,
25204427,00000130,false,Rx,0,8,F8,FF,FF,FF,A0,00,79,93,
25204429,00000100,false,Rx,0,8,19,21,00,00,A0,00,C6,15,
25205427,00000120,false,Rx,0,8,2A,00,00,00,40,00,36,11,
25205428,00000110,false,Rx,0,8,18,00,00,00,C0,00,53,C3,
25206427,00000130,false,Rx,0,8,56,00,00,00,B0,00,79,ED,
25206428,00000100,false,Rx,0,8,19,21,00,00,B0,00,CB,D5,
25206429,00000120,false,Rx,0,8,2A,00,00,00,50,00,3B,D1,
25207683,00000110,false,Rx,0,8,46,00,00,00,D0,00,53,7D,
25207684,00000050,false,Rx,0,6,41,5C,FF,FB,5F,FF,00,00,
25207685,00000130,false,Rx,0,8,48,21,00,00,C3,80,E2,C4,
25208676,00000100,false,Rx,0,8,19,21,00,00,C0,00,EE,15,
25208678,00000120,false,Rx,0,8,46,00,00,00,60,00,26,BD,
25209653,00000110,false,Rx,0,8,46,00,00,00,E0,00,47,7D,
25209654,00000130,false,Rx,0,8,D9,FF,FF,FF,D0,00,5A,E2,
25210786,00000100,false,Rx,0,8,19,21,00,00,D0,00,E3,D5,
25210786,00000120,false,Rx,0,8,46,00,00,00,70,00,2B,7D,
25211791,00000110,false,Rx,0,8,18,00,00,00,F0,00,47,C3,
25211792,00000130,false,Rx,0,8,F8,FF,FF,FF,E0,00,48,53,
25212792,00000100,false,Rx,0,8,30,21,00,00,E0,00,F0,2C,
25212793,00000120,false,Rx,0,8,46,00,00,00,80,00,6F,7D,
25213755,00000110,false,Rx,0,8,18,00,00,00,00,00,03,C3,
25213755,00000130,false,Rx,0,8,F8,FF,FF,FF,F0,00,45,93,
25214912,00000100,false,Rx,0,8,19,21,00,00,F0,00,FA,15,
25214913,00000120,false,Rx,0,8,46,00,00,00,90,00,62,BD,
25215909,00000110,false,Rx,0,8,18,00,00,00,10,00,0E,03,
25215910,00000130,false,Rx,0,8,F8,FF,FF,FF,00,00,01,93,
25216888,00000100,false,Rx,0,8,19,21,00,00,00,00,BE,15,
25216889,00000120,false,Rx,0,8,46,00,00,00,A0,00,76,BD,
25217889,00000110,false,Rx,0,8,18,00,00,00,20,00,1A,03,
25217890,00000130,false,Rx,0,8,D9,FF,FF,FF,10,00,0A,E2,
25218882,00000100,false,Rx,0,8,19,21,00,00,10,00,B3,D5,
25218883,00000120,false,Rx,0,8,46,00,00,00,B0,00,7B,7D,
25220008,00000110,false,Rx,0,8,18,00,00,00,30,00,17,C3,
25220009,00000130,false,Rx,0,8,F8,FF,FF,FF,20,00,18,53,
25221015,00000100,false,Rx,0,8,19,21,00,00,20,00,A7,D5,
25221016,00000120,false,Rx,0,8,46,00,00,00,C0,00,5E,BD,
25222018,00000110,false,Rx,0,8,18,00,00,00,40,00,32,03,
25222019,00000130,false,Rx,0,8,F8,FF,FF,FF,30,00,15,93,
25222994,00000100,false,Rx,0,8,19,21,00,00,30,00,AA,15,
25222995,00000140,false,Rx,0,8,01,00,FF,FF,20,00,18,2E,
25222995,00000120,false,Rx,0,8,46,00,00,00,D0,00,53,7D,
25224143,00000110,false,Rx,0,8,18,00,00,00,50,00,3F,C3,
25224144,00000130,false,Rx,0,8,D9,FF,FF,FF,40,00,36,E2,
25225118,00000100,false,Rx,0,8,02,21,00,00,40,00,8C,3E,
25225119,00000120,false,Rx,0,8,2A,00,00,00,E0,00,4E,11,
25226167,00000110,false,Rx,0,8,18,00,00,00,60,00,2B,C3,
25226168,00000130,false,Rx,0,8,F8,FF,FF,FF,50,00,3D,93,
25227136,00000100,false,Rx,0,8,02,21,00,00,50,00,81,FE,
25227137,00000120,false,Rx,0,8,2A,00,00,00,F0,00,43,D1,
25227138,00000110,false,Rx,0,8,46,00,00,00,70,00,2B,7D,
25228390,00000050,false,Rx,0,6,41,5C,FF,FB,5F,FF,00,00,
25228391,00000130,false,Rx,0,8,3D,34,03,00,63,80,9C,26,
25228392,00000100,false,Rx,0,8,19,21,00,00,60,00,96,15,
25229882,00000120,false,Rx,0,8,2A,00,00,00,00,00,07,D1,
25229882,00000110,false,Rx,0,8,46,00,00,00,80,00,6F,7D,
25231008,00000130,false,Rx,0,8,D9,FF,FF,FF,70,00,22,E2,
25231009,00000100,false,Rx,0,8,19,21,00,00,70,00,9B,D5,
25232014,00000120,false,Rx,0,8,2A,00,00,00,10,00,0A,11,
25232014,00000110,false,Rx,0,8,18,00,00,00,90,00,6F,C3,
25233157,00000130,false,Rx,0,8,18,00,00,00,80,00,62,03,
25233158,00000100,false,Rx,0,8,19,21,00,00,80,00,DF,D5,
25234157,00000120,false,Rx,0,8,46,00,00,00,20,00,17,7D,
25234158,00000110,false,Rx,0,8,18,00,00,00,A0,00,7B,C3,
25235161,00000130,false,Rx,0,8,F8,FF,FF,FF,90,00,6D,93,
25235162,00000100,false,Rx,0,8,19,21,00,00,90,00,D2,15,
25236134,00000120,false,Rx,0,8,46,00,00,00,30,00,1A,BD,
25236135,00000110,false,Rx,0,8,2F,00,00,00,B0,00,72,44,
25237136,00000130,false,Rx,0,8,F8,FF,FF,FF,A0,00,79,93,
25237137,00000100,false,Rx,0,8,19,21,00,00,A0,00,C6,15,
25238292,00000120,false,Rx,0,8,46,00,00,00,40,00,3F,7D,
25238293,00000110,false,Rx,0,8,2F,00,00,00,C0,00,57,84,
25239264,00000130,false,Rx,0,8,F8,FF,FF,FF,B0,00,74,53,
25239265,00000100,false,Rx,0,8,19,21,00,00,B0,00,CB,D5,
25240254,00000120,false,Rx,0,8,46,00,00,00,50,00,32,BD,
25240255,00000110,false,Rx,0,8,18,00,00,00,D0,00,5E,03,
25241275,00000130,false,Rx,0,8,F8,FF,FF,FF,C0,00,51,93,
25241276,00000100,false,Rx,0,8,19,21,00,00,C0,00,EE,15,
25242383,00000120,false,Rx,0,8,2A,00,00,00,60,00,2F,D1,
25242384,00000110,false,Rx,0,8,18,00,00,00,E0,00,4A,03,
25243385,00000130,false,Rx,0,8,18,00,00,00,D0,00,5E,03,
25243386,00000100,false,Rx,0,8,02,21,00,00,D0,00,E0,3E,
25243387,00000140,false,Rx,0,8,01,00,FF,FF,30,00,15,EE,
25244382,00000120,false,Rx,0,8,2A,00,00,00,70,00,22,11,
25244383,00000110,false,Rx,0,8,18,00,00,00,F0,00,47,C3,
25245382,00000130,false,Rx,0,8,F8,FF,FF,FF,E0,00,48,53,
25245383,00000100,false,Rx,0,8,19,21,00,00,E0,00,F7,D5,
25246382,00000120,false,Rx,0,8,0E,00,00,00,80,00,60,F5,
25246383,00000110,false,Rx,0,8,18,00,00,00,00,00,03,C3,
25247507,00000130,false,Rx,0,8,D9,FF,FF,FF,F0,00,43,22,
25247508,00000100,false,Rx,0,8,19,21,00,00,F0,00,FA,15,
25247509,00000120,false,Rx,0,8,0E,00,00,00,90,00,6D,35,
25248632,00000110,false,Rx,0,8,01,00,00,00,10,00,0C,0A,
25248634,00000050,false,Rx,0,6,41,5C,FF,FB,5F,FF,00,00,
25248634,00000130,false,Rx,0,8,1B,96,FF,FF,03,80,4A,99,
25249758,00000100,false,Rx,0,8,19,21,00,00,00,00,BE,15,
25249759,00000120,false,Rx,0,8,2A,00,00,00,A0,00,7F,D1,
25250757,00000110,false,Rx,0,8,01,00,00,00,20,00,18,0A,
25250758,00000130,false,Rx,0,8,56,00,00,00,10,00,01,ED,
25251757,00000100,false,Rx,0,8,19,21,00,00,10,00,B3,D5,
25251758,00000120,false,Rx,0,8,2A,00,00,00,B0,00,72,11,
25252883,00000110,false,Rx,0,8,18,00,00,00,30,00,17,C3,
25252884,00000130,false,Rx,0,8,18,00,00,00,20,00,1A,03,
25253882,00000100,false,Rx,0,8,19,21,00,00,20,00,A7,D5,
25253883,00000120,false,Rx,0,8,46,00,00,00,C0,00,5E,BD,
25254883,00000110,false,Rx,0,8,18,00,00,00,40,00,32,03,
25254884,00000130,false,Rx,0,8,18,00,00,00,30,00,17,C3,
25255883,00000100,false,Rx,0,8,19,21,00,00,30,00,AA,15,
25255884,00000120,false,Rx,0,8,46,00,00,00,D0,00,53,7D,
25256869,00000110,false,Rx,0,8,18,00,00,00,50,00,3F,C3,
25256870,00000130,false,Rx,0,8,D9,FF,FF,FF,40,00,36,E2,
25258007,00000100,false,Rx,0,8,02,21,00,00,40,00,8C,3E,
25258008,00000120,false,Rx,0,8,2A,00,00,00,E0,00,4E,11,
25258996,00000110,false,Rx,0,8,18,00,00,00,60,00,2B,C3,
25258997,00000130,false,Rx,0,8,F8,FF,FF,FF,50,00,3D,93,
25259993,00000100,false,Rx,0,8,19,21,00,00,50,00,82,15,
25259994,00000120,false,Rx,0,8,2A,00,00,00,F0,00,43,D1,
25260993,00000110,false,Rx,0,8,18,00,00,00,70,00,26,03,
25260994,00000130,false,Rx,0,8,18,00,00,00,60,00,2B,C3,
25261994,00000100,false,Rx,0,8,19,21,00,00,60,00,96,15,
25261995,00000120,false,Rx,0,8,2A,00,00,00,00,00,07,D1,
25263118,00000110,false,Rx,0,8,18,00,00,00,80,00,62,03,
25263119,00000130,false,Rx,0,8,D9,FF,FF,FF,70,00,22,E2,
25264132,00000100,false,Rx,0,8,30,21,00,00,70,00,9C,2C,
25264133,00000140,false,Rx,0,8,01,00,FF,FF,40,00,30,2E,
25264133,00000120,false,Rx,0,8,2A,00,00,00,10,00,0A,11,
25265132,00000110,false,Rx,0,8,18,00,00,00,90,00,6F,C3,
25265133,00000130,false,Rx,0,8,F8,FF,FF,FF,80,00,60,53,
25266132,00000100,false,Rx,0,8,19,21,00,00,80,00,DF,D5,
25266133,00000120,false,Rx,0,8,2A,00,00,00,20,00,1E,11,
25267257,00000110,false,Rx,0,8,18,00,00,00,A0,00,7B,C3,
25267258,00000130,false,Rx,0,8,F8,FF,FF,FF,90,00,6D,93,
25267259,00000100,false,Rx,0,8,19,21,00,00,90,00,D2,15,
25269009,00000120,false,Rx,0,8,2A,00,00,00,30,00,13,D1,
25269010,00000110,false,Rx,0,8,18,00,00,00,B0,00,76,03,
25269010,00000050,false,Rx,0,6,41,5C,FF,FB,5F,FF,00,00,
25270010,00000130,false,Rx,0,8,55,BC,F5,FF,A3,80,27,69,
25270011,00000100,false,Rx,0,8,19,21,00,00,A0,00,C6,15,
25271008,00000120,false,Rx,0,8,46,00,00,00,40,00,3F,7D,
25271009,00000110,false,Rx,0,8,18,00,00,00,C0,00,53,C3,
25271009,00000210,false,Rx,0,8,75,69,00,05,06,5F,01,03,
25272130,00000130,false,Rx,0,8,95,00,00,00,B0,00,68,DE,
25272130,00000100,false,Rx,0,8,19,21,00,00,B0,00,CB,D5,
25273132,00000120,false,Rx,0,8,46,00,00,00,50,00,32,BD,
25273133,00000110,false,Rx,0,8,18,00,00,00,D0,00,5E,03,
25274131,00000130,false,Rx,0,8,F8,FF,FF,FF,C0,00,51,93,
25274132,00000100,false,Rx,0,8,02,21,00,00,C0,00,ED,FE,
25275131,00000120,false,Rx,0,8,46,00,00,00,60,00,26,BD,
25275132,00000110,false,Rx,0,8,18,00,00,00,E0,00,4A,03,
25276256,00000130,false,Rx,0,8,18,00,00,00,D0,00,5E,03,
25276257,00000100,false,Rx,0,8,19,21,00,00,D0,00,E3,D5,
25277246,00000120,false,Rx,0,8,46,00,00,00,70,00,2B,7D,
25277247,00000110,false,Rx,0,8,18,00,00,00,F0,00,47,C3,
25278255,00000130,false,Rx,0,8,D9,FF,FF,FF,E0,00,4E,E2,
25278255,00000100,false,Rx,0,8,02,21,00,00,E0,00,F4,3E,
25279244,00000120,false,Rx,0,8,46,00,00,00,80,00,6F,7D,
25279245,00000110,false,Rx,0,8,18,00,00,00,00,00,03,C3,
25280258,00000130,false,Rx,0,8,D9,FF,FF,FF,F0,00,43,22,
25280259,00000100,false,Rx,0,8,19,21,00,00,F0,00,FA,15,
25281382,00000120,false,Rx,0,8,46,00,00,00,90,00,62,BD,
25281383,00000110,false,Rx,0,8,18,00,00,00,10,00,0E,03,
25282381,00000130,false,Rx,0,8,F8,FF,FF,FF,00,00,01,93,
25282382,00000100,false,Rx,0,8,02,21,00,00,00,00,BD,FE,
25283380,00000120,false,Rx,0,8,2A,00,00,00,A0,00,7F,D1,
25283381,00000110,false,Rx,0,8,18,00,00,00,20,00,1A,03,
25284381,00000130,false,Rx,0,8,37,00,00,00,10,00,09,9C,
25284382,00000100,false,Rx,0,8,19,21,00,00,10,00,B3,D5,
25284383,00000140,false,Rx,0,8,01,00,FF,FF,50,00,3D,EE,
25285506,00000120,false,Rx,0,8,2A,00,00,00,B0,00,72,11,
25285506,00000110,false,Rx,0,8,18,00,00,00,30,00,17,C3,
25286506,00000130,false,Rx,0,8,F8,FF,FF,FF,20,00,18,53,
25286507,00000100,false,Rx,0,8,19,21,00,00,20,00,A7,D5,
25287508,00000120,false,Rx,0,8,46,00,00,00,C0,00,5E,BD,
25287509,00000110,false,Rx,0,8,18,00,00,00,40,00,32,03,
25288507,00000130,false,Rx,0,8,18,00,00,00,30,00,17,C3,
25288508,00000100,false,Rx,0,8,02,21,00,00,30,00,A9,FE,
25288509,00000120,false,Rx,0,8,46,00,00,00,D0,00,53,7D,
25289766,00000110,false,Rx,0,8,2F,00,00,00,50,00,3B,84,
25289767,00000050,false,Rx,0,6,41,5C,FF,FB,5F,FF,00,00,
25289768,00000130,false,Rx,0,8,48,21,00,00,43,80,83,04,
25290750,00000100,false,Rx,0,8,02,21,00,00,40,00,8C,3E,
25290751,00000120,false,Rx,0,8,46,00,00,00,E0,00,47,7D,
25291744,00000110,false,Rx,0,8,2F,00,00,00,60,00,2F,84,
25291745,00000130,false,Rx,0,8,F8,FF,FF,FF,50,00,3D,93,
25292871,00000100,false,Rx,0,8,02,21,00,00,50,00,81,FE,
25292872,00000120,false,Rx,0,8,46,00,00,00,F0,00,4A,BD,
25293870,00000110,false,Rx,0,8,18,00,00,00,70,00,26,03,
25293871,00000170,false,Rx,0,8,00,00,00,50,50,81,05,D0,
25293872,00000130,false,Rx,0,8,F8,FF,FF,FF,60,00,29,93,
25294882,00000100,false,Rx,0,8,02,21,00,00,60,00,95,FE,
25294884,00000120,false,Rx,0,8,2A,00,00,00,00,00,07,D1,
25296013,00000110,false,Rx,0,8,18,00,00,00,80,00,62,03,
25296014,00000130,false,Rx,0,8,18,00,00,00,70,00,26,03,
25296993,00000100,false,Rx,0,8,19,21,00,00,70,00,9B,D5,
25296994,00000120,false,Rx,0,8,2A,00,00,00,10,00,0A,11,
25298013,00000110,false,Rx,0,8,18,00,00,00,90,00,6F,C3,
25298014,00000130,false,Rx,0,8,F8,FF,FF,FF,80,00,60,53,
25298992,00000100,false,Rx,0,8,19,21,00,00,80,00,DF,D5,
25298994,00000120,false,Rx,0,8,46,00,00,00,20,00,17,7D,
25300003,00000110,false,Rx,0,8,18,00,00,00,A0,00,7B,C3,
25300004,00000130,false,Rx,0,8,18,00,00,00,90,00,6F,C3,
25301118,00000100,false,Rx,0,8,19,21,00,00,90,00,D2,15,
25301119,00000120,false,Rx,0,8,46,00,00,00,30,00,1A,BD,
25302117,00000110,false,Rx,0,8,2F,00,00,00,B0,00,72,44,
25302118,00000130,false,Rx,0,8,F8,FF,FF,FF,A0,00,79,93,
25303129,00000100,false,Rx,0,8,19,21,00,00,A0,00,C6,15,
25303130,00000120,false,Rx,0,8,0E,00,00,00,40,00,30,F5,
25304130,00000110,false,Rx,0,8,2F,00,00,00,C0,00,57,84,
25304131,00000130,false,Rx,0,8,F8,FF,FF,FF,B0,00,74,53,
25305128,00000100,false,Rx,0,8,02,21,00,00,B0,00,C8,3E,
25305129,00000140,false,Rx,0,8,01,00,FF,FF,60,00,29,EE,
25305129,00000120,false,Rx,0,8,0E,00,00,00,50,00,3D,35,
25306254,00000110,false,Rx,0,8,18,00,00,00,D0,00,5E,03,
25306255,00000130,false,Rx,0,8,18,00,00,00,C0,00,53,C3,
25307252,00000100,false,Rx,0,8,02,21,00,00,C0,00,ED,FE,
25307253,00000120,false,Rx,0,8,2A,00,00,00,60,00,2F,D1,
25308255,00000110,false,Rx,0,8,18,00,00,00,E0,00,4A,03,
25308256,00000130,false,Rx,0,8,37,00,00,00,D0,00,59,9C,
25309253,00000100,false,Rx,0,8,02,21,00,00,D0,00,E0,3E,
25309254,00000120,false,Rx,0,8,2A,00,00,00,70,00,22,11,
25309254,00000110,false,Rx,0,8,46,00,00,00,F0,00,4A,BD,
25310506,00000050,false,Rx,0,6,41,5C,FF,FB,5F,FF,00,00,
25310507,00000130,false,Rx,0,8,3D,34,03,00,E3,80,FD,E6,
25310507,00000100,false,Rx,0,8,02,21,00,00,E0,00,F4,3E,
25312129,00000120,false,Rx,0,8,46,00,00,00,80,00,6F,7D,
25312130,00000110,false,Rx,0,8,46,00,00,00,00,00,0E,BD,
25313130,00000130,false,Rx,0,8,F8,FF,FF,FF,F0,00,45,93,
25313130,00000100,false,Rx,0,8,02,21,00,00,F0,00,F9,FE,
25314252,00000120,false,Rx,0,8,46,00,00,00,90,00,62,BD,
25314253,00000110,false,Rx,0,8,18,00,00,00,10,00,0E,03,
25315254,00000130,false,Rx,0,8,B9,FF,FF,FF,00,00,0E,82,
25315255,00000100,false,Rx,0,8,02,21,00,00,00,00,BD,FE,
25316253,00000120,false,Rx,0,8,46,00,00,00,A0,00,76,BD,
25316254,00000110,false,Rx,0,8,18,00,00,00,20,00,1A,03,
25317253,00000130,false,Rx,0,8,18,00,00,00,10,00,0E,03,
25317254,00000100,false,Rx,0,8,19,21,00,00,10,00,B3,D5,
25318254,00000120,false,Rx,0,8,46,00,00,00,B0,00,7B,7D,
25318255,00000110,false,Rx,0,8,18,00,00,00,30,00,17,C3,
25319380,00000130,false,Rx,0,8,18,00,00,00,20,00,1A,03,
25319381,00000100,false,Rx,0,8,19,21,00,00,20,00,A7,D5,
25320379,00000120,false,Rx,0,8,2A,00,00,00,C0,00,57,D1,
25320380,00000110,false,Rx,0,8,18,00,00,00,40,00,32,03,
25321380,00000130,false,Rx,0,8,F8,FF,FF,FF,30,00,15,93,
25321381,00000100,false,Rx,0,8,19,21,00,00,30,00,AA,15,
25322379,00000120,false,Rx,0,8,2A,00,00,00,D0,00,5A,11,
25322379,00000110,false,Rx,0,8,18,00,00,00,50,00,3F,C3,
25323503,00000130,false,Rx,0,8,F8,FF,FF,FF,40,00,30,53,
25323503,00000100,false,Rx,0,8,19,21,00,00,40,00,8F,D5,
25324504,00000120,false,Rx,0,8,2A,00,00,00,E0,00,4E,11,
25324505,00000110,false,Rx,0,8,18,00,00,00,60,00,2B,C3,
25325504,00000130,false,Rx,0,8,F8,FF,FF,FF,50,00,3D,93,
25325505,00000100,false,Rx,0,8,02,21,00,00,50,00,81,FE,
25325505,00000140,false,Rx,0,8,01,00,FF,FF,70,00,24,2E,
25326504,00000120,false,Rx,0,8,2A,00,00,00,F0,00,43,D1,
25326504,00000110,false,Rx,0,8,01,00,00,00,70,00,24,0A,
25327503,00000130,false,Rx,0,8,D9,FF,FF,FF,60,00,2F,22,
25327503,00000100,false,Rx,0,8,19,21,00,00,60,00,96,15,
25328628,00000120,false,Rx,0,8,2A,00,00,00,00,00,07,D1,
25328629,00000110,false,Rx,0,8,01,00,00,00,80,00,60,0A,
25329617,00000130,false,Rx,0,8,F8,FF,FF,FF,70,00,24,53,
25329618,00000100,false,Rx,0,8,19,21,00,00,70,00,9B,D5,
25329618,00000120,false,Rx,0,8,2A,00,00,00,10,00,0A,11,
25330882,00000110,false,Rx,0,8,18,00,00,00,90,00,6F,C3,
25330884,00000050,false,Rx,0,6,41,5C,FF,FB,5F,FF,00,00,
25330884,00000130,false,Rx,0,8,FB,95,FF,FF,83,80,79,39,
25331884,00000100,false,Rx,0,8,02,21,00,00,80,00,DC,3E,
25331885,00000120,false,Rx,0,8,46,00,00,00,20,00,17,7D,
25332883,00000110,false,Rx,0,8,18,00,00,00,A0,00,7B,C3,
25332884,00000130,false,Rx,0,8,95,00,00,00,90,00,71,1E,
25334020,00000100,false,Rx,0,8,19,21,00,00,90,00,D2,15,
25334021,00000120,false,Rx,0,8,46,00,00,00,30,00,1A,BD,
25335007,00000110,false,Rx,0,8,18,00,00,00,B0,00,76,03,
25335007,00000130,false,Rx,0,8,18,00,00,00,A0,00,7B,C3,
25335997,00000100,false,Rx,0,8,19,21,00,00,A0,00,C6,15,
25335998,00000120,false,Rx,0,8,2A,00,00,00,40,00,36,11,
25336993,00000110,false,Rx,0,8,18,00,00,00,C0,00,53,C3,
25336994,00000130,false,Rx,0,8,F8,FF,FF,FF,B0,00,74,53,
25338119,00000100,false,Rx,0,8,EB,20,00,00,B0,00,E3,07,
25338121,00000120,false,Rx,0,8,2A,00,00,00,50,00,3B,D1,
25339117,00000110,false,Rx,0,8,2F,00,00,00,D0,00,5A,44,
25339119,00000130,false,Rx,0,8,F8,FF,FF,FF,C0,00,51,93,
25340128,00000100,false,Rx,0,8,02,21,00,00,C0,00,ED,FE,
25340129,00000120,false,Rx,0,8,2A,00,00,00,60,00,2F,D1,
25341119,00000110,false,Rx,0,8,2F,00,00,00,E0,00,4E,44,
25341120,00000130,false,Rx,0,8,18,00,00,00,D0,00,5E,03,
25342244,00000100,false,Rx,0,8,02,21,00,00,D0,00,E0,3E,
25342244,00000120,false,Rx,0,8,2A,00,00,00,70,00,22,11,
25343254,00000110,false,Rx,0,8,18,00,00,00,F0,00,47,C3,
25343255,00000130,false,Rx,0,8,F8,FF,FF,FF,E0,00,48,53,
25344257,00000100,false,Rx,0,8,02,21,00,00,E0,00,F4,3E,
25344257,00000120,false,Rx,0,8,2A,00,00,00,80,00,66,11,
25345256,00000110,false,Rx,0,8,18,00,00,00,00,00,03,C3,
25345257,00000130,false,Rx,0,8,D9,FF,FF,FF,F0,00,43,22,
25346255,00000100,false,Rx,0,8,19,21,00,00,F0,00,FA,15,
25346255,00000140,false,Rx,0,8,01,00,FF,FF,80,00,60,2E,
25346256,00000120,false,Rx,0,8,2A,00,00,00,90,00,6B,D1,
25347492,00000110,false,Rx,0,8,18,00,00,00,10,00,0E,03,
25347492,00000130,false,Rx,0,8,F8,FF,FF,FF,00,00,01,93,
25348381,00000100,false,Rx,0,8,02,21,00,00,00,00,BD,FE,
25348382,00000120,false,Rx,0,8,46,00,00,00,A0,00,76,BD,
25349380,00000110,false,Rx,0,8,18,00,00,00,20,00,1A,03,
25349381,00000130,false,Rx,0,8,D9,FF,FF,FF,10,00,0A,E2,
25350377,00000100,false,Rx,0,8,19,21,00,00,10,00,B3,D5,
25350378,00000120,false,Rx,0,8,46,00,00,00,B0,00,7B,7D,
25350379,00000110,false,Rx,0,8,01,00,00,00,30,00,15,CA,
25351626,00000050,false,Rx,0,6,41,5C,FF,FB,5F,FF,00,00,
25351627,00000130,false,Rx,0,8,55,BC,F5,FF,23,80,46,A9,
25351628,00000100,false,Rx,0,8,02,21,00,00,20,00,A4,3E,
25353131,00000120,false,Rx,0,8,46,00,00,00,C0,00,5E,BD,
25353132,00000110,false,Rx,0,8,01,00,00,00,40,00,30,0A,
25354255,00000130,false,Rx,0,8,95,00,00,00,30,00,09,1E,
25354256,00000100,false,Rx,0,8,02,21,00,00,30,00,A9,FE,
25355255,00000120,false,Rx,0,8,46,00,00,00,D0,00,53,7D,
25355256,00000110,false,Rx,0,8,18,00,00,00,50,00,3F,C3,
25356252,00000130,false,Rx,0,8,D9,FF,FF,FF,40,00,36,E2,
25356252,00000100,false,Rx,0,8,02,21,00,00,40,00,8C,3E,
25357379,00000120,false,Rx,0,8,46,00,00,00,E0,00,47,7D,
25357379,00000110,false,Rx,0,8,18,00,00,00,60,00,2B,C3,
25358379,00000130,false,Rx,0,8,18,00,00,00,50,00,3F,C3,
25358380,00000100,false,Rx,0,8,02,21,00,00,50,00,81,FE,
25359379,00000120,false,Rx,0,8,46,00,00,00,F0,00,4A,BD,
25359380,00000110,false,Rx,0,8,18,00,00,00,70,00,26,03,
25360380,00000130,false,Rx,0,8,18,00,00,00,60,00,2B,C3,
25360381,00000100,false,Rx,0,8,02,21,00,00,60,00,95,FE,
25361505,00000120,false,Rx,0,8,46,00,00,00,00,00,0E,BD,
25361506,00000110,false,Rx,0,8,18,00,00,00,80,00,62,03,
25362503,00000130,false,Rx,0,8,F8,FF,FF,FF,70,00,24,53,
25362504,00000100,false,Rx,0,8,02,21,00,00,70,00,98,3E,
25363505,00000120,false,Rx,0,8,46,00,00,00,10,00,03,7D,
25363506,00000110,false,Rx,0,8,18,00,00,00,90,00,6F,C3,
25363506,00000130,false,Rx,0,8,F8,FF,FF,FF,80,00,60,53,
25364760,00000100,false,Rx,0,8,02,21,00,00,80,00,DC,3E,
25364761,00000120,false,Rx,0,8,2A,00,00,00,20,00,1E,11,
25365780,00000110,false,Rx,0,8,18,00,00,00,A0,00,7B,C3,
25365781,00000130,false,Rx,0,8,F8,FF,FF,FF,90,00,6D,93,
25366757,00000100,false,Rx,0,8,02,21,00,00,90,00,D1,FE,
25366758,00000140,false,Rx,0,8,01,00,FF,FF,90,00,6D,EE,
25366759,00000120,false,Rx,0,8,2A,00,00,00,30,00,13,D1,
25367907,00000110,false,Rx,0,8,18,00,00,00,B0,00,76,03,
25367908,00000130,false,Rx,0,8,F8,FF,FF,FF,A0,00,79,93,
25367909,00000100,false,Rx,0,8,02,21,00,00,A0,00,C5,FE,
25369635,00000120,false,Rx,0,8,2A,00,00,00,40,00,36,11,
25369636,00000110,false,Rx,0,8,18,00,00,00,C0,00,53,C3,
25370630,00000130,false,Rx,0,8,F8,FF,FF,FF,B0,00,74,53,
25370631,00000100,false,Rx,0,8,02,21,00,00,B0,00,C8,3E,
25370632,00000120,false,Rx,0,8,2A,00,00,00,50,00,3B,D1,
25371895,00000110,false,Rx,0,8,2F,00,00,00,D0,00,5A,44,
25371896,00000050,false,Rx,0,6,41,5C,FF,FB,5F,FF,00,00,
25371896,00000130,false,Rx,0,8,48,21,00,00,C3,80,E2,C4,
25373022,00000100,false,Rx,0,8,02,21,00,00,C0,00,ED,FE,
25373023,00000120,false,Rx,0,8,46,00,00,00,60,00,26,BD,
25374003,00000110,false,Rx,0,8,2F,00,00,00,E0,00,4E,44,
25374004,00000130,false,Rx,0,8,D9,FF,FF,FF,D0,00,5A,E2,
25375001,00000100,false,Rx,0,8,02,21,00,00,D0,00,E0,3E,
25375002,00000120,false,Rx,0,8,46,00,00,00,70,00,2B,7D,
25376121,00000110,false,Rx,0,8,18,00,00,00,F0,00,47,C3,
25376123,00000130,false,Rx,0,8,F8,FF,FF,FF,E0,00,48,53,
25377123,00000100,false,Rx,0,8,02,21,00,00,E0,00,F4,3E,
25377124,00000120,false,Rx,0,8,2A,00,00,00,80,00,66,11,
25378168,00000110,false,Rx,0,8,18,00,00,00,00,00,03,C3,
25378169,00000130,false,Rx,0,8,D9,FF,FF,FF,F0,00,43,22,
25379142,00000100,false,Rx,0,8,19,21,00,00,F0,00,FA,15,
25379143,00000120,false,Rx,0,8,2A,00,00,00,90,00,6B,D1,
25380172,00000110,false,Rx,0,8,18,00,00,00,10,00,0E,03,
25380173,00000130,false,Rx,0,8,F8,FF,FF,FF,00,00,01,93,
25381300,00000100,false,Rx,0,8,EB,20,00,00,00,00,96,C7,
25381301,00000120,false,Rx,0,8,46,00,00,00,A0,00,76,BD,
25382282,00000110,false,Rx,0,8,18,00,00,00,20,00,1A,03,
25382283,00000130,false,Rx,0,8,D9,FF,FF,FF,10,00,0A,E2,
25383278,00000100,false,Rx,0,8,19,21,00,00,10,00,B3,D5,
25383279,00000120,false,Rx,0,8,46,00,00,00,B0,00,7B,7D,
25384260,00000110,false,Rx,0,8,18,00,00,00,30,00,17,C3,
25384261,00000130,false,Rx,0,8,D9,FF,FF,FF,20,00,1E,E2,
25385281,00000100,false,Rx,0,8,02,21,00,00,20,00,A4,3E,
25385282,00000120,false,Rx,0,8,2A,00,00,00,C0,00,57,D1,
25386407,00000110,false,Rx,0,8,18,00,00,00,40,00,32,03,
25386408,00000130,false,Rx,0,8,F8,FF,FF,FF,30,00,15,93,
25387408,00000100,false,Rx,0,8,02,21,00,00,30,00,A9,FE,
25387408,00000140,false,Rx,0,8,01,00,FF,FF,A0,00,79,EE,
25387409,00000120,false,Rx,0,8,2A,00,00,00,D0,00,5A,11,
25388387,00000110,false,Rx,0,8,2F,00,00,00,50,00,3B,84,
25388388,00000130,false,Rx,0,8,F8,FF,FF,FF,40,00,30,53,
25389377,00000100,false,Rx,0,8,EB,20,00,00,40,00,A7,07,
25389378,00000120,false,Rx,0,8,46,00,00,00,E0,00,47,7D,
25390503,00000110,false,Rx,0,8,2F,00,00,00,60,00,2F,84,
25390504,00000130,false,Rx,0,8,F8,FF,FF,FF,50,00,3D,93,
25391534,00000100,false,Rx,0,8,02,21,00,00,50,00,81,FE,
25391535,00000120,false,Rx,0,8,46,00,00,00,F0,00,4A,BD,
25391535,00000110,false,Rx,0,8,46,00,00,00,70,00,2B,7D,
25392634,00000050,false,Rx,0,6,41,5C,FF,FB,5F,FF,00,00,
25392635,00000130,false,Rx,0,8,3D,34,03,00,63,80,9C,26,
25392635,00000100,false,Rx,0,8,02,21,00,00,60,00,95,FE,
25394261,00000120,false,Rx,0,8,2A,00,00,00,00,00,07,D1,
25394262,00000110,false,Rx,0,8,46,00,00,00,80,00,6F,7D,
25395410,00000130,false,Rx,0,8,D9,FF,FF,FF,70,00,22,E2,
25395411,00000100,false,Rx,0,8,02,21,00,00,70,00,98,3E,
25396388,00000120,false,Rx,0,8,2A,00,00,00,10,00,0A,11,
25396389,00000110,false,Rx,0,8,18,00,00,00,90,00,6F,C3,
25396390,00000170,false,Rx,0,8,00,00,00,51,50,81,05,4D,
25397384,00000130,false,Rx,0,8,F8,FF,FF,FF,80,00,60,53,
25397385,00000100,false,Rx,0,8,02,21,00,00,80,00,DC,3E,
25398379,00000120,false,Rx,0,8,46,00,00,00,20,00,17,7D,
25398379,00000110,false,Rx,0,8,18,00,00,00,A0,00,7B,C3,
25399532,00000130,false,Rx,0,8,D9,FF,FF,FF,90,00,6B,22,
25399533,00000100,false,Rx,0,8,02,21,00,00,90,00,D1,FE,
25400531,00000120,false,Rx,0,8,46,00,00,00,30,00,1A,BD,
25400532,00000110,false,Rx,0,8,18,00,00,00,B0,00,76,03,
25401510,00000130,false,Rx,0,8,F8,FF,FF,FF,A0,00,79,93,
25401511,00000100,false,Rx,0,8,EB,20,00,00,A0,00,EE,C7,
25402513,00000120,false,Rx,0,8,46,00,00,00,40,00,3F,7D,
25402513,00000110,false,Rx,0,8,18,00,00,00,C0,00,53,C3,
25403658,00000130,false,Rx,0,8,F8,FF,FF,FF,B0,00,74,53,
25403659,00000100,false,Rx,0,8,02,21,00,00,B0,00,C8,3E,
25404655,00000120,false,Rx,0,8,46,00,00,00,50,00,32,BD,
25404656,00000110,false,Rx,0,8,18,00,00,00,D0,00,5E,03,
25405658,00000130,false,Rx,0,8,18,00,00,00,C0,00,53,C3,
25405659,00000100,false,Rx,0,8,02,21,00,00,C0,00,ED,FE,
25406635,00000120,false,Rx,0,8,2A,00,00,00,60,00,2F,D1,
25406635,00000110,false,Rx,0,8,18,00,00,00,E0,00,4A,03,
25407649,00000130,false,Rx,0,8,18,00,00,00,D0,00,5E,03,
25407650,00000100,false,Rx,0,8,02,21,00,00,D0,00,E0,3E,
25407650,00000140,false,Rx,0,8,01,00,FF,FF,B0,00,74,2E,
25408787,00000120,false,Rx,0,8,2A,00,00,00,70,00,22,11,
25408788,00000110,false,Rx,0,8,01,00,00,00,F0,00,45,CA,
25409782,00000130,false,Rx,0,8,D9,FF,FF,FF,E0,00,4E,E2,
25409782,00000100,false,Rx,0,8,EB,20,00,00,E0,00,DF,07,
25410760,00000120,false,Rx,0,8,2A,00,00,00,80,00,66,11,
25410761,00000110,false,Rx,0,8,01,00,00,00,00,00,01,CA,
25411741,00000130,false,Rx,0,8,F8,FF,FF,FF,F0,00,45,93,
25411742,00000100,false,Rx,0,8,02,21,00,00,F0,00,F9,FE,
25411743,00000120,false,Rx,0,8,2A,00,00,00,90,00,6B,D1,
25413014,00000110,false,Rx,0,8,18,00,00,00,10,00,0E,03,
25413015,00000050,false,Rx,0,6,41,5C,FF,FB,5F,FF,00,00,
25413015,00000130,false,Rx,0,8,FB,95,FF,FF,03,80,18,F9,
25414010,00000100,false,Rx,0,8,EB,20,00,00,00,00,96,C7,
25414011,00000120,false,Rx,0,8,46,00,00,00,A0,00,76,BD,
25414991,00000110,false,Rx,0,8,18,00,00,00,20,00,1A,03,
25414992,00000130,false,Rx,0,8,95,00,00,00,10,00,10,DE,
25416138,00000100,false,Rx,0,8,02,21,00,00,10,00,B0,3E,
25416139,00000120,false,Rx,0,8,46,00,00,00,B0,00,7B,7D,
25417115,00000110,false,Rx,0,8,2F,00,00,00,30,00,13,84,
25417115,00000130,false,Rx,0,8,F8,FF,FF,FF,20,00,18,53,
25418149,00000100,false,Rx,0,8,02,21,00,00,20,00,A4,3E,
25418150,00000120,false,Rx,0,8,46,00,00,00,C0,00,5E,BD,
25419268,00000110,false,Rx,0,8,2F,00,00,00,40,00,36,44,
25419269,00000130,false,Rx,0,8,D9,FF,FF,FF,30,00,13,22,
25420287,00000100,false,Rx,0,8,EB,20,00,00,30,00,82,C7,
25420288,00000120,false,Rx,0,8,46,00,00,00,D0,00,53,7D,
25421256,00000110,false,Rx,0,8,18,00,00,00,50,00,3F,C3,
25421257,00000130,false,Rx,0,8,18,00,00,00,40,00,32,03,
25422272,00000100,false,Rx,0,8,02,21,00,00,40,00,8C,3E,
25422272,00000120,false,Rx,0,8,46,00,00,00,E0,00,47,7D,
25423407,00000110,false,Rx,0,8,18,00,00,00,60,00,2B,C3,
25423408,00000130,false,Rx,0,8,F8,FF,FF,FF,50,00,3D,93,
25424405,00000100,false,Rx,0,8,02,21,00,00,50,00,81,FE,
25424406,00000120,false,Rx,0,8,46,00,00,00,F0,00,4A,BD,
25425416,00000110,false,Rx,0,8,18,00,00,00,70,00,26,03,
25425417,00000130,false,Rx,0,8,37,00,00,00,60,00,2C,5C,
25426384,00000100,false,Rx,0,8,02,21,00,00,60,00,95,FE,
25426385,00000120,false,Rx,0,8,46,00,00,00,00,00,0E,BD,
25427406,00000110,false,Rx,0,8,18,00,00,00,80,00,62,03,
25427407,00000130,false,Rx,0,8,18,00,00,00,70,00,26,03,
25428529,00000100,false,Rx,0,8,EB,20,00,00,70,00,B3,07,
25428530,00000140,false,Rx,0,8,01,00,FF,FF,C0,00,51,EE,
25428530,00000120,false,Rx,0,8,46,00,00,00,10,00,03,7D,
25429538,00000110,false,Rx,0,8,01,00,00,00,90,00,6D,CA,
25429539,00000130,false,Rx,0,8,18,00,00,00,80,00,62,03,
25430508,00000100,false,Rx,0,8,EB,20,00,00,80,00,F7,07,
25430509,00000120,false,Rx,0,8,2A,00,00,00,20,00,1E,11,
25431509,00000110,false,Rx,0,8,01,00,00,00,A0,00,79,CA,
25431510,00000130,false,Rx,0,8,18,00,00,00,90,00,6F,C3,
25432502,00000100,false,Rx,0,8,EB,20,00,00,90,00,FA,C7,
25432502,00000120,false,Rx,0,8,2A,00,00,00,30,00,13,D1,
25432503,00000110,false,Rx,0,8,18,00,00,00,B0,00,76,03,
25433782,00000050,false,Rx,0,6,41,5C,FF,FB,5F,FF,00,00,
25433782,00000130,false,Rx,0,8,36,BC,F5,FF,A3,80,2E,FA,
25433783,00000100,false,Rx,0,8,EB,20,00,00,A0,00,EE,C7,
25435383,00000120,false,Rx,0,8,2A,00,00,00,40,00,36,11,
25435384,00000110,false,Rx,0,8,18,00,00,00,C0,00,53,C3,
25436384,00000130,false,Rx,0,8,76,00,00,00,B0,00,7E,8D,
25436385,00000100,false,Rx,0,8,EB,20,00,00,B0,00,E3,07,
25437379,00000120,false,Rx,0,8,2A,00,00,00,50,00,3B,D1,
25437380,00000110,false,Rx,0,8,18,00,00,00,D0,00,5E,03,
25438532,00000130,false,Rx,0,8,18,00,00,00,C0,00,53,C3,
25438532,00000100,false,Rx,0,8,02,21,00,00,C0,00,ED,FE,
25439509,00000120,false,Rx,0,8,2A,00,00,00,60,00,2F,D1,
25439510,00000110,false,Rx,0,8,18,00,00,00,E0,00,4A,03,
25440505,00000130,false,Rx,0,8,F8,FF,FF,FF,D0,00,5C,53,
25440506,00000100,false,Rx,0,8,EB,20,00,00,D0,00,CB,07,
25441501,00000120,false,Rx,0,8,2A,00,00,00,70,00,22,11,
25441502,00000110,false,Rx,0,8,18,00,00,00,F0,00,47,C3,
25442656,00000130,false,Rx,0,8,F8,FF,FF,FF,E0,00,48,53,
25442657,00000100,false,Rx,0,8,EB,20,00,00,E0,00,DF,07,
25443656,00000120,false,Rx,0,8,2A,00,00,00,80,00,66,11,
25443657,00000110,false,Rx,0,8,18,00,00,00,00,00,03,C3,
25444632,00000130,false,Rx,0,8,D9,FF,FF,FF,F0,00,43,22,
25444633,00000100,false,Rx,0,8,EB,20,00,00,F0,00,D2,C7,
25445635,00000120,false,Rx,0,8,2A,00,00,00,90,00,6B,D1,
25445636,00000110,false,Rx,0,8,18,00,00,00,10,00,0E,03,
25446626,00000130,false,Rx,0,8,D9,FF,FF,FF,00,00,07,22,
25446627,00000100,false,Rx,0,8,EB,20,00,00,00,00,96,C7,
25447783,00000120,false,Rx,0,8,2A,00,00,00,A0,00,7F,D1,
25447783,00000110,false,Rx,0,8,18,00,00,00,20,00,1A,03,
25448782,00000130,false,Rx,0,8,D9,FF,FF,FF,10,00,0A,E2,
25448783,00000100,false,Rx,0,8,EB,20,00,00,10,00,9B,07,
25448784,00000140,false,Rx,0,8,01,00,FF,FF,D0,00,5C,2E,
25449759,00000120,false,Rx,0,8,2A,00,00,00,B0,00,72,11,
25449760,00000110,false,Rx,0,8,18,00,00,00,30,00,17,C3,
25450750,00000130,false,Rx,0,8,F8,FF,FF,FF,20,00,18,53,
25450751,00000100,false,Rx,0,8,EB,20,00,00,20,00,8F,07,
25451907,00000120,false,Rx,0,8,2A,00,00,00,C0,00,57,D1,
25451907,00000110,false,Rx,0,8,18,00,00,00,40,00,32,03,
25452907,00000130,false,Rx,0,8,18,00,00,00,30,00,17,C3,
25452908,00000100,false,Rx,0,8,EB,20,00,00,30,00,82,C7,
25452908,00000120,false,Rx,0,8,2A,00,00,00,D0,00,5A,11,
25454155,00000110,false,Rx,0,8,46,00,00,00,50,00,32,BD,
25454155,00000050,false,Rx,0,6,41,5C,FF,FB,5F,FF,00,00,
25454156,00000130,false,Rx,0,8,67,21,00,00,43,80,84,9B,
25455156,00000100,false,Rx,0,8,EB,20,00,00,40,00,A7,07,
25455157,00000120,false,Rx,0,8,46,00,00,00,E0,00,47,7D,
25456153,00000110,false,Rx,0,8,46,00,00,00,60,00,26,BD,
25456154,00000130,false,Rx,0,8,F8,FF,FF,FF,50,00,3D,93,
25457138,00000100,false,Rx,0,8,EB,20,00,00,50,00,AA,C7,
25457139,00000120,false,Rx,0,8,46,00,00,00,F0,00,4A,BD,
25458287,00000110,false,Rx,0,8,18,00,00,00,70,00,26,03,
25458288,00000130,false,Rx,0,8,F8,FF,FF,FF,60,00,29,93,
25459258,00000100,false,Rx,0,8,EB,20,00,00,60,00,BE,C7,
25459259,00000120,false,Rx,0,8,46,00,00,00,00,00,0E,BD,
25460259,00000110,false,Rx,0,8,18,00,00,00,80,00,62,03,
25460260,00000130,false,Rx,0,8,D9,FF,FF,FF,70,00,22,E2,
25461259,00000100,false,Rx,0,8,02,21,00,00,70,00,98,3E,
25461260,00000120,false,Rx,0,8,46,00,00,00,10,00,03,7D,
25462382,00000110,false,Rx,0,8,18,00,00,00,90,00,6F,C3,
25462382,00000130,false,Rx,0,8,D9,FF,FF,FF,80,00,66,E2,
25463365,00000100,false,Rx,0,8,EB,20,00,00,80,00,F7,07,
25463366,00000120,false,Rx,0,8,46,00,00,00,20,00,17,7D,
25464385,00000110,false,Rx,0,8,18,00,00,00,A0,00,7B,C3,
25464386,00000130,false,Rx,0,8,F8,FF,FF,FF,90,00,6D,93,
25465378,00000100,false,Rx,0,8,02,21,00,00,90,00,D1,FE,
25465378,00000120,false,Rx,0,8,46,00,00,00,30,00,1A,BD,
25466530,00000110,false,Rx,0,8,01,00,00,00,B0,00,74,0A,
25466531,00000130,false,Rx,0,8,D9,FF,FF,FF,A0,00,7F,22,
25467528,00000100,false,Rx,0,8,EB,20,00,00,A0,00,EE,C7,
25467529,00000120,false,Rx,0,8,2A,00,00,00,40,00,36,11,
25468511,00000110,false,Rx,0,8,01,00,00,00,C0,00,51,CA,
25468512,00000130,false,Rx,0,8,D9,FF,FF,FF,B0,00,72,E2,
25469508,00000100,false,Rx,0,8,EB,20,00,00,B0,00,E3,07,
25469509,00000140,false,Rx,0,8,01,00,FF,FF,E0,00,48,2E,
25469510,00000120,false,Rx,0,8,2A,00,00,00,50,00,3B,D1,
25470657,00000110,false,Rx,0,8,18,00,00,00,D0,00,5E,03,
25470657,00000130,false,Rx,0,8,F8,FF,FF,FF,C0,00,51,93,
25471655,00000100,false,Rx,0,8,EB,20,00,00,C0,00,C6,C7,
25471656,00000120,false,Rx,0,8,46,00,00,00,60,00,26,BD,
25472653,00000110,false,Rx,0,8,18,00,00,00,E0,00,4A,03,
25472654,00000130,false,Rx,0,8,F8,FF,FF,FF,D0,00,5C,53,
25473634,00000100,false,Rx,0,8,EB,20,00,00,D0,00,CB,07,
25473635,00000120,false,Rx,0,8,46,00,00,00,70,00,2B,7D,
25473636,00000110,false,Rx,0,8,46,00,00,00,F0,00,4A,BD,
25474754,00000050,false,Rx,0,6,41,5C,FF,FB,5F,FF,00,00,
25474755,00000130,false,Rx,0,8,3D,34,03,00,E3,80,FD,E6,
25474755,00000100,false,Rx,0,8,D3,20,00,00,E0,00,DB,BF,
25476384,00000120,false,Rx,0,8,46,00,00,00,80,00,6F,7D,
25476384,00000110,false,Rx,0,8,46,00,00,00,00,00,0E,BD,
25477508,00000130,false,Rx,0,8,F8,FF,FF,FF,F0,00,45,93,
25477508,00000100,false,Rx,0,8,EB,20,00,00,F0,00,D2,C7,
25478511,00000120,false,Rx,0,8,46,00,00,00,90,00,62,BD,
25478512,00000110,false,Rx,0,8,2F,00,00,00,10,00,0A,44,
25479513,00000130,false,Rx,0,8,18,00,00,00,00,00,03,C3,
25479514,00000100,false,Rx,0,8,EB,20,00,00,00,00,96,C7,
25480619,00000120,false,Rx,0,8,46,00,00,00,A0,00,76,BD,
25480620,00000110,false,Rx,0,8,2F,00,00,00,20,00,1E,44,
25481659,00000130,false,Rx,0,8,18,00,00,00,10,00,0E,03,
25481659,00000100,false,Rx,0,8,EB,20,00,00,10,00,9B,07,
25482635,00000120,false,Rx,0,8,46,00,00,00,B0,00,7B,7D,
25482636,00000110,false,Rx,0,8,2F,00,00,00,30,00,13,84,
25483634,00000130,false,Rx,0,8,D9,FF,FF,FF,20,00,1E,E2,
25483635,00000100,false,Rx,0,8,02,21,00,00,20,00,A4,3E,
25484782,00000120,false,Rx,0,8,2A,00,00,00,C0,00,57,D1,
25484783,00000110,false,Rx,0,8,2F,00,00,00,40,00,36,44,
25485781,00000130,false,Rx,0,8,F8,FF,FF,FF,30,00,15,93,
25485781,00000100,false,Rx,0,8,EB,20,00,00,30,00,82,C7,
25486782,00000120,false,Rx,0,8,2A,00,00,00,D0,00,5A,11,
25486783,00000110,false,Rx,0,8,01,00,00,00,50,00,3D,CA,
25487761,00000130,false,Rx,0,8,18,00,00,00,40,00,32,03,
25487761,00000100,false,Rx,0,8,02,21,00,00,40,00,8C,3E,
25488750,00000120,false,Rx,0,8,46,00,00,00,E0,00,47,7D,
25488750,00000110,false,Rx,0,8,01,00,00,00,60,00,29,CA,
25489908,00000130,false,Rx,0,8,18,00,00,00,50,00,3F,C3,
25489909,00000100,false,Rx,0,8,EB,20,00,00,50,00,AA,C7,
25489909,00000140,false,Rx,0,8,01,00,FF,FF,F0,00,45,EE,
25490908,00000120,false,Rx,0,8,46,00,00,00,F0,00,4A,BD,
25490909,00000110,false,Rx,0,8,18,00,00,00,70,00,26,03,
25491865,00000130,false,Rx,0,8,18,00,00,00,60,00,2B,C3,
25491866,00000100,false,Rx,0,8,02,21,00,00,60,00,95,FE,
25492879,00000120,false,Rx,0,8,46,00,00,00,00,00,0E,BD,
25492880,00000110,false,Rx,0,8,18,00,00,00,80,00,62,03,
25492880,00000130,false,Rx,0,8,F8,FF,FF,FF,70,00,24,53,
25494127,00000100,false,Rx,0,8,EB,20,00,00,70,00,B3,07,
25494128,00000120,false,Rx,0,8,46,00,00,00,10,00,03,7D,
25495252,00000110,false,Rx,0,8,18,00,00,00,90,00,6F,C3,
25495253,00000050,false,Rx,0,6,41,5C,FF,FB,5F,FF,00,00,
25495254,00000130,false,Rx,0,8,FB,95,FF,FF,83,80,79,39,
25496255,00000100,false,Rx,0,8,EB,20,00,00,80,00,F7,07,
25496256,00000120,false,Rx,0,8,46,00,00,00,20,00,17,7D,
25497258,00000110,false,Rx,0,8,18,00,00,00,A0,00,7B,C3,
25497259,00000130,false,Rx,0,8,76,00,00,00,90,00,67,4D,
25498252,00000100,false,Rx,0,8,EB,20,00,00,90,00,FA,C7,
25498252,00000120,false,Rx,0,8,46,00,00,00,30,00,1A,BD,
25499252,00000110,false,Rx,0,8,2F,00,00,00,B0,00,72,44,
25499253,00000170,false,Rx,0,8,00,00,00,52,50,81,05,F7,
25499253,00000130,false,Rx,0,8,F8,FF,FF,FF,A0,00,79,93,
25500376,00000100,false,Rx,0,8,EB,20,00,00,A0,00,EE,C7,
25500377,00000120,false,Rx,0,8,46,00,00,00,40,00,3F,7D,
25501377,00000110,false,Rx,0,8,2F,00,00,00,C0,00,57,84,
25501378,00000130,false,Rx,0,8,D9,FF,FF,FF,B0,00,72,E2,
25502378,00000100,false,Rx,0,8,02,21,00,00,B0,00,C8,3E,
25502379,00000120,false,Rx,0,8,46,00,00,00,50,00,32,BD,
25503377,00000110,false,Rx,0,8,18,00,00,00,D0,00,5E,03,
25503378,00000130,false,Rx,0,8,F8,FF,FF,FF,C0,00,51,93,
25504502,00000100,false,Rx,0,8,EB,20,00,00,C0,00,C6,C7,
25504503,00000120,false,Rx,0,8,2A,00,00,00,60,00,2F,D1,
25505503,00000110,false,Rx,0,8,18,00,00,00,E0,00,4A,03,
25505504,00000130,false,Rx,0,8,D9,FF,FF,FF,D0,00,5A,E2,
25506499,00000100,false,Rx,0,8,EB,20,00,00,D0,00,CB,07,
25506500,00000120,false,Rx,0,8,2A,00,00,00,70,00,22,11,
25507503,00000110,false,Rx,0,8,18,00,00,00,F0,00,47,C3,
25507504,00000130,false,Rx,0,8,18,00,00,00,E0,00,4A,03,
25508503,00000100,false,Rx,0,8,EB,20,00,00,E0,00,DF,07,
25508503,00000120,false,Rx,0,8,2A,00,00,00,80,00,66,11,
25509627,00000110,false,Rx,0,8,18,00,00,00,00,00,03,C3,
25509628,00000130,false,Rx,0,8,F8,FF,FF,FF,F0,00,45,93,
25510627,00000100,false,Rx,0,8,EB,20,00,00,F0,00,D2,C7,
25510628,00000140,false,Rx,0,8,01,00,FF,FF,00,00,01,EE,
25510628,00000120,false,Rx,0,8,2A,00,00,00,90,00,6B,D1,
25511626,00000110,false,Rx,0,8,18,00,00,00,10,00,0E,03,
25511627,00000130,false,Rx,0,8,18,00,00,00,00,00,03,C3,
25512628,00000100,false,Rx,0,8,EB,20,00,00,00,00,96,C7,
25512630,00000120,false,Rx,0,8,2A,00,00,00,A0,00,7F,D1,
25513754,00000110,false,Rx,0,8,18,00,00,00,20,00,1A,03,
25513755,00000130,false,Rx,0,8,F8,FF,FF,FF,10,00,0C,53,
25514754,00000100,false,Rx,0,8,EB,20,00,00,10,00,9B,07,
25514754,00000120,false,Rx,0,8,2A,00,00,00,B0,00,72,11,
25514755,00000110,false,Rx,0,8,18,00,00,00,30,00,17,C3,
25515877,00000050,false,Rx,0,6,41,5C,FF,FB,5F,FF,00,00,
25515878,00000130,false,Rx,0,8,36,BC,F5,FF,23,80,4F,3A,
25515879,00000100,false,Rx,0,8,D3,20,00,00,20,00,8B,BF,
25517501,00000120,false,Rx,0,8,46,00,00,00,C0,00,5E,BD,
25517502,00000110,false,Rx,0,8,18,00,00,00,40,00,32,03,
25518626,00000130,false,Rx,0,8,95,00,00,00,30,00,09,1E,
25518627,00000100,false,Rx,0,8,EB,20,00,00,30,00,82,C7,
25519627,00000120,false,Rx,0,8,46,00,00,00,D0,00,53,7D,
25519628,00000110,false,Rx,0,8,18,00,00,00,50,00,3F,C3,
25520627,00000130,false,Rx,0,8,D9,FF,FF,FF,40,00,36,E2,
25520627,00000100,false,Rx,0,8,EB,20,00,00,40,00,A7,07,
25521626,00000120,false,Rx,0,8,46,00,00,00,E0,00,47,7D,
25521627,00000110,false,Rx,0,8,18,00,00,00,60,00,2B,C3,
25522627,00000130,false,Rx,0,8,18,00,00,00,50,00,3F,C3,
25522627,00000100,false,Rx,0,8,EB,20,00,00,50,00,AA,C7,
25523752,00000120,false,Rx,0,8,46,00,00,00,F0,00,4A,BD,
25523753,00000110,false,Rx,0,8,18,00,00,00,70,00,26,03,
25524752,00000130,false,Rx,0,8,F8,FF,FF,FF,60,00,29,93,
25524753,00000100,false,Rx,0,8,D3,20,00,00,60,00,BA,7F,
25525750,00000120,false,Rx,0,8,2A,00,00,00,00,00,07,D1,
25525751,00000110,false,Rx,0,8,18,00,00,00,80,00,62,03,
25526751,00000130,false,Rx,0,8,18,00,00,00,70,00,26,03,
25526752,00000100,false,Rx,0,8,EB,20,00,00,70,00,B3,07,
25527878,00000120,false,Rx,0,8,2A,00,00,00,10,00,0A,11,
25527879,00000110,false,Rx,0,8,18,00,00,00,90,00,6F,C3,
25528878,00000130,false,Rx,0,8,F8,FF,FF,FF,80,00,60,53,
25528879,00000100,false,Rx,0,8,D3,20,00,00,80,00,F3,BF,
25529878,00000120,false,Rx,0,8,2A,00,00,00,20,00,1E,11,
25529879,00000110,false,Rx,0,8,18,00,00,00,A0,00,7B,C3,
25530876,00000130,false,Rx,0,8,F8,FF,FF,FF,90,00,6D,93,
25530877,00000100,false,Rx,0,8,EB,20,00,00,90,00,FA,C7,
25530877,00000140,false,Rx,0,8,01,00,FF,FF,10,00,0C,2E,
25531874,00000120,false,Rx,0,8,2A,00,00,00,30,00,13,D1,
25531875,00000110,false,Rx,0,8,18,00,00,00,B0,00,76,03,
25533002,00000130,false,Rx,0,8,18,00,00,00,A0,00,7B,C3,
25533003,00000100,false,Rx,0,8,EB,20,00,00,A0,00,EE,C7,
25533991,00000120,false,Rx,0,8,46,00,00,00,40,00,3F,7D,
25533992,00000110,false,Rx,0,8,18,00,00,00,C0,00,53,C3,
25535006,00000130,false,Rx,0,8,18,00,00,00,B0,00,76,03,
25535007,00000100,false,Rx,0,8,D3,20,00,00,B0,00,E7,BF,
25535008,00000120,false,Rx,0,8,46,00,00,00,50,00,32,BD,
25536252,00000110,false,Rx,0,8,46,00,00,00,D0,00,53,7D,
25536253,00000050,false,Rx,0,6,41,5C,FF,FB,5F,FF,00,00,
25536254,00000130,false,Rx,0,8,48,21,00,00,C3,80,E2,C4,
25537252,00000100,false,Rx,0,8,EB,20,00,00,C0,00,C6,C7,
25537253,00000120,false,Rx,0,8,46,00,00,00,60,00,26,BD,
25538255,00000110,false,Rx,0,8,46,00,00,00,E0,00,47,7D,
25538256,00000130,false,Rx,0,8,D9,FF,FF,FF,D0,00,5A,E2,
25539375,00000100,false,Rx,0,8,EB,20,00,00,D0,00,CB,07,
25539377,00000120,false,Rx,0,8,46,00,00,00,70,00,2B,7D,
25540378,00000110,false,Rx,0,8,18,00,00,00,F0,00,47,C3,
25540379,00000130,false,Rx,0,8,F8,FF,FF,FF,E0,00,48,53,
25541375,00000100,false,Rx,0,8,02,21,00,00,E0,00,F4,3E,
25541376,00000120,false,Rx,0,8,46,00,00,00,80,00,6F,7D,
25542505,00000110,false,Rx,0,8,18,00,00,00,00,00,03,C3,
25542506,00000130,false,Rx,0,8,F8,FF,FF,FF,F0,00,45,93,
25543499,00000100,false,Rx,0,8,EB,20,00,00,F0,00,D2,C7,
25543499,00000120,false,Rx,0,8,46,00,00,00,90,00,62,BD,
25544490,00000110,false,Rx,0,8,18,00,00,00,10,00,0E,03,
25544491,00000130,false,Rx,0,8,18,00,00,00,00,00,03,C3,
25545491,00000100,false,Rx,0,8,D3,20,00,00,00,00,92,7F,
25545492,00000120,false,Rx,0,8,2A,00,00,00,A0,00,7F,D1,
25546502,00000110,false,Rx,0,8,18,00,00,00,20,00,1A,03,
25546503,00000130,false,Rx,0,8,F8,FF,FF,FF,10,00,0C,53,
25547629,00000100,false,Rx,0,8,EB,20,00,00,10,00,9B,07,
25547630,00000120,false,Rx,0,8,2A,00,00,00,B0,00,72,11,
25548627,00000110,false,Rx,0,8,18,00,00,00,30,00,17,C3,
25548628,00000130,false,Rx,0,8,F8,FF,FF,FF,20,00,18,53,
25549630,00000100,false,Rx,0,8,D3,20,00,00,20,00,8B,BF,
25549631,00000120,false,Rx,0,8,2A,00,00,00,C0,00,57,D1,
25550625,00000110,false,Rx,0,8,18,00,00,00,40,00,32,03,
25550626,00000130,false,Rx,0,8,F8,FF,FF,FF,30,00,15,93,
25551625,00000100,false,Rx,0,8,EB,20,00,00,30,00,82,C7,
25551625,00000140,false,Rx,0,8,01,00,FF,FF,20,00,18,2E,
25551626,00000120,false,Rx,0,8,2A,00,00,00,D0,00,5A,11,
25552750,00000110,false,Rx,0,8,18,00,00,00,50,00,3F,C3,
25552751,00000130,false,Rx,0,8,F8,FF,FF,FF,40,00,30,53,
25553751,00000100,false,Rx,0,8,EB,20,00,00,40,00,A7,07,
25553752,00000120,false,Rx,0,8,46,00,00,00,E0,00,47,7D,
25554750,00000110,false,Rx,0,8,18,00,00,00,60,00,2B,C3,
25554751,00000130,false,Rx,0,8,18,00,00,00,50,00,3F,C3,
25555750,00000100,false,Rx,0,8,D3,20,00,00,50,00,AE,7F,
25555751,00000120,false,Rx,0,8,46,00,00,00,F0,00,4A,BD,
25555752,00000110,false,Rx,0,8,5D,00,00,00,70,00,28,96,
25556989,00000050,false,Rx,0,6,41,5C,FF,FB,5F,FF,00,00,
25556990,00000130,false,Rx,0,8,3D,34,03,00,63,80,9C,26,
25556991,00000100,false,Rx,0,8,EB,20,00,00,60,00,BE,C7,
25558626,00000120,false,Rx,0,8,46,00,00,00,00,00,0E,BD,
25558627,00000110,false,Rx,0,8,5D,00,00,00,80,00,6C,96,
25559626,00000130,false,Rx,0,8,D9,FF,FF,FF,70,00,22,E2,
25559627,00000100,false,Rx,0,8,EB,20,00,00,70,00,B3,07,
25560625,00000120,false,Rx,0,8,46,00,00,00,10,00,03,7D,
25560626,00000110,false,Rx,0,8,18,00,00,00,90,00,6F,C3,
25561750,00000130,false,Rx,0,8,F8,FF,FF,FF,80,00,60,53,
25561751,00000100,false,Rx,0,8,EB,20,00,00,80,00,F7,07,
25562750,00000120,false,Rx,0,8,46,00,00,00,20,00,17,7D,
25562750,00000110,false,Rx,0,8,18,00,00,00,A0,00,7B,C3,
25563744,00000130,false,Rx,0,8,18,00,00,00,90,00,6F,C3,
25563744,00000100,false,Rx,0,8,EB,20,00,00,90,00,FA,C7,
25564750,00000120,false,Rx,0,8,46,00,00,00,30,00,1A,BD,
25564750,00000110,false,Rx,0,8,18,00,00,00,B0,00,76,03,
25565891,00000130,false,Rx,0,8,F8,FF,FF,FF,A0,00,79,93,
25565893,00000100,false,Rx,0,8,D3,20,00,00,A0,00,EA,7F,
25566890,00000120,false,Rx,0,8,2A,00,00,00,40,00,36,11,
25566892,00000110,false,Rx,0,8,18,00,00,00,C0,00,53,C3,
25566893,00000130,false,Rx,0,8,D9,FF,FF,FF,B0,00,72,E2,
25568143,00000100,false,Rx,0,8,EB,20,00,00,B0,00,E3,07,
25568144,00000120,false,Rx,0,8,2A,00,00,00,50,00,3B,D1,
25569140,00000110,false,Rx,0,8,18,00,00,00,D0,00,5E,03,
25569141,00000130,false,Rx,0,8,18,00,00,00,C0,00,53,C3,
25570139,00000100,false,Rx,0,8,D3,20,00,00,C0,00,C2,7F,
25570141,00000120,false,Rx,0,8,2A,00,00,00,60,00,2F,D1,
25571265,00000110,false,Rx,0,8,18,00,00,00,E0,00,4A,03,
25571266,00000130,false,Rx,0,8,D9,FF,FF,FF,D0,00,5A,E2,
25572266,00000100,false,Rx,0,8,D3,20,00,00,D0,00,CF,BF,
25572267,00000140,false,Rx,0,8,01,00,FF,FF,30,00,15,EE,
25572268,00000120,false,Rx,0,8,2A,00,00,00,70,00,22,11,
25573264,00000110,false,Rx,0,8,18,00,00,00,F0,00,47,C3,
25573265,00000130,false,Rx,0,8,18,00,00,00,E0,00,4A,03,
25574260,00000100,false,Rx,0,8,D3,20,00,00,E0,00,DB,BF,
25574261,00000120,false,Rx,0,8,2A,00,00,00,80,00,66,11,
25575387,00000110,false,Rx,0,8,18,00,00,00,00,00,03,C3,
25575388,00000130,false,Rx,0,8,18,00,00,00,F0,00,47,C3,
25576388,00000100,false,Rx,0,8,D3,20,00,00,F0,00,D6,7F,
25576389,00000120,false,Rx,0,8,2A,00,00,00,90,00,6B,D1,
25576389,00000110,false,Rx,0,8,18,00,00,00,10,00,0E,03,
25577513,00000050,false,Rx,0,6,41,5C,FF,FB,5F,FF,00,00,
25577514,00000130,false,Rx,0,8,FB,95,FF,FF,03,80,18,F9,
25577514,00000100,false,Rx,0,8,EB,20,00,00,00,00,96,C7,
25579129,00000120,false,Rx,0,8,46,00,00,00,A0,00,76,BD,
25579130,00000110,false,Rx,0,8,18,00,00,00,20,00,1A,03,
25580245,00000130,false,Rx,0,8,76,00,00,00,10,00,06,8D,
25580247,00000100,false,Rx,0,8,EB,20,00,00,10,00,9B,07,
25581241,00000120,false,Rx,0,8,46,00,00,00,B0,00,7B,7D,
25581242,00000110,false,Rx,0,8,18,00,00,00,30,00,17,C3,
25582271,00000130,false,Rx,0,8,F8,FF,FF,FF,20,00,18,53,
25582273,00000100,false,Rx,0,8,D3,20,00,00,20,00,8B,BF,
25583270,00000120,false,Rx,0,8,46,00,00,00,C0,00,5E,BD,
25583272,00000110,false,Rx,0,8,18,00,00,00,40,00,32,03,
25584394,00000130,false,Rx,0,8,F8,FF,FF,FF,30,00,15,93,
25584396,00000100,false,Rx,0,8,D3,20,00,00,30,00,86,7F,
25585395,00000120,false,Rx,0,8,46,00,00,00,D0,00,53,7D,
25585396,00000110,false,Rx,0,8,18,00,00,00,50,00,3F,C3,
25586393,00000130,false,Rx,0,8,F8,FF,FF,FF,40,00,30,53,
25586394,00000100,false,Rx,0,8,EB,20,00,00,40,00,A7,07,
25587392,00000120,false,Rx,0,8,2A,00,00,00,E0,00,4E,11,
25587394,00000110,false,Rx,0,8,18,00,00,00,60,00,2B,C3,
25588412,00000130,false,Rx,0,8,F8,FF,FF,FF,50,00,3D,93,
25588414,00000100,false,Rx,0,8,D3,20,00,00,50,00,AE,7F,
25589516,00000120,false,Rx,0,8,2A,00,00,00,F0,00,43,D1,
25589517,00000110,false,Rx,0,8,18,00,00,00,70,00,26,03,
25590490,00000130,false,Rx,0,8,F8,FF,FF,FF,60,00,29,93,
25590492,00000100,false,Rx,0,8,EB,20,00,00,60,00,BE,C7,
25591572,00000120,false,Rx,0,8,0E,00,00,00,00,00,01,35,
25591573,00000110,false,Rx,0,8,18,00,00,00,80,00,62,03,
25592502,00000130,false,Rx,0,8,F8,FF,FF,FF,70,00,24,53,
25592502,00000100,false,Rx,0,8,D3,20,00,00,70,00,B7,BF,
25592503,00000140,false,Rx,0,8,01,00,FF,FF,40,00,30,2E,
25593628,00000120,false,Rx,0,8,0E,00,00,00,10,00,0C,F5,
25593628,00000110,false,Rx,0,8,18,00,00,00,90,00,6F,C3,
25594629,00000130,false,Rx,0,8,F8,FF,FF,FF,80,00,60,53,
25594629,00000100,false,Rx,0,8,EB,20,00,00,80,00,F7,07,
25595628,00000120,false,Rx,0,8,46,00,00,00,20,00,17,7D,
25595629,00000110,false,Rx,0,8,18,00,00,00,A0,00,7B,C3,
25596626,00000130,false,Rx,0,8,18,00,00,00,90,00,6F,C3,
25596626,00000100,false,Rx,0,8,D3,20,00,00,90,00,FE,7F,
25596627,00000120,false,Rx,0,8,46,00,00,00,30,00,1A,BD,
25597859,00000110,false,Rx,0,8,2F,00,00,00,B0,00,72,44,
25597859,00000050,false,Rx,0,6,41,5C,FF,FB,5F,FF,00,00,
25597860,00000130,false,Rx,0,8,36,BC,F5,FF,A3,80,2E,FA,
25598863,00000100,false,Rx,0,8,D3,20,00,00,A0,00,EA,7F,
25598864,00000120,false,Rx,0,8,46,00,00,00,40,00,3F,7D,
25599861,00000110,false,Rx,0,8,2F,00,00,00,C0,00,57,84,
25599862,00000130,false,Rx,0,8,76,00,00,00,B0,00,7E,8D,
25600988,00000100,false,Rx,0,8,D3,20,00,00,B0,00,E7,BF,
25600989,00000120,false,Rx,0,8,46,00,00,00,50,00,32,BD,
25601988,00000110,false,Rx,0,8,18,00,00,00,D0,00,5E,03,
25601989,00000170,false,Rx,0,8,00,00,00,53,50,81,05,6A,
25601989,00000130,false,Rx,0,8,F8,FF,FF,FF,C0,00,51,93,
25602990,00000100,false,Rx,0,8,D3,20,00,00,C0,00,C2,7F,
25602991,00000120,false,Rx,0,8,46,00,00,00,60,00,26,BD,
25604111,00000110,false,Rx,0,8,18,00,00,00,E0,00,4A,03,
25604111,00000130,false,Rx,0,8,F8,FF,FF,FF,D0,00,5C,53,
25605110,00000100,false,Rx,0,8,D3,20,00,00,D0,00,CF,BF,
25605111,00000120,false,Rx,0,8,46,00,00,00,70,00,2B,7D,
25606110,00000110,false,Rx,0,8,18,00,00,00,F0,00,47,C3,
25606111,00000130,false,Rx,0,8,D9,FF,FF,FF,E0,00,4E,E2,
25607110,00000100,false,Rx,0,8,D3,20,00,00,E0,00,DB,BF,
25607111,00000120,false,Rx,0,8,46,00,00,00,80,00,6F,7D,
25608111,00000110,false,Rx,0,8,18,00,00,00,00,00,03,C3,
25608111,00000130,false,Rx,0,8,D9,FF,FF,FF,F0,00,43,22,
25609236,00000100,false,Rx,0,8,EB,20,00,00,F0,00,D2,C7,
25609236,00000120,false,Rx,0,8,46,00,00,00,90,00,62,BD,
25610238,00000110,false,Rx,0,8,2F,00,00,00,10,00,0A,44,
25610239,00000130,false,Rx,0,8,37,00,00,00,00,00,04,5C,
25611235,00000100,false,Rx,0,8,D3,20,00,00,00,00,92,7F,
25611235,00000120,false,Rx,0,8,2A,00,00,00,A0,00,7F,D1,
25612237,00000110,false,Rx,0,8,2F,00,00,00,20,00,1E,44,
25612238,00000130,false,Rx,0,8,37,00,00,00,10,00,09,9C,
25613237,00000100,false,Rx,0,8,D3,20,00,00,10,00,9F,BF,
25613238,00000140,false,Rx,0,8,01,00,FF,FF,50,00,3D,EE,
25613238,00000120,false,Rx,0,8,2A,00,00,00,B0,00,72,11,
25614423,00000110,false,Rx,0,8,2F,00,00,00,30,00,13,84,
25614424,00000130,false,Rx,0,8,F8,FF,FF,FF,20,00,18,53,
25615365,00000100,false,Rx,0,8,D3,20,00,00,20,00,8B,BF,
25615366,00000120,false,Rx,0,8,46,00,00,00,C0,00,5E,BD,
25616395,00000110,false,Rx,0,8,2F,00,00,00,40,00,36,44,
25616396,00000130,false,Rx,0,8,37,00,00,00,30,00,10,5C,
25617455,00000100,false,Rx,0,8,BC,20,00,00,30,00,8F,20,
25617456,00000120,false,Rx,0,8,46,00,00,00,D0,00,53,7D,
25617456,00000110,false,Rx,0,8,2F,00,00,00,50,00,3B,84,
25618650,00000050,false,Rx,0,6,41,5C,FF,FB,5F,FF,00,00,
25618651,00000130,false,Rx,0,8,48,21,00,00,43,80,83,04,
25618651,00000100,false,Rx,0,8,D3,20,00,00,40,00,A3,BF,
25620252,00000120,false,Rx,0,8,46,00,00,00,E0,00,47,7D,
25620253,00000110,false,Rx,0,8,2F,00,00,00,60,00,2F,84,
25621255,00000130,false,Rx,0,8,F8,FF,FF,FF,50,00,3D,93,
25621256,00000100,false,Rx,0,8,EB,20,00,00,50,00,AA,C7,
25622402,00000120,false,Rx,0,8,46,00,00,00,F0,00,4A,BD,
25622403,00000110,false,Rx,0,8,18,00,00,00,70,00,26,03,
25623406,00000130,false,Rx,0,8,18,00,00,00,60,00,2B,C3,
25623406,00000100,false,Rx,0,8,D3,20,00,00,60,00,BA,7F,
25624428,00000120,false,Rx,0,8,2A,00,00,00,00,00,07,D1,
25624429,00000110,false,Rx,0,8,18,00,00,00,80,00,62,03,
25625399,00000130,false,Rx,0,8,F8,FF,FF,FF,70,00,24,53,
25625400,00000100,false,Rx,0,8,D3,20,00,00,70,00,B7,BF,
25626391,00000120,false,Rx,0,8,2A,00,00,00,10,00,0A,11,
25626392,00000110,false,Rx,0,8,01,00,00,00,90,00,6D,CA,
25627547,00000130,false,Rx,0,8,18,00,00,00,80,00,62,03,
25627548,00000100,false,Rx,0,8,D3,20,00,00,80,00,F3,BF,
25628548,00000120,false,Rx,0,8,46,00,00,00,20,00,17,7D,
25628549,00000110,false,Rx,0,8,01,00,00,00,A0,00,79,CA,
25629523,00000130,false,Rx,0,8,F8,FF,FF,FF,90,00,6D,93,
25629524,00000100,false,Rx,0,8,EB,20,00,00,90,00,FA,C7,
25630503,00000120,false,Rx,0,8,46,00,00,00,30,00,1A,BD,
25630505,00000110,false,Rx,0,8,18,00,00,00,B0,00,76,03,
25631523,00000130,false,Rx,0,8,F8,FF,FF,FF,A0,00,79,93,
25631525,00000100,false,Rx,0,8,D3,20,00,00,A0,00,EA,7F,
25632648,00000120,false,Rx,0,8,2A,00,00,00,40,00,36,11,
25632649,00000110,false,Rx,0,8,18,00,00,00,C0,00,53,C3,
25633667,00000130,false,Rx,0,8,18,00,00,00,B0,00,76,03,
25633668,00000100,false,Rx,0,8,EB,20,00,00,B0,00,E3,07,
25633669,00000140,false,Rx,0,8,01,00,FF,FF,60,00,29,EE,
25634649,00000120,false,Rx,0,8,2A,00,00,00,50,00,3B,D1,
25634651,00000110,false,Rx,0,8,18,00,00,00,D0,00,5E,03,
25635640,00000130,false,Rx,0,8,F8,FF,FF,FF,C0,00,51,93,
25635641,00000100,false,Rx,0,8,D3,20,00,00,C0,00,C2,7F,
25636798,00000120,false,Rx,0,8,46,00,00,00,60,00,26,BD,
25636800,00000110,false,Rx,0,8,18,00,00,00,E0,00,4A,03,
25637797,00000130,false,Rx,0,8,18,00,00,00,D0,00,5E,03,
25637799,00000100,false,Rx,0,8,D3,20,00,00,D0,00,CF,BF,
25637799,00000120,false,Rx,0,8,46,00,00,00,70,00,2B,7D,
25638892,00000110,false,Rx,0,8,46,00,00,00,F0,00,4A,BD,
25638893,00000050,false,Rx,0,6,41,5C,FF,FB,5F,FF,00,00,
25638894,00000130,false,Rx,0,8,FE,33,03,00,E3,80,59,15,
25640015,00000100,false,Rx,0,8,BC,20,00,00,E0,00,D2,E0,
25640016,00000120,false,Rx,0,8,46,00,00,00,80,00,6F,7D,
25641021,00000110,false,Rx,0,8,46,00,00,00,00,00,0E,BD,
25641022,00000130,false,Rx,0,8,D9,FF,FF,FF,F0,00,43,22,
25642180,00000100,false,Rx,0,8,D3,20,00,00,F0,00,D6,7F,
25642182,00000120,false,Rx,0,8,46,00,00,00,90,00,62,BD,
25643153,00000110,false,Rx,0,8,18,00,00,00,10,00,0E,03,
25643154,00000130,false,Rx,0,8,F8,FF,FF,FF,00,00,01,93,
25644150,00000100,false,Rx,0,8,D3,20,00,00,00,00,92,7F,
25644152,00000120,false,Rx,0,8,2A,00,00,00,A0,00,7F,D1,
25645148,00000110,false,Rx,0,8,18,00,00,00,20,00,1A,03,
25645149,00000130,false,Rx,0,8,18,00,00,00,10,00,0E,03,
25646142,00000100,false,Rx,0,8,D3,20,00,00,10,00,9F,BF,
25646144,00000120,false,Rx,0,8,2A,00,00,00,B0,00,72,11,
25647364,00000110,false,Rx,0,8,01,00,00,00,30,00,15,CA,
25647365,00000130,false,Rx,0,8,F8,FF,FF,FF,20,00,18,53,
25648275,00000100,false,Rx,0,8,D3,20,00,00,20,00,8B,BF,
25648276,00000120,false,Rx,0,8,2A,00,00,00,C0,00,57,D1,
25649275,00000110,false,Rx,0,8,01,00,00,00,40,00,30,0A,
25649276,00000130,false,Rx,0,8,37,00,00,00,30,00,10,5C,
25650275,00000100,false,Rx,0,8,EB,20,00,00,30,00,82,C7,
25650276,00000120,false,Rx,0,8,2A,00,00,00,D0,00,5A,11,
25651423,00000110,false,Rx,0,8,2F,00,00,00,50,00,3B,84,
25651424,00000130,false,Rx,0,8,D9,FF,FF,FF,40,00,36,E2,
25652385,00000100,false,Rx,0,8,BC,20,00,00,40,00,AA,E0,
25652386,00000120,false,Rx,0,8,2A,00,00,00,E0,00,4E,11,
25653477,00000110,false,Rx,0,8,2F,00,00,00,60,00,2F,84,
25653478,00000130,false,Rx,0,8,D9,FF,FF,FF,50,00,3B,22,
25654399,00000100,false,Rx,0,8,D3,20,00,00,50,00,AE,7F,
25654400,00000140,false,Rx,0,8,01,00,FF,FF,70,00,24,2E,
25654401,00000120,false,Rx,0,8,2A,00,00,00,F0,00,43,D1,
25655394,00000110,false,Rx,0,8,18,00,00,00,70,00,26,03,
25655395,00000130,false,Rx,0,8,18,00,00,00,60,00,2B,C3,
25656549,00000100,false,Rx,0,8,D3,20,00,00,60,00,BA,7F,
25656550,00000120,false,Rx,0,8,63,00,00,00,00,00,09,88,
25657549,00000110,false,Rx,0,8,18,00,00,00,80,00,62,03,
25657550,00000130,false,Rx,0,8,18,00,00,00,70,00,26,03,
25658525,00000100,false,Rx,0,8,D3,20,00,00,70,00,B7,BF,
25658527,00000120,false,Rx,0,8,63,00,00,00,10,00,04,48,
25658528,00000110,false,Rx,0,8,2F,00,00,00,90,00,6B,84,
25659642,00000050,false,Rx,0,6,41,5C,FF,FB,5F,FF,00,00,
25659643,00000130,false,Rx,0,8,FB,95,FF,FF,83,80,79,39,
25659644,00000100,false,Rx,0,8,D3,20,00,00,80,00,F3,BF,
25661265,00000120,false,Rx,0,8,2A,00,00,00,20,00,1E,11,
25661266,00000110,false,Rx,0,8,2F,00,00,00,A0,00,7F,84,
25662419,00000130,false,Rx,0,8,76,00,00,00,90,00,67,4D,
25662421,00000100,false,Rx,0,8,D3,20,00,00,90,00,FE,7F,
25663398,00000120,false,Rx,0,8,2A,00,00,00,30,00,13,D1,
25663400,00000110,false,Rx,0,8,18,00,00,00,B0,00,76,03,
25664387,00000130,false,Rx,0,8,F8,FF,FF,FF,A0,00,79,93,
25664389,00000100,false,Rx,0,8,D3,20,00,00,A0,00,EA,7F,
25665527,00000120,false,Rx,0,8,2A,00,00,00,40,00,36,11,
25665527,00000110,false,Rx,0,8,18,00,00,00,C0,00,53,C3,
25666507,00000130,false,Rx,0,8,18,00,00,00,B0,00,76,03,
25666508,00000100,false,Rx,0,8,D3,20,00,00,B0,00,E7,BF,
25667488,00000120,false,Rx,0,8,2A,00,00,00,50,00,3B,D1,
25667489,00000110,false,Rx,0,8,18,00,00,00,D0,00,5E,03,
25668515,00000130,false,Rx,0,8,F8,FF,FF,FF,C0,00,51,93,
25668516,00000100,false,Rx,0,8,BC,20,00,00,C0,00,CB,20,
25669626,00000120,false,Rx,0,8,46,00,00,00,60,00,26,BD,
25669626,00000110,false,Rx,0,8,18,00,00,00,E0,00,4A,03,
25670635,00000130,false,Rx,0,8,D9,FF,FF,FF,D0,00,5A,E2,
25670635,00000100,false,Rx,0,8,D3,20,00,00,D0,00,CF,BF,
25671655,00000120,false,Rx,0,8,46,00,00,00,70,00,2B,7D,
25671655,00000110,false,Rx,0,8,18,00,00,00,F0,00,47,C3,
25672634,00000130,false,Rx,0,8,18,00,00,00,E0,00,4A,03,
25672635,00000100,false,Rx,0,8,D3,20,00,00,E0,00,DB,BF,
25673623,00000120,false,Rx,0,8,2A,00,00,00,80,00,66,11,
25673624,00000110,false,Rx,0,8,18,00,00,00,00,00,03,C3,
25674778,00000130,false,Rx,0,8,F8,FF,FF,FF,F0,00,45,93,
25674779,00000100,false,Rx,0,8,D3,20,00,00,F0,00,D6,7F,
25674779,00000140,false,Rx,0,8,01,00,FF,FF,80,00,60,2E,
25675773,00000120,false,Rx,0,8,2A,00,00,00,90,00,6B,D1,
25675773,00000110,false,Rx,0,8,2F,00,00,00,10,00,0A,44,
25676778,00000130,false,Rx,0,8,18,00,00,00,00,00,03,C3,
25676779,00000100,false,Rx,0,8,D3,20,00,00,00,00,92,7F,
25677758,00000120,false,Rx,0,8,46,00,00,00,A0,00,76,BD,
25677758,00000110,false,Rx,0,8,2F,00,00,00,20,00,1E,44,
25678747,00000130,false,Rx,0,8,18,00,00,00,10,00,0E,03,
25678748,00000100,false,Rx,0,8,D3,20,00,00,10,00,9F,BF,
25678749,00000120,false,Rx,0,8,46,00,00,00,B0,00,7B,7D,
25679998,00000110,false,Rx,0,8,18,00,00,00,30,00,17,C3,
25679999,00000050,false,Rx,0,6,41,5C,FF,FB,5F,FF,00,00,
25679999,00000130,false,Rx,0,8,16,BC,F5,FF,23,80,48,5A,
25681153,00000100,false,Rx,0,8,D3,20,00,00,20,00,8B,BF,
25681154,00000120,false,Rx,0,8,2A,00,00,00,C0,00,57,D1,
25682153,00000110,false,Rx,0,8,18,00,00,00,40,00,32,03,
25682154,00000130,false,Rx,0,8,B5,00,00,00,30,00,0E,7E,
25683130,00000100,false,Rx,0,8,BC,20,00,00,30,00,8F,20,
25683131,00000120,false,Rx,0,8,2A,00,00,00,D0,00,5A,11,
25684122,00000110,false,Rx,0,8,18,00,00,00,50,00,3F,C3,
25684123,00000130,false,Rx,0,8,D9,FF,FF,FF,40,00,36,E2,
25685282,00000100,false,Rx,0,8,D3,20,00,00,40,00,A3,BF,
25685283,00000120,false,Rx,0,8,0E,00,00,00,E0,00,48,F5,
25686278,00000110,false,Rx,0,8,18,00,00,00,60,00,2B,C3,
25686279,00000130,false,Rx,0,8,F8,FF,FF,FF,50,00,3D,93,
25687237,00000100,false,Rx,0,8,D3,20,00,00,50,00,AE,7F,
25687238,00000120,false,Rx,0,8,0E,00,00,00,F0,00,45,35,
25688262,00000110,false,Rx,0,8,01,00,00,00,70,00,24,0A,
25688263,00000130,false,Rx,0,8,F8,FF,FF,FF,60,00,29,93,
25689385,00000100,false,Rx,0,8,D3,20,00,00,60,00,BA,7F,
25689386,00000120,false,Rx,0,8,2A,00,00,00,00,00,07,D1,
25690403,00000110,false,Rx,0,8,01,00,00,00,80,00,60,0A,
25690403,00000130,false,Rx,0,8,18,00,00,00,70,00,26,03,
25691403,00000100,false,Rx,0,8,D3,20,00,00,70,00,B7,BF,
25691404,00000120,false,Rx,0,8,2A,00,00,00,10,00,0A,11,
25692382,00000110,false,Rx,0,8,18,00,00,00,90,00,6F,C3,
25692384,00000130,false,Rx,0,8,F8,FF,FF,FF,80,00,60,53,
25693375,00000100,false,Rx,0,8,D3,20,00,00,80,00,F3,BF,
25693376,00000120,false,Rx,0,8,46,00,00,00,20,00,17,7D,
25694525,00000110,false,Rx,0,8,18,00,00,00,A0,00,7B,C3,
25694526,00000130,false,Rx,0,8,F8,FF,FF,FF,90,00,6D,93,
25695526,00000100,false,Rx,0,8,BC,20,00,00,90,00,F7,20,
25695526,00000140,false,Rx,0,8,01,00,FF,FF,90,00,6D,EE,
25695527,00000120,false,Rx,0,8,46,00,00,00,30,00,1A,BD,
25696503,00000110,false,Rx,0,8,18,00,00,00,B0,00,76,03,
25696504,00000130,false,Rx,0,8,F8,FF,FF,FF,A0,00,79,93,
25696505,00000100,false,Rx,0,8,BC,20,00,00,A0,00,E3,20,
25698402,00000120,false,Rx,0,8,46,00,00,00,40,00,3F,7D,
25698403,00000110,false,Rx,0,8,18,00,00,00,C0,00,53,C3,
25699392,00000130,false,Rx,0,8,F8,FF,FF,FF,B0,00,74,53,
25699394,00000100,false,Rx,0,8,D3,20,00,00,B0,00,E7,BF,
25699395,00000120,false,Rx,0,8,46,00,00,00,50,00,32,BD,
25700672,00000110,false,Rx,0,8,46,00,00,00,D0,00,53,7D,
25700674,00000050,false,Rx,0,6,41,5C,FF,FB,5F,FF,00,00,
25700674,00000130,false,Rx,0,8,67,21,00,00,C3,80,E5,5B,
25701681,00000100,false,Rx,0,8,D3,20,00,00,C0,00,C2,7F,
25701682,00000120,false,Rx,0,8,2A,00,00,00,60,00,2F,D1,
25702642,00000110,false,Rx,0,8,46,00,00,00,E0,00,47,7D,
25702643,00000130,false,Rx,0,8,B9,FF,FF,FF,D0,00,53,42,
25703646,00000100,false,Rx,0,8,D3,20,00,00,D0,00,CF,BF,
25703648,00000120,false,Rx,0,8,2A,00,00,00,70,00,22,11,
25704779,00000110,false,Rx,0,8,18,00,00,00,F0,00,47,C3,
25704780,00000170,false,Rx,0,8,00,00,00,54,50,81,05,9E,
25704780,00000130,false,Rx,0,8,F8,FF,FF,FF,E0,00,48,53,
25705774,00000100,false,Rx,0,8,D3,20,00,00,E0,00,DB,BF,
25705775,00000120,false,Rx,0,8,46,00,00,00,80,00,6F,7D,
25706777,00000110,false,Rx,0,8,18,00,00,00,00,00,03,C3,
25706779,00000130,false,Rx,0,8,F8,FF,FF,FF,F0,00,45,93,
25707764,00000100,false,Rx,0,8,D3,20,00,00,F0,00,D6,7F,
25707765,00000120,false,Rx,0,8,46,00,00,00,90,00,62,BD,
25708922,00000110,false,Rx,0,8,18,00,00,00,10,00,0E,03,
25708923,00000130,false,Rx,0,8,F8,FF,FF,FF,00,00,01,93,
25709921,00000100,false,Rx,0,8,D3,20,00,00,00,00,92,7F,
25709922,00000120,false,Rx,0,8,46,00,00,00,A0,00,76,BD,
25710898,00000110,false,Rx,0,8,18,00,00,00,20,00,1A,03,
25710899,00000130,false,Rx,0,8,F8,FF,FF,FF,10,00,0C,53,
25711899,00000100,false,Rx,0,8,D3,20,00,00,10,00,9F,BF,
25711900,00000120,false,Rx,0,8,46,00,00,00,B0,00,7B,7D,
25713019,00000110,false,Rx,0,8,18,00,00,00,30,00,17,C3,
25713021,00000130,false,Rx,0,8,F8,FF,FF,FF,20,00,18,53,
25714015,00000100,false,Rx,0,8,BC,20,00,00,20,00,82,E0,
25714016,00000120,false,Rx,0,8,2A,00,00,00,C0,00,57,D1,
25715019,00000110,false,Rx,0,8,18,00,00,00,40,00,32,03,
25715020,00000130,false,Rx,0,8,F8,FF,FF,FF,30,00,15,93,
25715997,00000100,false,Rx,0,8,D3,20,00,00,30,00,86,7F,
25715998,00000140,false,Rx,0,8,01,00,FF,FF,A0,00,79,EE,
25715999,00000120,false,Rx,0,8,2A,00,00,00,D0,00,5A,11,
25717167,00000110,false,Rx,0,8,18,00,00,00,50,00,3F,C3,
25717169,00000130,false,Rx,0,8,F8,FF,FF,FF,40,00,30,53,
25718172,00000100,false,Rx,0,8,BC,20,00,00,40,00,AA,E0,
25718174,00000120,false,Rx,0,8,46,00,00,00,E0,00,47,7D,
25719166,00000110,false,Rx,0,8,18,00,00,00,60,00,2B,C3,
25719167,00000130,false,Rx,0,8,18,00,00,00,50,00,3F,C3,
25720140,00000100,false,Rx,0,8,BC,20,00,00,50,00,A7,20,
25720141,00000120,false,Rx,0,8,46,00,00,00,F0,00,4A,BD,
25720142,00000110,false,Rx,0,8,46,00,00,00,70,00,2B,7D,
25721423,00000050,false,Rx,0,6,41,5C,FF,FB,5F,FF,00,00,
25721425,00000130,false,Rx,0,8,1E,34,03,00,63,80,9B,75,
25721425,00000100,false,Rx,0,8,D3,20,00,00,60,00,BA,7F,
25722890,00000120,false,Rx,0,8,46,00,00,00,00,00,0E,BD,
25722892,00000110,false,Rx,0,8,46,00,00,00,80,00,6F,7D,
25724015,00000130,false,Rx,0,8,D9,FF,FF,FF,70,00,22,E2,
25724017,00000100,false,Rx,0,8,BC,20,00,00,70,00,BE,E0,
25725014,00000120,false,Rx,0,8,46,00,00,00,10,00,03,7D,
25725016,00000110,false,Rx,0,8,01,00,00,00,90,00,6D,CA,
25726016,00000130,false,Rx,0,8,D9,FF,FF,FF,80,00,66,E2,
25726018,00000100,false,Rx,0,8,D3,20,00,00,80,00,F3,BF,
25727167,00000120,false,Rx,0,8,2A,00,00,00,20,00,1E,11,
25727168,00000110,false,Rx,0,8,01,00,00,00,A0,00,79,CA,
25728174,00000130,false,Rx,0,8,F8,FF,FF,FF,90,00,6D,93,
25728175,00000100,false,Rx,0,8,D3,20,00,00,90,00,FE,7F,
25729144,00000120,false,Rx,0,8,2A,00,00,00,30,00,13,D1,
25729145,00000110,false,Rx,0,8,01,00,00,00,B0,00,74,0A,
25730145,00000130,false,Rx,0,8,D9,FF,FF,FF,A0,00,7F,22,
25730146,00000100,false,Rx,0,8,D3,20,00,00,A0,00,EA,7F,
25731147,00000120,false,Rx,0,8,2A,00,00,00,40,00,36,11,
25731149,00000110,false,Rx,0,8,01,00,00,00,C0,00,51,CA,
25732297,00000130,false,Rx,0,8,18,00,00,00,B0,00,76,03,
25732298,00000100,false,Rx,0,8,D3,20,00,00,B0,00,E7,BF,
25733267,00000120,false,Rx,0,8,2A,00,00,00,50,00,3B,D1,
25733268,00000110,false,Rx,0,8,18,00,00,00,D0,00,5E,03,
25734271,00000130,false,Rx,0,8,18,00,00,00,C0,00,53,C3,
25734273,00000100,false,Rx,0,8,D3,20,00,00,C0,00,C2,7F,
25735263,00000120,false,Rx,0,8,46,00,00,00,60,00,26,BD,
25735264,00000110,false,Rx,0,8,18,00,00,00,E0,00,4A,03,
25736270,00000130,false,Rx,0,8,F8,FF,FF,FF,D0,00,5C,53,
25736271,00000100,false,Rx,0,8,BC,20,00,00,D0,00,C6,E0,
25736272,00000140,false,Rx,0,8,01,00,FF,FF,B0,00,74,2E,
25737389,00000120,false,Rx,0,8,46,00,00,00,70,00,2B,7D,
25737390,00000110,false,Rx,0,8,18,00,00,00,F0,00,47,C3,
25738393,00000130,false,Rx,0,8,F8,FF,FF,FF,E0,00,48,53,
25738394,00000100,false,Rx,0,8,D3,20,00,00,E0,00,DB,BF,
25739389,00000120,false,Rx,0,8,2A,00,00,00,80,00,66,11,
25739391,00000110,false,Rx,0,8,18,00,00,00,00,00,03,C3,
25740392,00000130,false,Rx,0,8,F8,FF,FF,FF,F0,00,45,93,
25740393,00000100,false,Rx,0,8,D3,20,00,00,F0,00,D6,7F,
25740394,00000120,false,Rx,0,8,2A,00,00,00,90,00,6B,D1,
25741614,00000110,false,Rx,0,8,18,00,00,00,10,00,0E,03,
25741615,00000050,false,Rx,0,6,41,5C,FF,FB,5F,FF,00,00,
25741615,00000130,false,Rx,0,8,FB,95,FF,FF,03,80,18,F9,
25742645,00000100,false,Rx,0,8,D3,20,00,00,00,00,92,7F,
25742646,00000120,false,Rx,0,8,2A,00,00,00,A0,00,7F,D1,
25743767,00000110,false,Rx,0,8,18,00,00,00,20,00,1A,03,
25743768,00000130,false,Rx,0,8,76,00,00,00,10,00,06,8D,
25744767,00000100,false,Rx,0,8,BC,20,00,00,10,00,96,E0,
25744768,00000120,false,Rx,0,8,2A,00,00,00,B0,00,72,11,
25745892,00000110,false,Rx,0,8,18,00,00,00,30,00,17,C3,
25745893,00000130,false,Rx,0,8,F8,FF,FF,FF,20,00,18,53,
25745895,00000100,false,Rx,0,8,D3,20,00,00,20,00,8B,BF,
25747640,00000120,false,Rx,0,8,0E,00,00,00,C0,00,51,35,
25747641,00000110,false,Rx,0,8,18,00,00,00,40,00,32,03,
25748641,00000130,false,Rx,0,8,18,00,00,00,30,00,17,C3,
25748642,00000100,false,Rx,0,8,BC,20,00,00,30,00,8F,20,
25749643,00000120,false,Rx,0,8,0E,00,00,00,D0,00,5C,F5,
25749644,00000110,false,Rx,0,8,18,00,00,00,50,00,3F,C3,
25750762,00000130,false,Rx,0,8,F8,FF,FF,FF,40,00,30,53,
25750764,00000100,false,Rx,0,8,D3,20,00,00,40,00,A3,BF,
25751766,00000120,false,Rx,0,8,46,00,00,00,E0,00,47,7D,
25751768,00000110,false,Rx,0,8,18,00,00,00,60,00,2B,C3,
25752765,00000130,false,Rx,0,8,F8,FF,FF,FF,50,00,3D,93,
25752767,00000100,false,Rx,0,8,BC,20,00,00,50,00,A7,20,
25753766,00000120,false,Rx,0,8,46,00,00,00,F0,00,4A,BD,
25753769,00000110,false,Rx,0,8,18,00,00,00,70,00,26,03,
25754764,00000130,false,Rx,0,8,F8,FF,FF,FF,60,00,29,93,
25754766,00000100,false,Rx,0,8,BC,20,00,00,60,00,B3,20,
25755889,00000120,false,Rx,0,8,2A,00,00,00,00,00,07,D1,
25755891,00000110,false,Rx,0,8,18,00,00,00,80,00,62,03,
25756892,00000130,false,Rx,0,8,F8,FF,FF,FF,70,00,24,53,
25756893,00000100,false,Rx,0,8,BC,20,00,00,70,00,BE,E0,
25756894,00000140,false,Rx,0,8,01,00,FF,FF,C0,00,51,EE,
25757892,00000120,false,Rx,0,8,2A,00,00,00,10,00,0A,11,
25757894,00000110,false,Rx,0,8,2F,00,00,00,90,00,6B,84,
25758891,00000130,false,Rx,0,8,D9,FF,FF,FF,80,00,66,E2,
25758893,00000100,false,Rx,0,8,A5,20,00,00,80,00,F8,E9,
25760017,00000120,false,Rx,0,8,46,00,00,00,20,00,17,7D,
25760018,00000110,false,Rx,0,8,2F,00,00,00,A0,00,7F,84,
25761013,00000130,false,Rx,0,8,18,00,00,00,90,00,6F,C3,
25761014,00000100,false,Rx,0,8,BC,20,00,00,90,00,F7,20,
25761015,00000120,false,Rx,0,8,46,00,00,00,30,00,1A,BD,
25762265,00000110,false,Rx,0,8,18,00,00,00,B0,00,76,03,
25762266,00000050,false,Rx,0,6,41,5C,FF,FB,5F,FF,00,00,
25762267,00000130,false,Rx,0,8,55,BC,F5,FF,A3,80,27,69,
25763267,00000100,false,Rx,0,8,D3,20,00,00,A0,00,EA,7F,
25763268,00000120,false,Rx,0,8,2A,00,00,00,40,00,36,11,
25764266,00000110,false,Rx,0,8,18,00,00,00,C0,00,53,C3,
25764267,00000130,false,Rx,0,8,95,00,00,00,B0,00,68,DE,
25765265,00000100,false,Rx,0,8,BC,20,00,00,B0,00,EE,E0,
25765267,00000120,false,Rx,0,8,2A,00,00,00,50,00,3B,D1,
25766392,00000110,false,Rx,0,8,01,00,00,00,D0,00,5C,0A,
25766394,00000130,false,Rx,0,8,18,00,00,00,C0,00,53,C3,
25767392,00000100,false,Rx,0,8,D3,20,00,00,C0,00,C2,7F,
25767393,00000120,false,Rx,0,8,2A,00,00,00,60,00,2F,D1,
25768392,00000110,false,Rx,0,8,01,00,00,00,E0,00,48,0A,
25768394,00000130,false,Rx,0,8,F8,FF,FF,FF,D0,00,5C,53,
25768394,00000100,false,Rx,0,8,BC,20,00,00,D0,00,C6,E0,
25770265,00000120,false,Rx,0,8,2A,00,00,00,70,00,22,11,
25770266,00000110,false,Rx,0,8,01,00,00,00,F0,00,45,CA,
25771264,00000130,false,Rx,0,8,18,00,00,00,E0,00,4A,03,
25771266,00000100,false,Rx,0,8,D3,20,00,00,E0,00,DB,BF,
25772265,00000120,false,Rx,0,8,46,00,00,00,80,00,6F,7D,
25772266,00000110,false,Rx,0,8,01,00,00,00,00,00,01,CA,
25773267,00000130,false,Rx,0,8,B9,FF,FF,FF,F0,00,4A,82,
25773268,00000100,false,Rx,0,8,BC,20,00,00,F0,00,DF,20,
25774391,00000120,false,Rx,0,8,46,00,00,00,90,00,62,BD,
25774393,00000110,false,Rx,0,8,18,00,00,00,10,00,0E,03,
25775391,00000130,false,Rx,0,8,F8,FF,FF,FF,00,00,01,93,
25775392,00000100,false,Rx,0,8,BC,20,00,00,00,00,9B,20,
25776389,00000120,false,Rx,0,8,46,00,00,00,A0,00,76,BD,
25776390,00000110,false,Rx,0,8,18,00,00,00,20,00,1A,03,
25777388,00000130,false,Rx,0,8,F8,FF,FF,FF,10,00,0C,53,
25777390,00000100,false,Rx,0,8,BC,20,00,00,10,00,96,E0,
25777390,00000140,false,Rx,0,8,01,00,FF,FF,D0,00,5C,2E,
25778391,00000120,false,Rx,0,8,46,00,00,00,B0,00,7B,7D,
25778392,00000110,false,Rx,0,8,18,00,00,00,30,00,17,C3,
25779514,00000130,false,Rx,0,8,D9,FF,FF,FF,20,00,1E,E2,
25779515,00000100,false,Rx,0,8,D3,20,00,00,20,00,8B,BF,
25780517,00000120,false,Rx,0,8,46,00,00,00,C0,00,5E,BD,
25780518,00000110,false,Rx,0,8,18,00,00,00,40,00,32,03,
25781517,00000130,false,Rx,0,8,18,00,00,00,30,00,17,C3,
25781518,00000100,false,Rx,0,8,BC,20,00,00,30,00,8F,20,
25781519,00000120,false,Rx,0,8,46,00,00,00,D0,00,53,7D,
25782764,00000110,false,Rx,0,8,2F,00,00,00,50,00,3B,84,
25782765,00000050,false,Rx,0,6,41,5C,FF,FB,5F,FF,00,00,
25782766,00000130,false,Rx,0,8,48,21,00,00,43,80,83,04,
25783765,00000100,false,Rx,0,8,BC,20,00,00,40,00,AA,E0,
25783766,00000120,false,Rx,0,8,2A,00,00,00,E0,00,4E,11,
25784766,00000110,false,Rx,0,8,2F,00,00,00,60,00,2F,84,
25784767,00000130,false,Rx,0,8,D9,FF,FF,FF,50,00,3B,22,
25785888,00000100,false,Rx,0,8,BC,20,00,00,50,00,A7,20,
25785889,00000120,false,Rx,0,8,2A,00,00,00,F0,00,43,D1,
25786889,00000110,false,Rx,0,8,01,00,00,00,70,00,24,0A,
25786890,00000130,false,Rx,0,8,F8,FF,FF,FF,60,00,29,93,
25787893,00000100,false,Rx,0,8,BC,20,00,00,60,00,B3,20,
25787895,00000120,false,Rx,0,8,2A,00,00,00,00,00,07,D1,
25789015,00000110,false,Rx,0,8,01,00,00,00,80,00,60,0A,
25789016,00000130,false,Rx,0,8,18,00,00,00,70,00,26,03,
25790015,00000100,false,Rx,0,8,BC,20,00,00,70,00,BE,E0,
25790016,00000120,false,Rx,0,8,2A,00,00,00,10,00,0A,11,
25791037,00000110,false,Rx,0,8,18,00,00,00,90,00,6F,C3,
25791039,00000130,false,Rx,0,8,F8,FF,FF,FF,80,00,60,53,
25792008,00000100,false,Rx,0,8,BC,20,00,00,80,00,FA,E0,
25792009,00000120,false,Rx,0,8,2A,00,00,00,20,00,1E,11,
25792991,00000110,false,Rx,0,8,18,00,00,00,A0,00,7B,C3,
25792993,00000130,false,Rx,0,8,F8,FF,FF,FF,90,00,6D,93,
25794129,00000100,false,Rx,0,8,BC,20,00,00,90,00,F7,20,
25794130,00000120,false,Rx,0,8,2A,00,00,00,30,00,13,D1,
25795114,00000110,false,Rx,0,8,18,00,00,00,B0,00,76,03,
25795115,00000130,false,Rx,0,8,18,00,00,00,A0,00,7B,C3,
25795116,00000100,false,Rx,0,8,BC,20,00,00,A0,00,E3,20,
25796861,00000135,false,Rx,0,8,D0,00,00,00,90,00,7F,8B,
25796861,00000110,false,Rx,0,8,18,00,00,00,C0,00,53,C3,
25797888,00000130,false,Rx,0,8,F8,FF,FF,FF,B0,00,74,53,
25797889,00000100,false,Rx,0,8,D3,20,00,00,B0,00,E7,BF,
25797890,00000140,false,Rx,0,8,01,00,FF,FF,E0,00,48,2E,
25798992,00000120,false,Rx,0,8,2A,00,00,00,40,00,36,11,
25798993,00000110,false,Rx,0,8,18,00,00,00,D0,00,5E,03,
25799991,00000130,false,Rx,0,8,F8,FF,FF,FF,C0,00,51,93,
25799992,00000100,false,Rx,0,8,BC,20,00,00,C0,00,CB,20,
25801008,00000120,false,Rx,0,8,2A,00,00,00,50,00,3B,D1,
25801009,00000110,false,Rx,0,8,18,00,00,00,E0,00,4A,03,
25802010,00000130,false,Rx,0,8,F8,FF,FF,FF,D0,00,5C,53,
25802012,00000100,false,Rx,0,8,BC,20,00,00,D0,00,C6,E0,
25802012,00000120,false,Rx,0,8,2A,00,00,00,60,00,2F,D1,
25803263,00000110,false,Rx,0,8,5D,00,00,00,F0,00,49,56,
25803264,00000050,false,Rx,0,6,41,5C,FF,FB,5F,FF,00,00,
25803265,00000130,false,Rx,0,8,3D,34,03,00,E3,80,FD,E6,
25804264,00000100,false,Rx,0,8,BC,20,00,00,E0,00,D2,E0,
25804265,00000120,false,Rx,0,8,46,00,00,00,70,00,2B,7D,
25805387,00000110,false,Rx,0,8,5D,00,00,00,00,00,0D,56,
25805389,00000130,false,Rx,0,8,D9,FF,FF,FF,F0,00,43,22,
25806387,00000100,false,Rx,0,8,BC,20,00,00,F0,00,DF,20,
25806388,00000120,false,Rx,0,8,46,00,00,00,80,00,6F,7D,
25807387,00000110,false,Rx,0,8,01,00,00,00,10,00,0C,0A,
25807388,00000170,false,Rx,0,8,00,00,00,55,50,81,05,03,
25807389,00000130,false,Rx,0,8,F8,FF,FF,FF,00,00,01,93,
25808513,00000100,false,Rx,0,8,BC,20,00,00,00,00,9B,20,
25808514,00000120,false,Rx,0,8,2A,00,00,00,90,00,6B,D1,
25809514,00000110,false,Rx,0,8,01,00,00,00,20,00,18,0A,
25809515,00000130,false,Rx,0,8,37,00,00,00,10,00,09,9C,
25810513,00000100,false,Rx,0,8,BC,20,00,00,10,00,96,E0,
25810514,00000120,false,Rx,0,8,2A,00,00,00,A0,00,7F,D1,
25811513,00000110,false,Rx,0,8,18,00,00,00,30,00,17,C3,
25811514,00000130,false,Rx,0,8,F8,FF,FF,FF,20,00,18,53,
25812512,00000100,false,Rx,0,8,BC,20,00,00,20,00,82,E0,
25812513,00000120,false,Rx,0,8,46,00,00,00,B0,00,7B,7D,
25813637,00000110,false,Rx,0,8,18,00,00,00,40,00,32,03,
25813638,00000130,false,Rx,0,8,D9,FF,FF,FF,30,00,13,22,
25814638,00000100,false,Rx,0,8,D3,20,00,00,30,00,86,7F,
25814639,00000120,false,Rx,0,8,46,00,00,00,C0,00,5E,BD,
25815637,00000110,false,Rx,0,8,18,00,00,00,50,00,3F,C3,
25815638,00000130,false,Rx,0,8,F8,FF,FF,FF,40,00,30,53,
25816636,00000100,false,Rx,0,8,BC,20,00,00,40,00,AA,E0,
25816637,00000120,false,Rx,0,8,46,00,00,00,D0,00,53,7D,
25817761,00000110,false,Rx,0,8,18,00,00,00,60,00,2B,C3,
25817763,00000130,false,Rx,0,8,F8,FF,FF,FF,50,00,3D,93,
25818762,00000100,false,Rx,0,8,BC,20,00,00,50,00,A7,20,
25818763,00000140,false,Rx,0,8,01,00,FF,FF,F0,00,45,EE,
25818764,00000120,false,Rx,0,8,46,00,00,00,E0,00,47,7D,
25819760,00000110,false,Rx,0,8,18,00,00,00,70,00,26,03,
25819761,00000130,false,Rx,0,8,F8,FF,FF,FF,60,00,29,93,
25820759,00000100,false,Rx,0,8,BC,20,00,00,60,00,B3,20,
25820761,00000120,false,Rx,0,8,46,00,00,00,F0,00,4A,BD,
25821883,00000110,false,Rx,0,8,18,00,00,00,80,00,62,03,
25821885,00000130,false,Rx,0,8,18,00,00,00,70,00,26,03,
25822885,00000100,false,Rx,0,8,A5,20,00,00,70,00,BC,E9,
25822886,00000120,false,Rx,0,8,46,00,00,00,00,00,0E,BD,
25822887,00000110,false,Rx,0,8,01,00,00,00,90,00,6D,CA,
25823996,00000050,false,Rx,0,6,41,5C,FF,FB,5F,FF,00,00,
25823997,00000130,false,Rx,0,8,FB,95,FF,FF,83,80,79,39,
25823997,00000100,false,Rx,0,8,BC,20,00,00,80,00,FA,E0,
25825633,00000120,false,Rx,0,8,46,00,00,00,10,00,03,7D,
25825634,00000110,false,Rx,0,8,01,00,00,00,A0,00,79,CA,
25826738,00000130,false,Rx,0,8,95,00,00,00,90,00,71,1E,
25826739,00000100,false,Rx,0,8,BC,20,00,00,90,00,F7,20,
25827736,00000120,false,Rx,0,8,46,00,00,00,20,00,17,7D,
25827737,00000110,false,Rx,0,8,18,00,00,00,B0,00,76,03,
25828737,00000130,false,Rx,0,8,18,00,00,00,A0,00,7B,C3,
25828738,00000100,false,Rx,0,8,BC,20,00,00,A0,00,E3,20,
25829736,00000120,false,Rx,0,8,2A,00,00,00,30,00,13,D1,
25829737,00000110,false,Rx,0,8,18,00,00,00,C0,00,53,C3,
25830735,00000130,false,Rx,0,8,D9,FF,FF,FF,B0,00,72,E2,
25830737,00000100,false,Rx,0,8,BC,20,00,00,B0,00,EE,E0,
25831861,00000120,false,Rx,0,8,2A,00,00,00,40,00,36,11,
25831862,00000110,false,Rx,0,8,18,00,00,00,D0,00,5E,03,
25832894,00000130,false,Rx,0,8,D9,FF,FF,FF,C0,00,57,22,
25832896,00000100,false,Rx,0,8,BC,20,00,00,C0,00,CB,20,
25833885,00000120,false,Rx,0,8,2A,00,00,00,50,00,3B,D1,
25833886,00000110,false,Rx,0,8,18,00,00,00,E0,00,4A,03,
25834880,00000130,false,Rx,0,8,F8,FF,FF,FF,D0,00,5C,53,
25834881,00000100,false,Rx,0,8,BC,20,00,00,D0,00,C6,E0,
25836003,00000120,false,Rx,0,8,2A,00,00,00,60,00,2F,D1,
25836004,00000110,false,Rx,0,8,2F,00,00,00,F0,00,43,84,
25836996,00000130,false,Rx,0,8,F8,FF,FF,FF,E0,00,48,53,
25836997,00000100,false,Rx,0,8,BC,20,00,00,E0,00,D2,E0,
25837997,00000120,false,Rx,0,8,46,00,00,00,70,00,2B,7D,
25837999,00000110,false,Rx,0,8,2F,00,00,00,00,00,07,84,
25838999,00000130,false,Rx,0,8,F8,FF,FF,FF,F0,00,45,93,
25839001,00000100,false,Rx,0,8,A5,20,00,00,F0,00,DD,29,
25839001,00000140,false,Rx,0,8,01,00,FF,FF,00,00,01,EE,
25840116,00000120,false,Rx,0,8,46,00,00,00,80,00,6F,7D,
25840117,00000110,false,Rx,0,8,2F,00,00,00,10,00,0A,44,
25841128,00000130,false,Rx,0,8,18,00,00,00,00,00,03,C3,
25841129,00000100,false,Rx,0,8,A5,20,00,00,00,00,99,29,
25842128,00000120,false,Rx,0,8,2A,00,00,00,90,00,6B,D1,
25842129,00000110,false,Rx,0,8,2F,00,00,00,20,00,1E,44,
25843126,00000130,false,Rx,0,8,F8,FF,FF,FF,10,00,0C,53,
25843127,00000100,false,Rx,0,8,BC,20,00,00,10,00,96,E0,
25843128,00000120,false,Rx,0,8,2A,00,00,00,A0,00,7F,D1,
25844389,00000110,false,Rx,0,8,18,00,00,00,30,00,17,C3,
25844390,00000050,false,Rx,0,6,41,5C,FF,FB,5F,FF,00,00,
25844391,00000130,false,Rx,0,8,75,BC,F5,FF,23,80,41,C9,
25845388,00000100,false,Rx,0,8,BC,20,00,00,20,00,82,E0,
25845389,00000120,false,Rx,0,8,2A,00,00,00,B0,00,72,11,
25846389,00000110,false,Rx,0,8,18,00,00,00,40,00,32,03,
25846391,00000130,false,Rx,0,8,B5,00,00,00,30,00,0E,7E,
25847532,00000100,false,Rx,0,8,BC,20,00,00,30,00,8F,20,
25847533,00000120,false,Rx,0,8,2A,00,00,00,C0,00,57,D1,
25848504,00000110,false,Rx,0,8,18,00,00,00,50,00,3F,C3,
25848505,00000130,false,Rx,0,8,18,00,00,00,40,00,32,03,
25849495,00000100,false,Rx,0,8,A5,20,00,00,40,00,A8,E9,
25849496,00000120,false,Rx,0,8,46,00,00,00,D0,00,53,7D,
25850655,00000110,false,Rx,0,8,18,00,00,00,60,00,2B,C3,
25850656,00000130,false,Rx,0,8,F8,FF,FF,FF,50,00,3D,93,
25851656,00000100,false,Rx,0,8,BC,20,00,00,50,00,A7,20,
25851658,00000120,false,Rx,0,8,46,00,00,00,E0,00,47,7D,
25852653,00000110,false,Rx,0,8,18,00,00,00,70,00,26,03,
25852654,00000130,false,Rx,0,8,F8,FF,FF,FF,60,00,29,93,
25853629,00000100,false,Rx,0,8,BC,20,00,00,60,00,B3,20,
25853630,00000120,false,Rx,0,8,46,00,00,00,F0,00,4A,BD,
25854620,00000110,false,Rx,0,8,18,00,00,00,80,00,62,03,
25854621,00000130,false,Rx,0,8,F8,FF,FF,FF,70,00,24,53,
25855782,00000100,false,Rx,0,8,A5,20,00,00,70,00,BC,E9,
25855783,00000120,false,Rx,0,8,46,00,00,00,00,00,0E,BD,
25856773,00000110,false,Rx,0,8,2F,00,00,00,90,00,6B,84,
25856774,00000130,false,Rx,0,8,F8,FF,FF,FF,80,00,60,53,
25857760,00000100,false,Rx,0,8,A5,20,00,00,80,00,F8,E9,
25857760,00000120,false,Rx,0,8,2A,00,00,00,10,00,0A,11,
25858753,00000110,false,Rx,0,8,2F,00,00,00,A0,00,7F,84,
25858754,00000130,false,Rx,0,8,F8,FF,FF,FF,90,00,6D,93,
25859755,00000100,false,Rx,0,8,BC,20,00,00,90,00,F7,20,
25859755,00000140,false,Rx,0,8,01,00,FF,FF,10,00,0C,2E,
25859756,00000120,false,Rx,0,8,2A,00,00,00,20,00,1E,11,
25860902,00000110,false,Rx,0,8,2F,00,00,00,B0,00,72,44,
25860903,00000130,false,Rx,0,8,F8,FF,FF,FF,A0,00,79,93,
25861860,00000100,false,Rx,0,8,A5,20,00,00,A0,00,E1,29,
25861860,00000120,false,Rx,0,8,0E,00,00,00,30,00,15,35,
25862878,00000110,false,Rx,0,8,2F,00,00,00,C0,00,57,84,
25862878,00000130,false,Rx,0,8,37,00,00,00,B0,00,71,9C,
25863877,00000100,false,Rx,0,8,BC,20,00,00,B0,00,EE,E0,
25863878,00000120,false,Rx,0,8,0E,00,00,00,40,00,30,F5,
25863878,00000110,false,Rx,0,8,2F,00,00,00,D0,00,5A,44,
25865130,00000050,false,Rx,0,6,41,5C,FF,FB,5F,FF,00,00,
25865131,00000130,false,Rx,0,8,48,21,00,00,C3,80,E2,C4,
25865132,00000100,false,Rx,0,8,A5,20,00,00,C0,00,C9,29,
25866756,00000120,false,Rx,0,8,2A,00,00,00,50,00,3B,D1,
25866757,00000110,false,Rx,0,8,2F,00,00,00,E0,00,4E,44,
25867751,00000130,false,Rx,0,8,D9,FF,FF,FF,D0,00,5A,E2,
25867752,00000100,false,Rx,0,8,BC,20,00,00,D0,00,C6,E0,
25868748,00000120,false,Rx,0,8,2A,00,00,00,60,00,2F,D1,
25868748,00000110,false,Rx,0,8,18,00,00,00,F0,00,47,C3,
25869900,00000130,false,Rx,0,8,37,00,00,00,E0,00,4D,9C,
25869900,00000100,false,Rx,0,8,BC,20,00,00,E0,00,D2,E0,
25870900,00000120,false,Rx,0,8,46,00,00,00,70,00,2B,7D,
25870901,00000110,false,Rx,0,8,18,00,00,00,00,00,03,C3,
25871876,00000130,false,Rx,0,8,18,00,00,00,F0,00,47,C3,
25871877,00000100,false,Rx,0,8,A5,20,00,00,F0,00,DD,29,
25872869,00000120,false,Rx,0,8,46,00,00,00,80,00,6F,7D,
25872870,00000110,false,Rx,0,8,01,00,00,00,10,00,0C,0A,
25873986,00000130,false,Rx,0,8,D9,FF,FF,FF,00,00,07,22,
25873987,00000100,false,Rx,0,8,A5,20,00,00,00,00,99,29,
25875001,00000120,false,Rx,0,8,2A,00,00,00,90,00,6B,D1,
25875002,00000110,false,Rx,0,8,01,00,00,00,20,00,18,0A,
25875987,00000130,false,Rx,0,8,F8,FF,FF,FF,10,00,0C,53,
25875988,00000100,false,Rx,0,8,A5,20,00,00,10,00,94,E9,
25876987,00000120,false,Rx,0,8,2A,00,00,00,A0,00,7F,D1,
25876988,00000110,false,Rx,0,8,18,00,00,00,30,00,17,C3,
25877986,00000130,false,Rx,0,8,D9,FF,FF,FF,20,00,1E,E2,
25877987,00000100,false,Rx,0,8,A5,20,00,00,20,00,80,E9,
25879112,00000120,false,Rx,0,8,2A,00,00,00,B0,00,72,11,
25879113,00000110,false,Rx,0,8,18,00,00,00,40,00,32,03,
25880109,00000130,false,Rx,0,8,D9,FF,FF,FF,30,00,13,22,
25880109,00000100,false,Rx,0,8,A5,20,00,00,30,00,8D,29,
25880110,00000140,false,Rx,0,8,01,00,FF,FF,20,00,18,2E,
25881109,00000120,false,Rx,0,8,2A,00,00,00,C0,00,57,D1,
25881110,00000110,false,Rx,0,8,18,00,00,00,50,00,3F,C3,
25882145,00000130,false,Rx,0,8,F8,FF,FF,FF,40,00,30,53,
25882146,00000100,false,Rx,0,8,BC,20,00,00,40,00,AA,E0,
25883275,00000120,false,Rx,0,8,2A,00,00,00,D0,00,5A,11,
25883275,00000110,false,Rx,0,8,18,00,00,00,60,00,2B,C3,
25884275,00000130,false,Rx,0,8,18,00,00,00,50,00,3F,C3,
25884275,00000100,false,Rx,0,8,A5,20,00,00,50,00,A5,29,
25884276,00000120,false,Rx,0,8,2A,00,00,00,E0,00,4E,11,
25885371,00000110,false,Rx,0,8,2F,00,00,00,70,00,22,44,
25885372,00000050,false,Rx,0,6,41,5C,FF,FB,5F,FF,00,00,
25885372,00000130,false,Rx,0,8,1E,34,03,00,63,80,9B,75,
25886522,00000100,false,Rx,0,8,A5,20,00,00,60,00,B1,29,
25886523,00000120,false,Rx,0,8,2A,00,00,00,F0,00,43,D1,
25887525,00000110,false,Rx,0,8,2F,00,00,00,80,00,66,44,
25887526,00000130,false,Rx,0,8,D9,FF,FF,FF,70,00,22,E2,
25888495,00000100,false,Rx,0,8,A5,20,00,00,70,00,BC,E9,
25888496,00000120,false,Rx,0,8,2A,00,00,00,00,00,07,D1,
25889647,00000110,false,Rx,0,8,18,00,00,00,90,00,6F,C3,
25889648,00000130,false,Rx,0,8,F8,FF,FF,FF,80,00,60,53,
25890648,00000100,false,Rx,0,8,A5,20,00,00,80,00,F8,E9,
25890649,00000120,false,Rx,0,8,2A,00,00,00,10,00,0A,11,
25891628,00000110,false,Rx,0,8,18,00,00,00,A0,00,7B,C3,
25891629,00000130,false,Rx,0,8,18,00,00,00,90,00,6F,C3,
25892620,00000100,false,Rx,0,8,BC,20,00,00,90,00,F7,20,
25892621,00000120,false,Rx,0,8,2A,00,00,00,20,00,1E,11,
25893781,00000110,false,Rx,0,8,18,00,00,00,B0,00,76,03,
25893781,00000130,false,Rx,0,8,F8,FF,FF,FF,A0,00,79,93,
25894775,00000100,false,Rx,0,8,A5,20,00,00,A0,00,E1,29,
25894776,00000120,false,Rx,0,8,2A,00,00,00,30,00,13,D1,
25895751,00000110,false,Rx,0,8,18,00,00,00,C0,00,53,C3,
25895752,00000130,false,Rx,0,8,F8,FF,FF,FF,B0,00,74,53,
25896752,00000100,false,Rx,0,8,A5,20,00,00,B0,00,EC,E9,
25896753,00000120,false,Rx,0,8,2A,00,00,00,40,00,36,11,
25897746,00000110,false,Rx,0,8,18,00,00,00,D0,00,5E,03,
25897746,00000130,false,Rx,0,8,F8,FF,FF,FF,C0,00,51,93,
25898900,00000100,false,Rx,0,8,A5,20,00,00,C0,00,C9,29,
25898901,00000120,false,Rx,0,8,46,00,00,00,50,00,32,BD,
25899900,00000110,false,Rx,0,8,18,00,00,00,E0,00,4A,03,
25899900,00000130,false,Rx,0,8,18,00,00,00,D0,00,5E,03,
25900897,00000100,false,Rx,0,8,BC,20,00,00,D0,00,C6,E0,
25900898,00000140,false,Rx,0,8,01,00,FF,FF,30,00,15,EE,
25900899,00000120,false,Rx,0,8,46,00,00,00,60,00,26,BD,
25901870,00000110,false,Rx,0,8,01,00,00,00,F0,00,45,CA,
25901871,00000130,false,Rx,0,8,F8,FF,FF,FF,E0,00,48,53,
25902991,00000100,false,Rx,0,8,A5,20,00,00,E0,00,D0,E9,
25902992,00000120,false,Rx,0,8,46,00,00,00,70,00,2B,7D,
25903992,00000110,false,Rx,0,8,01,00,00,00,00,00,01,CA,
25903993,00000130,false,Rx,0,8,37,00,00,00,F0,00,40,5C,
25904987,00000100,false,Rx,0,8,BC,20,00,00,F0,00,DF,20,
25904988,00000120,false,Rx,0,8,46,00,00,00,80,00,6F,7D,
25904988,00000110,false,Rx,0,8,01,00,00,00,10,00,0C,0A,
25906126,00000050,false,Rx,0,6,41,5C,FF,FB,5F,FF,00,00,
25906127,00000130,false,Rx,0,8,FB,95,FF,FF,03,80,18,F9,
25906128,00000100,false,Rx,0,8,A5,20,00,00,00,00,99,29,
25907773,00000120,false,Rx,0,8,46,00,00,00,90,00,62,BD,
25907774,00000110,false,Rx,0,8,01,00,00,00,20,00,18,0A,
25908899,00000130,false,Rx,0,8,95,00,00,00,10,00,10,DE,
25908900,00000100,false,Rx,0,8,A5,20,00,00,10,00,94,E9,
25909897,00000120,false,Rx,0,8,46,00,00,00,A0,00,76,BD,
25909898,00000110,false,Rx,0,8,18,00,00,00,30,00,17,C3,
25909898,00000170,false,Rx,0,8,00,00,00,56,50,81,05,B9,
25910876,00000130,false,Rx,0,8,F8,FF,FF,FF,20,00,18,53,
25910877,00000100,false,Rx,0,8,A5,20,00,00,20,00,80,E9,
25911984,00000120,false,Rx,0,8,2A,00,00,00,B0,00,72,11,
25911985,00000110,false,Rx,0,8,18,00,00,00,40,00,32,03,
25913003,00000130,false,Rx,0,8,18,00,00,00,30,00,17,C3,
25913003,00000100,false,Rx,0,8,A5,20,00,00,30,00,8D,29,
25914004,00000120,false,Rx,0,8,2A,00,00,00,C0,00,57,D1,
25914005,00000110,false,Rx,0,8,18,00,00,00,50,00,3F,C3,
25915002,00000130,false,Rx,0,8,D9,FF,FF,FF,40,00,36,E2,
25915003,00000100,false,Rx,0,8,A5,20,00,00,40,00,A8,E9,
25916001,00000120,false,Rx,0,8,46,00,00,00,D0,00,53,7D,
25916002,00000110,false,Rx,0,8,18,00,00,00,60,00,2B,C3,
25917148,00000130,false,Rx,0,8,F8,FF,FF,FF,50,00,3D,93,
25917149,00000100,false,Rx,0,8,A5,20,00,00,50,00,A5,29,
25918150,00000120,false,Rx,0,8,46,00,00,00,E0,00,47,7D,
25918151,00000110,false,Rx,0,8,18,00,00,00,70,00,26,03,
25919128,00000130,false,Rx,0,8,F8,FF,FF,FF,60,00,29,93,
25919129,00000100,false,Rx,0,8,A5,20,00,00,60,00,B1,29,
25920126,00000120,false,Rx,0,8,2A,00,00,00,F0,00,43,D1,
25920127,00000110,false,Rx,0,8,18,00,00,00,80,00,62,03,
25921274,00000130,false,Rx,0,8,F8,FF,FF,FF,70,00,24,53,
25921275,00000100,false,Rx,0,8,A5,20,00,00,70,00,BC,E9,
25921276,00000140,false,Rx,0,8,01,00,FF,FF,40,00,30,2E,
25922271,00000120,false,Rx,0,8,2A,00,00,00,00,00,07,D1,
25922272,00000110,false,Rx,0,8,18,00,00,00,90,00,6F,C3,
25923254,00000130,false,Rx,0,8,F8,FF,FF,FF,80,00,60,53,
25923255,00000100,false,Rx,0,8,A5,20,00,00,80,00,F8,E9,
25924255,00000120,false,Rx,0,8,2A,00,00,00,10,00,0A,11,
25924256,00000110,false,Rx,0,8,18,00,00,00,A0,00,7B,C3,
25925272,00000130,false,Rx,0,8,F8,FF,FF,FF,90,00,6D,93,
25925273,00000100,false,Rx,0,8,A5,20,00,00,90,00,F5,29,
25925274,00000120,false,Rx,0,8,2A,00,00,00,20,00,1E,11,
25926497,00000110,false,Rx,0,8,01,00,00,00,B0,00,74,0A,
25926498,00000050,false,Rx,0,6,41,5C,FF,FB,5F,FF,00,00,
25926498,00000130,false,Rx,0,8,55,BC,F5,FF,A3,80,27,69,
25927509,00000100,false,Rx,0,8,A5,20,00,00,A0,00,E1,29,
25927510,00000120,false,Rx,0,8,46,00,00,00,30,00,1A,BD,
25928613,00000110,false,Rx,0,8,01,00,00,00,C0,00,51,CA,
25928614,00000130,false,Rx,0,8,76,00,00,00,B0,00,7E,8D,
25929627,00000100,false,Rx,0,8,BC,20,00,00,B0,00,EE,E0,
25929628,00000120,false,Rx,0,8,46,00,00,00,40,00,3F,7D,
25930619,00000110,false,Rx,0,8,18,00,00,00,D0,00,5E,03,
25930620,00000130,false,Rx,0,8,D9,FF,FF,FF,C0,00,57,22,
25931774,00000100,false,Rx,0,8,A5,20,00,00,C0,00,C9,29,
25931775,00000120,false,Rx,0,8,2A,00,00,00,50,00,3B,D1,
25932773,00000110,false,Rx,0,8,18,00,00,00,E0,00,4A,03,
25932774,00000130,false,Rx,0,8,18,00,00,00,D0,00,5E,03,
25933750,00000100,false,Rx,0,8,A5,20,00,00,D0,00,C4,E9,
25933751,00000120,false,Rx,0,8,2A,00,00,00,60,00,2F,D1,
25934743,00000110,false,Rx,0,8,18,00,00,00,F0,00,47,C3,
25934744,00000130,false,Rx,0,8,D9,FF,FF,FF,E0,00,4E,E2,
25934745,00000100,false,Rx,0,8,A5,20,00,00,E0,00,D0,E9,
25936655,00000120,false,Rx,0,8,46,00,00,00,70,00,2B,7D,
25936656,00000110,false,Rx,0,8,18,00,00,00,00,00,03,C3,
25937649,00000130,false,Rx,0,8,37,00,00,00,F0,00,40,5C,
25937650,00000100,false,Rx,0,8,A5,20,00,00,F0,00,DD,29,
25938622,00000120,false,Rx,0,8,46,00,00,00,80,00,6F,7D,
25938623,00000110,false,Rx,0,8,18,00,00,00,10,00,0E,03,
25939647,00000130,false,Rx,0,8,F8,FF,FF,FF,00,00,01,93,
25939647,00000100,false,Rx,0,8,BC,20,00,00,00,00,9B,20,
25940774,00000120,false,Rx,0,8,2A,00,00,00,90,00,6B,D1,
25940775,00000110,false,Rx,0,8,18,00,00,00,20,00,1A,03,
25941779,00000130,false,Rx,0,8,D9,FF,FF,FF,10,00,0A,E2,
25941779,00000100,false,Rx,0,8,A5,20,00,00,10,00,94,E9,
25941780,00000140,false,Rx,0,8,01,00,FF,FF,50,00,3D,EE,
25942752,00000120,false,Rx,0,8,2A,00,00,00,A0,00,7F,D1,
25942753,00000110,false,Rx,0,8,18,00,00,00,30,00,17,C3,
25943895,00000130,false,Rx,0,8,18,00,00,00,20,00,1A,03,
25943896,00000100,false,Rx,0,8,A5,20,00,00,20,00,80,E9,
25944899,00000120,false,Rx,0,8,2A,00,00,00,B0,00,72,11,
25944899,00000110,false,Rx,0,8,18,00,00,00,40,00,32,03,
25945858,00000130,false,Rx,0,8,37,00,00,00,30,00,10,5C,
25945859,00000100,false,Rx,0,8,8E,20,00,00,30,00,8B,32,
25945860,00000120,false,Rx,0,8,2A,00,00,00,C0,00,57,D1,
25947151,00000110,false,Rx,0,8,2F,00,00,00,50,00,3B,84,
25947152,00000050,false,Rx,0,6,41,5C,FF,FB,5F,FF,00,00,
25947153,00000130,false,Rx,0,8,48,21,00,00,43,80,83,04,
25948156,00000100,false,Rx,0,8,A5,20,00,00,40,00,A8,E9,
25948157,00000120,false,Rx,0,8,2A,00,00,00,D0,00,5A,11,
25949132,00000110,false,Rx,0,8,2F,00,00,00,60,00,2F,84,
25949133,00000130,false,Rx,0,8,B9,FF,FF,FF,50,00,32,82,
25950232,00000100,false,Rx,0,8,A5,20,00,00,50,00,A5,29,
25950233,00000120,false,Rx,0,8,2A,00,00,00,E0,00,4E,11,
25951252,00000110,false,Rx,0,8,18,00,00,00,70,00,26,03,
25951253,00000130,false,Rx,0,8,18,00,00,00,60,00,2B,C3,
25952256,00000100,false,Rx,0,8,A5,20,00,00,60,00,B1,29,
25952257,00000120,false,Rx,0,8,2A,00,00,00,F0,00,43,D1,
25953251,00000110,false,Rx,0,8,18,00,00,00,80,00,62,03,
25953252,00000130,false,Rx,0,8,D9,FF,FF,FF,70,00,22,E2,
25954244,00000100,false,Rx,0,8,A5,20,00,00,70,00,BC,E9,
25954245,00000120,false,Rx,0,8,2A,00,00,00,00,00,07,D1,
25955400,00000110,false,Rx,0,8,2F,00,00,00,90,00,6B,84,
25955401,00000130,false,Rx,0,8,F8,FF,FF,FF,80,00,60,53,
25956399,00000100,false,Rx,0,8,A5,20,00,00,80,00,F8,E9,
25956400,00000120,false,Rx,0,8,46,00,00,00,10,00,03,7D,
25957377,00000110,false,Rx,0,8,2F,00,00,00,A0,00,7F,84,
25957378,00000130,false,Rx,0,8,F8,FF,FF,FF,90,00,6D,93,
25957378,00000100,false,Rx,0,8,8E,20,00,00,90,00,F3,32,
25959121,00000120,false,Rx,0,8,46,00,00,00,20,00,17,7D,
25959122,00000110,false,Rx,0,8,18,00,00,00,B0,00,76,03,
25960275,00000130,false,Rx,0,8,F8,FF,FF,FF,A0,00,79,93,
25960275,00000100,false,Rx,0,8,A5,20,00,00,A0,00,E1,29,
25961276,00000120,false,Rx,0,8,46,00,00,00,30,00,1A,BD,
25961277,00000110,false,Rx,0,8,18,00,00,00,C0,00,53,C3,
25962250,00000130,false,Rx,0,8,D9,FF,FF,FF,B0,00,72,E2,
25962251,00000100,false,Rx,0,8,8E,20,00,00,B0,00,EA,F2,
25962252,00000140,false,Rx,0,8,01,00,FF,FF,60,00,29,EE,
25963233,00000120,false,Rx,0,8,46,00,00,00,40,00,3F,7D,
25963234,00000110,false,Rx,0,8,18,00,00,00,D0,00,5E,03,
25964401,00000130,false,Rx,0,8,18,00,00,00,C0,00,53,C3,
25964402,00000100,false,Rx,0,8,A5,20,00,00,C0,00,C9,29,
25965402,00000120,false,Rx,0,8,46,00,00,00,50,00,32,BD,
25965403,00000110,false,Rx,0,8,18,00,00,00,E0,00,4A,03,
25966403,00000130,false,Rx,0,8,18,00,00,00,D0,00,5E,03,
25966404,00000100,false,Rx,0,8,8E,20,00,00,D0,00,C2,F2,
25966404,00000120,false,Rx,0,8,46,00,00,00,60,00,26,BD,
25967647,00000110,false,Rx,0,8,2F,00,00,00,F0,00,43,84,
25967648,00000050,false,Rx,0,6,41,5C,FF,FB,5F,FF,00,00,
25967649,00000130,false,Rx,0,8,1E,34,03,00,E3,80,FA,B5,
25968627,00000100,false,Rx,0,8,A5,20,00,00,E0,00,D0,E9,
25968628,00000120,false,Rx,0,8,2A,00,00,00,70,00,22,11,
25969624,00000110,false,Rx,0,8,2F,00,00,00,00,00,07,84,
25969625,00000130,false,Rx,0,8,D9,FF,FF,FF,F0,00,43,22,
25970779,00000100,false,Rx,0,8,A5,20,00,00,F0,00,DD,29,
25970780,00000120,false,Rx,0,8,2A,00,00,00,80,00,66,11,
25971752,00000110,false,Rx,0,8,18,00,00,00,10,00,0E,03,
25971753,00000130,false,Rx,0,8,F8,FF,FF,FF,00,00,01,93,
25972732,00000100,false,Rx,0,8,A5,20,00,00,00,00,99,29,
25972733,00000120,false,Rx,0,8,46,00,00,00,90,00,62,BD,
25973858,00000110,false,Rx,0,8,18,00,00,00,20,00,1A,03,
25973858,00000130,false,Rx,0,8,F8,FF,FF,FF,10,00,0C,53,
25974878,00000100,false,Rx,0,8,A5,20,00,00,10,00,94,E9,
25974879,00000120,false,Rx,0,8,46,00,00,00,A0,00,76,BD,
25975899,00000110,false,Rx,0,8,2F,00,00,00,30,00,13,84,
25975900,00000130,false,Rx,0,8,F8,FF,FF,FF,20,00,18,53,
25976879,00000100,false,Rx,0,8,A5,20,00,00,20,00,80,E9,
25976880,00000120,false,Rx,0,8,2A,00,00,00,B0,00,72,11,
25977880,00000110,false,Rx,0,8,2F,00,00,00,40,00,36,44,
25977881,00000130,false,Rx,0,8,F8,FF,FF,FF,30,00,15,93,
25978982,00000100,false,Rx,0,8,A5,20,00,00,30,00,8D,29,
25978983,00000120,false,Rx,0,8,2A,00,00,00,C0,00,57,D1,
25980002,00000110,false,Rx,0,8,2F,00,00,00,50,00,3B,84,
25980003,00000130,false,Rx,0,8,F8,FF,FF,FF,40,00,30,53,
25980988,00000100,false,Rx,0,8,A5,20,00,00,40,00,A8,E9,
25980989,00000120,false,Rx,0,8,46,00,00,00,D0,00,53,7D,
25982001,00000110,false,Rx,0,8,2F,00,00,00,60,00,2F,84,
25982002,00000130,false,Rx,0,8,18,00,00,00,50,00,3F,C3,
25983002,00000100,false,Rx,0,8,A5,20,00,00,50,00,A5,29,
25983003,00000140,false,Rx,0,8,01,00,FF,FF,70,00,24,2E,
25983004,00000120,false,Rx,0,8,46,00,00,00,E0,00,47,7D,
25984148,00000110,false,Rx,0,8,18,00,00,00,70,00,26,03,
25984149,00000130,false,Rx,0,8,18,00,00,00,60,00,2B,C3,
25985153,00000100,false,Rx,0,8,A5,20,00,00,60,00,B1,29,
25985154,00000120,false,Rx,0,8,46,00,00,00,F0,00,4A,BD,
25986124,00000110,false,Rx,0,8,18,00,00,00,80,00,62,03,
25986125,00000130,false,Rx,0,8,18,00,00,00,70,00,26,03,
25987135,00000100,false,Rx,0,8,A5,20,00,00,70,00,BC,E9,
25987136,00000120,false,Rx,0,8,46,00,00,00,00,00,0E,BD,
25987136,00000110,false,Rx,0,8,01,00,00,00,90,00,6D,CA,
25988398,00000050,false,Rx,0,6,41,5C,FF,FB,5F,FF,00,00,
25988399,00000130,false,Rx,0,8,FB,95,FF,FF,83,80,79,39,
25988399,00000100,false,Rx,0,8,A5,20,00,00,80,00,F8,E9,
25989982,00000120,false,Rx,0,8,2A,00,00,00,10,00,0A,11,
25989983,00000110,false,Rx,0,8,01,00,00,00,A0,00,79,CA,
25990982,00000130,false,Rx,0,8,95,00,00,00,90,00,71,1E,
25990983,00000100,false,Rx,0,8,A5,20,00,00,90,00,F5,29,
25991982,00000120,false,Rx,0,8,2A,00,00,00,20,00,1E,11,
25991983,00000110,false,Rx,0,8,01,00,00,00,B0,00,74,0A,
25993107,00000130,false,Rx,0,8,18,00,00,00,A0,00,7B,C3,
25993107,00000100,false,Rx,0,8,A5,20,00,00,A0,00,E1,29,
25994109,00000120,false,Rx,0,8,46,00,00,00,30,00,1A,BD,
25994110,00000110,false,Rx,0,8,01,00,00,00,C0,00,51,CA,
25995108,00000130,false,Rx,0,8,F8,FF,FF,FF,B0,00,74,53,
25995108,00000100,false,Rx,0,8,A5,20,00,00,B0,00,EC,E9,
25996110,00000120,false,Rx,0,8,46,00,00,00,40,00,3F,7D,
25996112,00000110,false,Rx,0,8,18,00,00,00,D0,00,5E,03,
25997232,00000130,false,Rx,0,8,F8,FF,FF,FF,C0,00,51,93,
25997233,00000100,false,Rx,0,8,BC,20,00,00,C0,00,CB,20,
25998231,00000120,false,Rx,0,8,46,00,00,00,50,00,32,BD,
25998232,00000110,false,Rx,0,8,18,00,00,00,E0,00,4A,03,
25999231,00000130,false,Rx,0,8,F8,FF,FF,FF,D0,00,5C,53,
25999232,00000100,false,Rx,0,8,A5,20,00,00,D0,00,C4,E9,
26000231,00000120,false,Rx,0,8,46,00,00,00,60,00,26,BD,
26000232,00000110,false,Rx,0,8,18,00,00,00,F0,00,47,C3,
26001234,00000130,false,Rx,0,8,F8,FF,FF,FF,E0,00,48,53,
26001235,00000100,false,Rx,0,8,8E,20,00,00,E0,00,D6,F2,
26002358,00000120,false,Rx,0,8,2A,00,00,00,70,00,22,11,
26002360,00000110,false,Rx,0,8,18,00,00,00,00,00,03,C3,
26003358,00000130,false,Rx,0,8,F8,FF,FF,FF,F0,00,45,93,
26003360,00000100,false,Rx,0,8,A5,20,00,00,F0,00,DD,29,
26003360,00000140,false,Rx,0,8,01,00,FF,FF,80,00,60,2E,
26004358,00000120,false,Rx,0,8,2A,00,00,00,80,00,66,11,
26004359,00000110,false,Rx,0,8,18,00,00,00,10,00,0E,03,
26005358,00000130,false,Rx,0,8,F8,FF,FF,FF,00,00,01,93,
26005359,00000100,false,Rx,0,8,A5,20,00,00,00,00,99,29,
26006483,00000120,false,Rx,0,8,2A,00,00,00,90,00,6B,D1,
26006484,00000110,false,Rx,0,8,18,00,00,00,20,00,1A,03,
26007483,00000130,false,Rx,0,8,18,00,00,00,10,00,0E,03,
26007483,00000100,false,Rx,0,8,A5,20,00,00,10,00,94,E9,
26007484,00000120,false,Rx,0,8,2A,00,00,00,A0,00,7F,D1,
26008733,00000110,false,Rx,0,8,18,00,00,00,30,00,17,C3,
26008734,00000050,false,Rx,0,6,41,5C,FF,FB,5F,FF,00,00,
26008735,00000130,false,Rx,0,8,36,BC,F5,FF,23,80,4F,3A,
26009733,00000100,false,Rx,0,8,8E,20,00,00,20,00,86,F2,
26009733,00000120,false,Rx,0,8,46,00,00,00,B0,00,7B,7D,
26010733,00000110,false,Rx,0,8,18,00,00,00,40,00,32,03,
26010734,00000130,false,Rx,0,8,95,00,00,00,30,00,09,1E,
