Time Stamp,ID,Extended,Dir,Bus,LEN,D1,D2,D3,D4,D5,D6,D7,D8
12534492,00000100,false,Rx,0,8,71,00,00,00,00,00,0A,FA,
12534493,00000120,false,Rx,0,8,3D,00,00,00,70,00,21,36,
12535506,00000110,false,Rx,0,8,34,00,00,00,20,00,1D,AF,
12535507,00000130,false,Rx,0,8,95,00,00,00,10,00,10,DE,
12536644,00000100,false,Rx,0,8,71,00,00,00,10,00,07,3A,
12536645,00000120,false,Rx,0,8,3D,00,00,00,80,00,65,36,
12537641,00000110,false,Rx,0,8,1D,00,00,00,30,00,17,96,
12537642,00000130,false,Rx,0,8,D9,FF,FF,FF,20,00,1E,E2,
12538617,00000100,false,Rx,0,8,71,00,00,00,20,00,13,3A,
12538618,00000120,false,Rx,0,8,3D,00,00,00,90,00,68,F6,
12539766,00000110,false,Rx,0,8,1D,00,00,00,40,00,32,56,
12539768,00000130,false,Rx,0,8,F8,FF,FF,FF,30,00,15,93,
12540765,00000100,false,Rx,0,8,71,00,00,00,30,00,1E,FA,
12540767,00000120,false,Rx,0,8,3D,00,00,00,A0,00,7C,F6,
12541737,00000110,false,Rx,0,8,1D,00,00,00,50,00,3F,96,
12541738,00000130,false,Rx,0,8,F8,FF,FF,FF,40,00,30,53,
12542748,00000100,false,Rx,0,8,88,00,00,00,40,00,2F,53,
12542750,00000120,false,Rx,0,8,20,00,00,00,B0,00,72,BB,
12543782,00000110,false,Rx,0,8,1D,00,00,00,60,00,2B,96,
12543783,00000130,false,Rx,0,8,D9,FF,FF,FF,50,00,3B,22,
12544837,00000100,false,Rx,0,8,5A,00,00,00,50,00,30,E1,
12544838,00000120,false,Rx,0,8,20,00,00,00,C0,00,57,7B,
837,00000110,false,Rx,0,8,1D,00,00,00,70,00,26,56,
838,00000130,false,Rx,0,8,18,00,00,00,60,00,2B,C3,
1837,00000100,false,Rx,0,8,5A,00,00,00,60,00,24,E1,
1838,00000120,false,Rx,0,8,3D,00,00,00,D0,00,59,36,
2836,00000110,false,Rx,0,8,1D,00,00,00,80,00,62,56,
2837,00000130,false,Rx,0,8,D9,FF,FF,FF,70,00,22,E2,
3984,00000100,false,Rx,0,8,5A,00,00,00,70,00,29,21,
3987,00000140,false,Rx,0,8,01,00,FF,FF,C0,00,51,EE,
3987,00000120,false,Rx,0,8,3D,00,00,00,E0,00,4D,36,
5033,00000110,false,Rx,0,8,1D,00,00,00,90,00,6F,96,
5035,00000150,false,Rx,0,4,FD,F4,40,A7,00,00,00,00,
5035,00000130,false,Rx,0,8,D9,FF,FF,FF,80,00,66,E2,
5988,00000100,false,Rx,0,8,71,00,00,00,80,00,6B,3A,
5990,00000120,false,Rx,0,8,3D,00,00,00,F0,00,40,F6,
6963,00000110,false,Rx,0,8,1D,00,00,00,A0,00,7B,96,
6965,00000130,false,Rx,0,8,F8,FF,FF,FF,90,00,6D,93,
7962,00000100,false,Rx,0,8,5A,00,00,00,90,00,60,E1,
7963,00000120,false,Rx,0,8,3D,00,00,00,00,00,04,F6,
7964,00000110,false,Rx,0,8,34,00,00,00,B0,00,71,AF,
9238,00000050,false,Rx,0,6,40,54,FF,FF,DF,FF,00,00,
9239,00000130,false,Rx,0,8,4C,BA,F5,FF,A3,80,AD,60,
9240,00000100,false,Rx,0,8,71,00,00,00,A0,00,72,FA,
10846,00000120,false,Rx,0,8,3D,00,00,00,10,00,09,36,
10847,00000110,false,Rx,0,8,34,00,00,00,C0,00,54,6F,
11840,00000130,false,Rx,0,8,D5,00,00,00,B0,00,66,1E,
11842,00000100,false,Rx,0,8,71,00,00,00,B0,00,7F,3A,
12957,00000120,false,Rx,0,8,3D,00,00,00,20,00,1D,36,
12959,00000110,false,Rx,0,8,1D,00,00,00,D0,00,5E,56,
13958,00000130,false,Rx,0,8,F8,FF,FF,FF,C0,00,51,93,
13959,00000100,false,Rx,0,8,71,00,00,00,C0,00,5A,FA,
14956,00000120,false,Rx,0,8,20,00,00,00,30,00,13,7B,
14957,00000110,false,Rx,0,8,1D,00,00,00,E0,00,4A,56,
15987,00000130,false,Rx,0,8,18,00,00,00,D0,00,5E,03,
15988,00000100,false,Rx,0,8,71,00,00,00,D0,00,57,3A,
16954,00000120,false,Rx,0,8,20,00,00,00,40,00,36,BB,
16954,00000110,false,Rx,0,8,1D,00,00,00,F0,00,47,96,
18110,00000130,false,Rx,0,8,F8,FF,FF,FF,E0,00,48,53,
18111,00000100,false,Rx,0,8,71,00,00,00,E0,00,43,3A,
19110,00000120,false,Rx,0,8,3D,00,00,00,50,00,38,F6,
19111,00000110,false,Rx,0,8,1D,00,00,00,00,00,03,96,
20092,00000130,false,Rx,0,8,37,00,00,00,F0,00,40,5C,
20093,00000100,false,Rx,0,8,71,00,00,00,F0,00,4E,FA,
21087,00000120,false,Rx,0,8,3D,00,00,00,60,00,2C,F6,
21088,00000110,false,Rx,0,8,1D,00,00,00,10,00,0E,56,
22110,00000130,false,Rx,0,8,18,00,00,00,00,00,03,C3,
22111,00000100,false,Rx,0,8,71,00,00,00,00,00,0A,FA,
23235,00000120,false,Rx,0,8,3D,00,00,00,70,00,21,36,
23237,00000110,false,Rx,0,8,1D,00,00,00,20,00,1A,56,
24235,00000130,false,Rx,0,8,18,00,00,00,10,00,0E,03,
24236,00000100,false,Rx,0,8,71,00,00,00,10,00,07,3A,
24237,00000140,false,Rx,0,8,01,00,FF,FF,D0,00,5C,2E,
25236,00000120,false,Rx,0,8,3D,00,00,00,80,00,65,36,
25237,00000110,false,Rx,0,8,1D,00,00,00,30,00,17,96,
25238,00000150,false,Rx,0,4,FD,F4,40,A7,00,00,00,00,
26238,00000130,false,Rx,0,8,F8,FF,FF,FF,20,00,18,53,
26239,00000100,false,Rx,0,8,71,00,00,00,20,00,13,3A,
27360,00000120,false,Rx,0,8,59,00,00,00,90,00,60,D2,
27361,00000110,false,Rx,0,8,1D,00,00,00,40,00,32,56,
28357,00000130,false,Rx,0,8,F8,FF,FF,FF,30,00,15,93,
28359,00000100,false,Rx,0,8,5A,00,00,00,30,00,18,E1,
28359,00000120,false,Rx,0,8,59,00,00,00,A0,00,74,D2,
29610,00000110,false,Rx,0,8,4B,00,00,00,50,00,33,A0,
29611,00000050,false,Rx,0,6,40,54,FF,FF,DF,FF,00,00,
29612,00000130,false,Rx,0,8,6C,21,00,00,43,80,85,E0,
30608,00000100,false,Rx,0,8,5A,00,00,00,40,00,3D,21,
30610,00000120,false,Rx,0,8,3D,00,00,00,B0,00,71,36,
31610,00000110,false,Rx,0,8,4B,00,00,00,60,00,27,A0,
31611,00000130,false,Rx,0,8,D9,FF,FF,FF,50,00,3B,22,
32735,00000100,false,Rx,0,8,71,00,00,00,50,00,36,FA,
32736,00000120,false,Rx,0,8,3D,00,00,00,C0,00,54,F6,
33734,00000110,false,Rx,0,8,1D,00,00,00,70,00,26,56,
33735,00000130,false,Rx,0,8,D9,FF,FF,FF,60,00,2F,22,
34734,00000100,false,Rx,0,8,71,00,00,00,60,00,22,FA,
34735,00000120,false,Rx,0,8,20,00,00,00,D0,00,5A,BB,
35735,00000110,false,Rx,0,8,1D,00,00,00,80,00,62,56,
35736,00000130,false,Rx,0,8,F8,FF,FF,FF,70,00,24,53,
36733,00000100,false,Rx,0,8,71,00,00,00,70,00,2F,3A,
36734,00000120,false,Rx,0,8,20,00,00,00,E0,00,4E,BB,
37861,00000110,false,Rx,0,8,06,00,00,00,90,00,6C,7D,
37862,00000130,false,Rx,0,8,F8,FF,FF,FF,80,00,60,53,
38857,00000100,false,Rx,0,8,71,00,00,00,80,00,6B,3A,
38858,00000120,false,Rx,0,8,20,00,00,00,F0,00,43,7B,
39859,00000110,false,Rx,0,8,06,00,00,00,A0,00,78,7D,
39861,00000130,false,Rx,0,8,D9,FF,FF,FF,90,00,6B,22,
40878,00000100,false,Rx,0,8,71,00,00,00,90,00,66,FA,
40880,00000120,false,Rx,0,8,20,00,00,00,00,00,07,7B,
42010,00000110,false,Rx,0,8,1D,00,00,00,B0,00,76,56,
42011,00000130,false,Rx,0,8,18,00,00,00,A0,00,7B,C3,
42990,00000100,false,Rx,0,8,71,00,00,00,A0,00,72,FA,
42992,00000120,false,Rx,0,8,3D,00,00,00,10,00,09,36,
43992,00000110,false,Rx,0,8,1D,00,00,00,C0,00,53,96,
43993,00000130,false,Rx,0,8,F8,FF,FF,FF,B0,00,74,53,
44985,00000100,false,Rx,0,8,71,00,00,00,B0,00,7F,3A,
44986,00000140,false,Rx,0,8,01,00,FF,FF,E0,00,48,2E,
44987,00000150,false,Rx,0,4,FD,F4,40,A7,00,00,00,00,
44988,00000120,false,Rx,0,8,3D,00,00,00,20,00,1D,36,
46113,00000110,false,Rx,0,8,34,00,00,00,D0,00,59,AF,
46115,00000130,false,Rx,0,8,D9,FF,FF,FF,C0,00,57,22,
47082,00000100,false,Rx,0,8,5A,00,00,00,C0,00,5C,E1,
47083,00000120,false,Rx,0,8,3D,00,00,00,30,00,10,F6,
48080,00000110,false,Rx,0,8,34,00,00,00,E0,00,4D,AF,
48081,00000130,false,Rx,0,8,37,00,00,00,D0,00,59,9C,
48082,00000100,false,Rx,0,8,5A,00,00,00,D0,00,51,21,
49888,00000120,false,Rx,0,8,3D,00,00,00,40,00,35,36,
49889,00000110,false,Rx,0,8,34,00,00,00,F0,00,40,6F,
49890,00000050,false,Rx,0,6,40,54,FF,FF,DF,FF,00,00,
50892,00000130,false,Rx,0,8,B8,34,03,00,E3,80,E2,73,
50893,00000100,false,Rx,0,8,5A,00,00,00,E0,00,45,21,
51989,00000120,false,Rx,0,8,3D,00,00,00,50,00,38,F6,
51990,00000110,false,Rx,0,8,34,00,00,00,00,00,04,6F,
52956,00000130,false,Rx,0,8,F8,FF,FF,FF,F0,00,45,93,
52957,00000100,false,Rx,0,8,71,00,00,00,F0,00,4E,FA,
54087,00000120,false,Rx,0,8,3D,00,00,00,60,00,2C,F6,
54088,00000110,false,Rx,0,8,1D,00,00,00,10,00,0E,56,
55082,00000130,false,Rx,0,8,D9,FF,FF,FF,00,00,07,22,
55083,00000100,false,Rx,0,8,71,00,00,00,00,00,0A,FA,
56080,00000120,false,Rx,0,8,3D,00,00,00,70,00,21,36,
56081,00000110,false,Rx,0,8,1D,00,00,00,20,00,1A,56,
57079,00000130,false,Rx,0,8,D9,FF,FF,FF,10,00,0A,E2,
57080,00000100,false,Rx,0,8,88,00,00,00,10,00,13,53,
58082,00000120,false,Rx,0,8,3D,00,00,00,80,00,65,36,
58083,00000110,false,Rx,0,8,06,00,00,00,30,00,14,7D,
59207,00000130,false,Rx,0,8,18,00,00,00,20,00,1A,03,
59208,00000100,false,Rx,0,8,71,00,00,00,20,00,13,3A,
60208,00000120,false,Rx,0,8,3D,00,00,00,90,00,68,F6,
60209,00000110,false,Rx,0,8,06,00,00,00,40,00,31,BD,
61206,00000130,false,Rx,0,8,18,00,00,00,30,00,17,C3,
61207,00000100,false,Rx,0,8,71,00,00,00,30,00,1E,FA,
62206,00000120,false,Rx,0,8,3D,00,00,00,A0,00,7C,F6,
62207,00000110,false,Rx,0,8,1D,00,00,00,50,00,3F,96,
63331,00000130,false,Rx,0,8,18,00,00,00,40,00,32,03,
63332,00000100,false,Rx,0,8,71,00,00,00,40,00,3B,3A,
64332,00000120,false,Rx,0,8,3D,00,00,00,B0,00,71,36,
64333,00000110,false,Rx,0,8,1D,00,00,00,60,00,2B,96,
65332,00000130,false,Rx,0,8,18,00,00,00,50,00,3F,C3,
65333,00000100,false,Rx,0,8,71,00,00,00,50,00,36,FA,
65333,00000140,false,Rx,0,8,01,00,FF,FF,F0,00,45,EE,
65334,00000150,false,Rx,0,4,FD,F4,40,A7,00,00,00,00,
66331,00000120,false,Rx,0,8,3D,00,00,00,C0,00,54,F6,
66332,00000110,false,Rx,0,8,1D,00,00,00,70,00,26,56,
67331,00000130,false,Rx,0,8,F8,FF,FF,FF,60,00,29,93,
67332,00000100,false,Rx,0,8,88,00,00,00,60,00,36,93,
68456,00000120,false,Rx,0,8,59,00,00,00,D0,00,51,12,
68457,00000110,false,Rx,0,8,1D,00,00,00,80,00,62,56,
69456,00000130,false,Rx,0,8,D9,FF,FF,FF,70,00,22,E2,
69457,00000100,false,Rx,0,8,71,00,00,00,70,00,2F,3A,
69458,00000120,false,Rx,0,8,59,00,00,00,E0,00,45,12,
70706,00000110,false,Rx,0,8,1D,00,00,00,90,00,6F,96,
70707,00000050,false,Rx,0,6,40,54,FF,FF,DF,FF,00,00,
70708,00000130,false,Rx,0,8,EB,95,FF,FF,83,80,7B,A9,
71706,00000100,false,Rx,0,8,88,00,00,00,80,00,7F,53,
71707,00000120,false,Rx,0,8,3D,00,00,00,F0,00,40,F6,
72706,00000110,false,Rx,0,8,1D,00,00,00,A0,00,7B,96,
72707,00000130,false,Rx,0,8,95,00,00,00,90,00,71,1E,
73830,00000100,false,Rx,0,8,71,00,00,00,90,00,66,FA,
73831,00000120,false,Rx,0,8,3D,00,00,00,00,00,04,F6,
74831,00000110,false,Rx,0,8,06,00,00,00,B0,00,75,BD,
74832,00000170,false,Rx,0,8,00,00,00,52,50,81,05,F7,
74832,00000130,false,Rx,0,8,F8,FF,FF,FF,A0,00,79,93,
75831,00000100,false,Rx,0,8,71,00,00,00,A0,00,72,FA,
75832,00000120,false,Rx,0,8,20,00,00,00,10,00,0A,BB,
76831,00000110,false,Rx,0,8,06,00,00,00,C0,00,50,7D,
76832,00000130,false,Rx,0,8,F8,FF,FF,FF,B0,00,74,53,
77955,00000100,false,Rx,0,8,71,00,00,00,B0,00,7F,3A,
77956,00000120,false,Rx,0,8,20,00,00,00,20,00,1E,BB,
78956,00000110,false,Rx,0,8,06,00,00,00,D0,00,5D,BD,
78957,00000130,false,Rx,0,8,F8,FF,FF,FF,C0,00,51,93,
79956,00000100,false,Rx,0,8,71,00,00,00,C0,00,5A,FA,
79957,00000120,false,Rx,0,8,59,00,00,00,30,00,18,D2,
80956,00000110,false,Rx,0,8,06,00,00,00,E0,00,49,BD,
80957,00000130,false,Rx,0,8,D9,FF,FF,FF,D0,00,5A,E2,
81956,00000100,false,Rx,0,8,71,00,00,00,D0,00,57,3A,
81957,00000120,false,Rx,0,8,59,00,00,00,40,00,3D,12,
83081,00000110,false,Rx,0,8,34,00,00,00,F0,00,40,6F,
83082,00000130,false,Rx,0,8,D9,FF,FF,FF,E0,00,4E,E2,
84081,00000100,false,Rx,0,8,71,00,00,00,E0,00,43,3A,
84082,00000120,false,Rx,0,8,3D,00,00,00,50,00,38,F6,
85081,00000110,false,Rx,0,8,34,00,00,00,00,00,04,6F,
85082,00000150,false,Rx,0,4,FD,F4,40,A7,00,00,00,00,
85082,00000130,false,Rx,0,8,F8,FF,FF,FF,F0,00,45,93,
86081,00000100,false,Rx,0,8,71,00,00,00,F0,00,4E,FA,
86082,00000140,false,Rx,0,8,01,00,FF,FF,00,00,01,EE,
86082,00000120,false,Rx,0,8,3D,00,00,00,60,00,2C,F6,
87206,00000110,false,Rx,0,8,34,00,00,00,10,00,09,AF,
87207,00000130,false,Rx,0,8,F8,FF,FF,FF,00,00,01,93,
88206,00000100,false,Rx,0,8,5A,00,00,00,00,00,0C,E1,
88207,00000120,false,Rx,0,8,3D,00,00,00,70,00,21,36,
89206,00000110,false,Rx,0,8,34,00,00,00,20,00,1D,AF,
89206,00000130,false,Rx,0,8,F8,FF,FF,FF,10,00,0C,53,
89207,00000100,false,Rx,0,8,71,00,00,00,10,00,07,3A,
90955,00000120,false,Rx,0,8,3D,00,00,00,80,00,65,36,
90956,00000110,false,Rx,0,8,1D,00,00,00,30,00,17,96,
90957,00000050,false,Rx,0,6,40,54,FF,FF,DF,FF,00,00,
91955,00000130,false,Rx,0,8,4C,BA,F5,FF,23,80,CC,A0,
91956,00000100,false,Rx,0,8,5A,00,00,00,20,00,15,21,
93080,00000120,false,Rx,0,8,20,00,00,00,90,00,6B,7B,
93081,00000110,false,Rx,0,8,1D,00,00,00,40,00,32,56,
94079,00000130,false,Rx,0,8,76,00,00,00,30,00,1F,4D,
94080,00000100,false,Rx,0,8,71,00,00,00,30,00,1E,FA,
95204,00000120,false,Rx,0,8,20,00,00,00,A0,00,7F,7B,
95205,00000110,false,Rx,0,8,06,00,00,00,50,00,3C,7D,
96205,00000130,false,Rx,0,8,F8,FF,FF,FF,40,00,30,53,
96206,00000100,false,Rx,0,8,71,00,00,00,40,00,3B,3A,
97206,00000120,false,Rx,0,8,3D,00,00,00,B0,00,71,36,
97206,00000110,false,Rx,0,8,06,00,00,00,60,00,28,7D,
98210,00000130,false,Rx,0,8,D9,FF,FF,FF,50,00,3B,22,
98211,00000100,false,Rx,0,8,71,00,00,00,50,00,36,FA,
99248,00000120,false,Rx,0,8,3D,00,00,00,C0,00,54,F6,
99251,00000110,false,Rx,0,8,1D,00,00,00,70,00,26,56,
100335,00000130,false,Rx,0,8,18,00,00,00,60,00,2B,C3,
100337,00000100,false,Rx,0,8,71,00,00,00,60,00,22,FA,
101336,00000120,false,Rx,0,8,3D,00,00,00,D0,00,59,36,
101338,00000110,false,Rx,0,8,1D,00,00,00,80,00,62,56,
102331,00000130,false,Rx,0,8,18,00,00,00,70,00,26,03,
102332,00000100,false,Rx,0,8,5A,00,00,00,70,00,29,21,
103331,00000120,false,Rx,0,8,3D,00,00,00,E0,00,4D,36,
103332,00000110,false,Rx,0,8,1D,00,00,00,90,00,6F,96,
104459,00000130,false,Rx,0,8,F8,FF,FF,FF,80,00,60,53,
104461,00000100,false,Rx,0,8,71,00,00,00,80,00,6B,3A,
105452,00000120,false,Rx,0,8,3D,00,00,00,F0,00,40,F6,
105452,00000110,false,Rx,0,8,1D,00,00,00,A0,00,7B,96,
105452,00000150,false,Rx,0,4,FD,F4,40,A7,00,00,00,00,
106456,00000130,false,Rx,0,8,18,00,00,00,90,00,6F,C3,
106457,00000100,false,Rx,0,8,71,00,00,00,90,00,66,FA,
106457,00000140,false,Rx,0,8,01,00,FF,FF,10,00,0C,2E,
107450,00000120,false,Rx,0,8,3D,00,00,00,00,00,04,F6,
107451,00000110,false,Rx,0,8,34,00,00,00,B0,00,71,AF,
107451,00000130,false,Rx,0,8,18,00,00,00,A0,00,7B,C3,
108700,00000100,false,Rx,0,8,71,00,00,00,A0,00,72,FA,
108701,00000120,false,Rx,0,8,3D,00,00,00,10,00,09,36,
109826,00000110,false,Rx,0,8,34,00,00,00,C0,00,54,6F,
109826,00000130,false,Rx,0,8,56,00,00,00,B0,00,79,ED,
110825,00000100,false,Rx,0,8,71,00,00,00,B0,00,7F,3A,
110825,00000120,false,Rx,0,8,3D,00,00,00,20,00,1D,36,
110826,00000110,false,Rx,0,8,4B,00,00,00,D0,00,52,60,
111954,00000050,false,Rx,0,6,40,54,FF,FF,DF,FF,00,00,
111955,00000130,false,Rx,0,8,4D,21,00,00,C3,80,E2,91,
111956,00000100,false,Rx,0,8,5A,00,00,00,C0,00,5C,E1,
113580,00000120,false,Rx,0,8,20,00,00,00,30,00,13,7B,
113581,00000110,false,Rx,0,8,4B,00,00,00,E0,00,46,60,
114704,00000130,false,Rx,0,8,D9,FF,FF,FF,D0,00,5A,E2,
114705,00000100,false,Rx,0,8,71,00,00,00,D0,00,57,3A,
115704,00000120,false,Rx,0,8,20,00,00,00,40,00,36,BB,
115704,00000110,false,Rx,0,8,1D,00,00,00,F0,00,47,96,
116704,00000130,false,Rx,0,8,D9,FF,FF,FF,E0,00,4E,E2,
116705,00000100,false,Rx,0,8,71,00,00,00,E0,00,43,3A,
117703,00000120,false,Rx,0,8,3D,00,00,00,50,00,38,F6,
117704,00000110,false,Rx,0,8,1D,00,00,00,00,00,03,96,
118828,00000130,false,Rx,0,8,D9,FF,FF,FF,F0,00,43,22,
118829,00000100,false,Rx,0,8,71,00,00,00,F0,00,4E,FA,
119828,00000120,false,Rx,0,8,3D,00,00,00,60,00,2C,F6,
119829,00000110,false,Rx,0,8,1D,00,00,00,10,00,0E,56,
120829,00000130,false,Rx,0,8,37,00,00,00,00,00,04,5C,
120830,00000100,false,Rx,0,8,5A,00,00,00,00,00,0C,E1,
121827,00000120,false,Rx,0,8,20,00,00,00,70,00,22,BB,
121828,00000110,false,Rx,0,8,1D,00,00,00,20,00,1A,56,
122828,00000130,false,Rx,0,8,F8,FF,FF,FF,10,00,0C,53,
122828,00000100,false,Rx,0,8,71,00,00,00,10,00,07,3A,
123952,00000120,false,Rx,0,8,20,00,00,00,80,00,66,BB,
123953,00000110,false,Rx,0,8,1D,00,00,00,30,00,17,96,
124952,00000130,false,Rx,0,8,D9,FF,FF,FF,20,00,1E,E2,
124953,00000100,false,Rx,0,8,71,00,00,00,20,00,13,3A,
124954,00000150,false,Rx,0,4,FD,F4,40,A7,00,00,00,00,
125952,00000120,false,Rx,0,8,3D,00,00,00,90,00,68,F6,
125953,00000110,false,Rx,0,8,1D,00,00,00,40,00,32,56,
126953,00000130,false,Rx,0,8,18,00,00,00,30,00,17,C3,
126953,00000100,false,Rx,0,8,71,00,00,00,30,00,1E,FA,
126954,00000140,false,Rx,0,8,01,00,FF,FF,20,00,18,2E,
128077,00000120,false,Rx,0,8,3D,00,00,00,A0,00,7C,F6,
128078,00000110,false,Rx,0,8,34,00,00,00,50,00,38,6F,
129077,00000130,false,Rx,0,8,F8,FF,FF,FF,40,00,30,53,
129077,00000100,false,Rx,0,8,71,00,00,00,40,00,3B,3A,
130077,00000120,false,Rx,0,8,3D,00,00,00,B0,00,71,36,
130078,00000110,false,Rx,0,8,34,00,00,00,60,00,2C,6F,
131077,00000130,false,Rx,0,8,37,00,00,00,50,00,38,5C,
131078,00000100,false,Rx,0,8,5A,00,00,00,50,00,30,E1,
131078,00000120,false,Rx,0,8,3D,00,00,00,C0,00,54,F6,
132331,00000110,false,Rx,0,8,4B,00,00,00,70,00,2A,60,
132332,00000050,false,Rx,0,6,40,54,FF,FF,DF,FF,00,00,
132332,00000130,false,Rx,0,8,99,34,03,00,63,80,85,02,
133335,00000100,false,Rx,0,8,71,00,00,00,60,00,22,FA,
133336,00000120,false,Rx,0,8,3D,00,00,00,D0,00,59,36,
134489,00000110,false,Rx,0,8,4B,00,00,00,80,00,6E,60,
134491,00000130,false,Rx,0,8,D9,FF,FF,FF,70,00,22,E2,
135486,00000100,false,Rx,0,8,71,00,00,00,70,00,2F,3A,
135487,00000120,false,Rx,0,8,3D,00,00,00,E0,00,4D,36,
136520,00000110,false,Rx,0,8,06,00,00,00,90,00,6C,7D,
136521,00000130,false,Rx,0,8,F8,FF,FF,FF,80,00,60,53,
137610,00000100,false,Rx,0,8,71,00,00,00,80,00,6B,3A,
137612,00000120,false,Rx,0,8,20,00,00,00,F0,00,43,7B,
138608,00000110,false,Rx,0,8,06,00,00,00,A0,00,78,7D,
138610,00000130,false,Rx,0,8,F8,FF,FF,FF,90,00,6D,93,
139620,00000100,false,Rx,0,8,71,00,00,00,90,00,66,FA,
139621,00000120,false,Rx,0,8,20,00,00,00,00,00,07,7B,
140619,00000110,false,Rx,0,8,1D,00,00,00,B0,00,76,56,
140620,00000130,false,Rx,0,8,F8,FF,FF,FF,A0,00,79,93,
141621,00000100,false,Rx,0,8,71,00,00,00,A0,00,72,FA,
141622,00000120,false,Rx,0,8,3D,00,00,00,10,00,09,36,
142765,00000110,false,Rx,0,8,1D,00,00,00,C0,00,53,96,
142766,00000130,false,Rx,0,8,18,00,00,00,B0,00,76,03,
143722,00000100,false,Rx,0,8,71,00,00,00,B0,00,7F,3A,
143724,00000120,false,Rx,0,8,3D,00,00,00,20,00,1D,36,
144734,00000110,false,Rx,0,8,1D,00,00,00,D0,00,5E,56,
144735,00000150,false,Rx,0,4,FD,F4,40,A7,00,00,00,00,
144737,00000130,false,Rx,0,8,B9,FF,FF,FF,C0,00,5E,82,
145835,00000100,false,Rx,0,8,5A,00,00,00,C0,00,5C,E1,
145837,00000120,false,Rx,0,8,3D,00,00,00,30,00,10,F6,
145837,00000110,false,Rx,0,8,1D,00,00,00,E0,00,4A,56,
147607,00000130,false,Rx,0,8,F8,FF,FF,FF,D0,00,5C,53,
147609,00000100,false,Rx,0,8,71,00,00,00,D0,00,57,3A,
147609,00000140,false,Rx,0,8,01,00,FF,FF,30,00,15,EE,
148609,00000120,false,Rx,0,8,3D,00,00,00,40,00,35,36,
148611,00000110,false,Rx,0,8,34,00,00,00,F0,00,40,6F,
149609,00000130,false,Rx,0,8,F8,FF,FF,FF,E0,00,48,53,
149610,00000100,false,Rx,0,8,71,00,00,00,E0,00,43,3A,
150734,00000120,false,Rx,0,8,3D,00,00,00,50,00,38,F6,
150735,00000110,false,Rx,0,8,34,00,00,00,00,00,04,6F,
151734,00000130,false,Rx,0,8,18,00,00,00,F0,00,47,C3,
151736,00000100,false,Rx,0,8,71,00,00,00,F0,00,4E,FA,
151736,00000120,false,Rx,0,8,3D,00,00,00,60,00,2C,F6,
152986,00000110,false,Rx,0,8,1D,00,00,00,10,00,0E,56,
152987,00000050,false,Rx,0,6,40,54,FF,FF,DF,FF,00,00,
152988,00000130,false,Rx,0,8,EB,95,FF,FF,03,80,1A,69,
153984,00000100,false,Rx,0,8,71,00,00,00,00,00,0A,FA,
153985,00000120,false,Rx,0,8,3D,00,00,00,70,00,21,36,
154985,00000110,false,Rx,0,8,1D,00,00,00,20,00,1A,56,
154987,00000130,false,Rx,0,8,76,00,00,00,10,00,06,8D,
156110,00000100,false,Rx,0,8,71,00,00,00,10,00,07,3A,
156112,00000120,false,Rx,0,8,3D,00,00,00,80,00,65,36,
157142,00000110,false,Rx,0,8,06,00,00,00,30,00,14,7D,
157144,00000130,false,Rx,0,8,D9,FF,FF,FF,20,00,1E,E2,
158119,00000100,false,Rx,0,8,71,00,00,00,20,00,13,3A,
158120,00000120,false,Rx,0,8,20,00,00,00,90,00,6B,7B,
159120,00000110,false,Rx,0,8,06,00,00,00,40,00,31,BD,
159121,00000130,false,Rx,0,8,18,00,00,00,30,00,17,C3,
160244,00000100,false,Rx,0,8,71,00,00,00,30,00,1E,FA,
160245,00000120,false,Rx,0,8,20,00,00,00,A0,00,7F,7B,
161244,00000110,false,Rx,0,8,1D,00,00,00,50,00,3F,96,
161245,00000130,false,Rx,0,8,F8,FF,FF,FF,40,00,30,53,
162244,00000100,false,Rx,0,8,71,00,00,00,40,00,3B,3A,
162245,00000120,false,Rx,0,8,3D,00,00,00,B0,00,71,36,
163318,00000110,false,Rx,0,8,1D,00,00,00,60,00,2B,96,
163318,00000130,false,Rx,0,8,F8,FF,FF,FF,50,00,3D,93,
164235,00000100,false,Rx,0,8,71,00,00,00,50,00,36,FA,
164236,00000120,false,Rx,0,8,3D,00,00,00,C0,00,54,F6,
165357,00000110,false,Rx,0,8,1D,00,00,00,70,00,26,56,
165358,00000150,false,Rx,0,4,FD,F4,40,A7,00,00,00,00,
165359,00000130,false,Rx,0,8,F8,FF,FF,FF,60,00,29,93,
166369,00000100,false,Rx,0,8,71,00,00,00,60,00,22,FA,
166370,00000135,false,Rx,0,8,AD,00,00,00,C0,00,49,A6,
167370,00000110,false,Rx,0,8,1D,00,00,00,80,00,62,56,
167371,00000130,false,Rx,0,8,F8,FF,FF,FF,70,00,24,53,
168368,00000100,false,Rx,0,8,71,00,00,00,70,00,2F,3A,
168369,00000140,false,Rx,0,8,01,00,FF,FF,40,00,30,2E,
168370,00000120,false,Rx,0,8,3D,00,00,00,D0,00,59,36,
169495,00000110,false,Rx,0,8,34,00,00,00,90,00,68,6F,
169496,00000130,false,Rx,0,8,F8,FF,FF,FF,80,00,60,53,
170494,00000100,false,Rx,0,8,71,00,00,00,80,00,6B,3A,
170495,00000120,false,Rx,0,8,3D,00,00,00,E0,00,4D,36,
171492,00000110,false,Rx,0,8,34,00,00,00,A0,00,7C,6F,
171494,00000130,false,Rx,0,8,18,00,00,00,90,00,6F,C3,
172494,00000100,false,Rx,0,8,88,00,00,00,90,00,72,93,
172495,00000120,false,Rx,0,8,3D,00,00,00,F0,00,40,F6,
172495,00000110,false,Rx,0,8,06,00,00,00,B0,00,75,BD,
173744,00000050,false,Rx,0,6,40,54,FF,FF,DF,FF,00,00,
173745,00000130,false,Rx,0,8,2C,BA,F5,FF,A3,80,A4,C0,
173746,00000100,false,Rx,0,8,71,00,00,00,A0,00,72,FA,
175388,00000120,false,Rx,0,8,20,00,00,00,00,00,07,7B,
175390,00000110,false,Rx,0,8,06,00,00,00,C0,00,50,7D,
176363,00000130,false,Rx,0,8,95,00,00,00,B0,00,68,DE,
176365,00000100,false,Rx,0,8,71,00,00,00,B0,00,7F,3A,
177366,00000120,false,Rx,0,8,20,00,00,00,10,00,0A,BB,
177367,00000110,false,Rx,0,8,1D,00,00,00,D0,00,5E,56,
177377,00000170,false,Rx,0,8,00,00,00,53,50,81,05,6A,
178511,00000130,false,Rx,0,8,F8,FF,FF,FF,C0,00,51,93,
178513,00000100,false,Rx,0,8,71,00,00,00,C0,00,5A,FA,
179512,00000120,false,Rx,0,8,20,00,00,00,20,00,1E,BB,
179514,00000110,false,Rx,0,8,1D,00,00,00,E0,00,4A,56,
180485,00000130,false,Rx,0,8,D9,FF,FF,FF,D0,00,5A,E2,
180487,00000100,false,Rx,0,8,71,00,00,00,D0,00,57,3A,
181482,00000120,false,Rx,0,8,20,00,00,00,30,00,13,7B,
181484,00000110,false,Rx,0,8,06,00,00,00,F0,00,44,7D,
182608,00000130,false,Rx,0,8,18,00,00,00,E0,00,4A,03,
182610,00000100,false,Rx,0,8,5A,00,00,00,E0,00,45,21,
183612,00000120,false,Rx,0,8,59,00,00,00,40,00,3D,12,
183614,00000110,false,Rx,0,8,06,00,00,00,00,00,00,7D,
184637,00000130,false,Rx,0,8,F8,FF,FF,FF,F0,00,45,93,
184639,00000100,false,Rx,0,8,71,00,00,00,F0,00,4E,FA,
184640,00000150,false,Rx,0,4,FD,F4,40,A7,00,00,00,00,
185617,00000120,false,Rx,0,8,59,00,00,00,50,00,30,D2,
185619,00000110,false,Rx,0,8,1D,00,00,00,10,00,0E,56,
186708,00000130,false,Rx,0,8,18,00,00,00,00,00,03,C3,
186709,00000100,false,Rx,0,8,5A,00,00,00,00,00,0C,E1,
187761,00000120,false,Rx,0,8,59,00,00,00,60,00,24,D2,
187762,00000110,false,Rx,0,8,1D,00,00,00,20,00,1A,56,
188739,00000130,false,Rx,0,8,18,00,00,00,10,00,0E,03,
188740,00000100,false,Rx,0,8,71,00,00,00,10,00,07,3A,
188741,00000140,false,Rx,0,8,01,00,FF,FF,50,00,3D,EE,
189751,00000120,false,Rx,0,8,59,00,00,00,70,00,29,12,
189752,00000110,false,Rx,0,8,34,00,00,00,30,00,10,6F,
190720,00000130,false,Rx,0,8,F8,FF,FF,FF,20,00,18,53,
190721,00000100,false,Rx,0,8,71,00,00,00,20,00,13,3A,
191862,00000120,false,Rx,0,8,20,00,00,00,80,00,66,BB,
191872,00000110,false,Rx,0,8,34,00,00,00,40,00,35,AF,
192871,00000130,false,Rx,0,8,56,00,00,00,30,00,18,2D,
192873,00000100,false,Rx,0,8,5A,00,00,00,30,00,18,E1,
192874,00000120,false,Rx,0,8,20,00,00,00,90,00,6B,7B,
194136,00000110,false,Rx,0,8,34,00,00,00,50,00,38,6F,
194138,00000050,false,Rx,0,6,40,54,FF,FF,DF,FF,00,00,
194138,00000130,false,Rx,0,8,4D,21,00,00,43,80,83,51,
195142,00000100,false,Rx,0,8,71,00,00,00,40,00,3B,3A,
195143,00000120,false,Rx,0,8,20,00,00,00,A0,00,7F,7B,
196083,00000110,false,Rx,0,8,34,00,00,00,60,00,2C,6F,
196085,00000130,false,Rx,0,8,D9,FF,FF,FF,50,00,3B,22,
197262,00000100,false,Rx,0,8,71,00,00,00,50,00,36,FA,
197263,00000120,false,Rx,0,8,20,00,00,00,B0,00,72,BB,
198262,00000110,false,Rx,0,8,06,00,00,00,70,00,25,BD,
198263,00000130,false,Rx,0,8,F8,FF,FF,FF,60,00,29,93,
199240,00000100,false,Rx,0,8,71,00,00,00,60,00,22,FA,
199241,00000120,false,Rx,0,8,3D,00,00,00,C0,00,54,F6,
200249,00000110,false,Rx,0,8,06,00,00,00,80,00,61,BD,
200250,00000130,false,Rx,0,8,18,00,00,00,70,00,26,03,
201386,00000100,false,Rx,0,8,71,00,00,00,70,00,2F,3A,
201387,00000120,false,Rx,0,8,3D,00,00,00,D0,00,59,36,
202384,00000110,false,Rx,0,8,1D,00,00,00,90,00,6F,96,
202385,00000130,false,Rx,0,8,F8,FF,FF,FF,80,00,60,53,
203363,00000100,false,Rx,0,8,71,00,00,00,80,00,6B,3A,
203365,00000120,false,Rx,0,8,3D,00,00,00,E0,00,4D,36,
204367,00000110,false,Rx,0,8,1D,00,00,00,A0,00,7B,96,
204368,00000130,false,Rx,0,8,18,00,00,00,90,00,6F,C3,
205357,00000100,false,Rx,0,8,71,00,00,00,90,00,66,FA,
205358,00000150,false,Rx,0,4,FD,F4,40,A7,00,00,00,00,
205359,00000120,false,Rx,0,8,3D,00,00,00,F0,00,40,F6,
206511,00000110,false,Rx,0,8,1D,00,00,00,B0,00,76,56,
206512,00000130,false,Rx,0,8,F8,FF,FF,FF,A0,00,79,93,
207516,00000100,false,Rx,0,8,71,00,00,00,A0,00,72,FA,
207517,00000120,false,Rx,0,8,59,00,00,00,00,00,0C,D2,
208490,00000110,false,Rx,0,8,1D,00,00,00,C0,00,53,96,
208491,00000130,false,Rx,0,8,D9,FF,FF,FF,B0,00,72,E2,
209498,00000100,false,Rx,0,8,71,00,00,00,B0,00,7F,3A,
209499,00000140,false,Rx,0,8,01,00,FF,FF,60,00,29,EE,
209500,00000120,false,Rx,0,8,59,00,00,00,10,00,01,12,
210487,00000110,false,Rx,0,8,1D,00,00,00,D0,00,5E,56,
210488,00000130,false,Rx,0,8,F8,FF,FF,FF,C0,00,51,93,
211606,00000100,false,Rx,0,8,88,00,00,00,C0,00,4E,93,
211607,00000120,false,Rx,0,8,3D,00,00,00,20,00,1D,36,
212615,00000110,false,Rx,0,8,1D,00,00,00,E0,00,4A,56,
212616,00000130,false,Rx,0,8,18,00,00,00,D0,00,5E,03,
213615,00000100,false,Rx,0,8,71,00,00,00,D0,00,57,3A,
213616,00000120,false,Rx,0,8,3D,00,00,00,30,00,10,F6,
213617,00000110,false,Rx,0,8,34,00,00,00,F0,00,40,6F,
214859,00000050,false,Rx,0,6,40,54,FF,FF,DF,FF,00,00,
214860,00000130,false,Rx,0,8,B8,34,03,00,E3,80,E2,73,
214861,00000100,false,Rx,0,8,71,00,00,00,E0,00,43,3A,
216511,00000120,false,Rx,0,8,3D,00,00,00,40,00,35,36,
216513,00000110,false,Rx,0,8,34,00,00,00,00,00,04,6F,
217490,00000130,false,Rx,0,8,D9,FF,FF,FF,F0,00,43,22,
217491,00000100,false,Rx,0,8,71,00,00,00,F0,00,4E,FA,
218487,00000120,false,Rx,0,8,3D,00,00,00,50,00,38,F6,
218489,00000110,false,Rx,0,8,06,00,00,00,10,00,0D,BD,
219637,00000130,false,Rx,0,8,18,00,00,00,00,00,03,C3,
219638,00000100,false,Rx,0,8,71,00,00,00,00,00,0A,FA,
220636,00000120,false,Rx,0,8,3D,00,00,00,60,00,2C,F6,
220637,00000110,false,Rx,0,8,06,00,00,00,20,00,19,BD,
221614,00000130,false,Rx,0,8,F8,FF,FF,FF,10,00,0C,53,
221615,00000100,false,Rx,0,8,5A,00,00,00,10,00,01,21,
222614,00000120,false,Rx,0,8,3D,00,00,00,70,00,21,36,
222615,00000110,false,Rx,0,8,34,00,00,00,30,00,10,6F,
223604,00000130,false,Rx,0,8,F8,FF,FF,FF,20,00,18,53,
223606,00000100,false,Rx,0,8,5A,00,00,00,20,00,15,21,
224760,00000120,false,Rx,0,8,3D,00,00,00,80,00,65,36,
224762,00000110,false,Rx,0,8,34,00,00,00,40,00,35,AF,
224762,00000150,false,Rx,0,4,FD,F4,40,A7,00,00,00,00,
225740,00000130,false,Rx,0,8,D9,FF,FF,FF,30,00,13,22,
225742,00000100,false,Rx,0,8,71,00,00,00,30,00,1E,FA,
226747,00000120,false,Rx,0,8,3D,00,00,00,90,00,68,F6,
226749,00000110,false,Rx,0,8,1D,00,00,00,50,00,3F,96,
227736,00000130,false,Rx,0,8,F8,FF,FF,FF,40,00,30,53,
227738,00000100,false,Rx,0,8,71,00,00,00,40,00,3B,3A,
228857,00000120,false,Rx,0,8,3D,00,00,00,A0,00,7C,F6,
228859,00000110,false,Rx,0,8,1D,00,00,00,60,00,2B,96,
229873,00000130,false,Rx,0,8,F8,FF,FF,FF,50,00,3D,93,
229875,00000100,false,Rx,0,8,71,00,00,00,50,00,36,FA,
229875,00000140,false,Rx,0,8,01,00,FF,FF,70,00,24,2E,
230867,00000120,false,Rx,0,8,3D,00,00,00,B0,00,71,36,
230868,00000110,false,Rx,0,8,34,00,00,00,70,00,21,AF,
231856,00000130,false,Rx,0,8,18,00,00,00,60,00,2B,C3,
231858,00000100,false,Rx,0,8,71,00,00,00,60,00,22,FA,
232988,00000120,false,Rx,0,8,20,00,00,00,C0,00,57,7B,
232989,00000110,false,Rx,0,8,34,00,00,00,80,00,65,AF,
234014,00000130,false,Rx,0,8,D9,FF,FF,FF,70,00,22,E2,
234015,00000100,false,Rx,0,8,71,00,00,00,70,00,2F,3A,
234016,00000120,false,Rx,0,8,20,00,00,00,D0,00,5A,BB,
235240,00000110,false,Rx,0,8,1D,00,00,00,90,00,6F,96,
235242,00000050,false,Rx,0,6,40,54,FF,FF,DF,FF,00,00,
235242,00000130,false,Rx,0,8,EB,95,FF,FF,83,80,7B,A9,
236237,00000100,false,Rx,0,8,71,00,00,00,80,00,6B,3A,
236239,00000120,false,Rx,0,8,3D,00,00,00,E0,00,4D,36,
237239,00000110,false,Rx,0,8,1D,00,00,00,A0,00,7B,96,
237240,00000130,false,Rx,0,8,76,00,00,00,90,00,67,4D,
238386,00000100,false,Rx,0,8,71,00,00,00,90,00,66,FA,
238387,00000120,false,Rx,0,8,3D,00,00,00,F0,00,40,F6,
239391,00000110,false,Rx,0,8,1D,00,00,00,B0,00,76,56,
239393,00000130,false,Rx,0,8,F8,FF,FF,FF,A0,00,79,93,
240391,00000100,false,Rx,0,8,71,00,00,00,A0,00,72,FA,
240393,00000160,false,Rx,0,4,00,00,00,0E,00,00,00,00,
240393,00000120,false,Rx,0,8,3D,00,00,00,00,00,04,F6,
241357,00000110,false,Rx,0,8,1D,00,00,00,C0,00,53,96,
241358,00000130,false,Rx,0,8,D9,FF,FF,FF,B0,00,72,E2,
242510,00000100,false,Rx,0,8,5A,00,00,00,B0,00,79,21,
242512,00000120,false,Rx,0,8,3D,00,00,00,10,00,09,36,
243511,00000110,false,Rx,0,8,1D,00,00,00,D0,00,5E,56,
243512,00000130,false,Rx,0,8,F8,FF,FF,FF,C0,00,51,93,
244489,00000100,false,Rx,0,8,71,00,00,00,C0,00,5A,FA,
244490,00000120,false,Rx,0,8,3D,00,00,00,20,00,1D,36,
245495,00000110,false,Rx,0,8,1D,00,00,00,E0,00,4A,56,
245497,00000150,false,Rx,0,4,FD,F4,40,A7,00,00,00,00,
245497,00000130,false,Rx,0,8,37,00,00,00,D0,00,59,9C,
246479,00000100,false,Rx,0,8,71,00,00,00,D0,00,57,3A,
246480,00000120,false,Rx,0,8,3D,00,00,00,30,00,10,F6,
247633,00000110,false,Rx,0,8,34,00,00,00,F0,00,40,6F,
247635,00000130,false,Rx,0,8,F8,FF,FF,FF,E0,00,48,53,
248633,00000100,false,Rx,0,8,71,00,00,00,E0,00,43,3A,
248634,00000120,false,Rx,0,8,3D,00,00,00,40,00,35,36,
249609,00000110,false,Rx,0,8,34,00,00,00,00,00,04,6F,
249610,00000130,false,Rx,0,8,37,00,00,00,F0,00,40,5C,
250613,00000100,false,Rx,0,8,71,00,00,00,F0,00,4E,FA,
250615,00000140,false,Rx,0,8,01,00,FF,FF,80,00,60,2E,
250615,00000120,false,Rx,0,8,3D,00,00,00,50,00,38,F6,
251763,00000110,false,Rx,0,8,1D,00,00,00,10,00,0E,56,
251764,00000130,false,Rx,0,8,F8,FF,FF,FF,00,00,01,93,
252770,00000100,false,Rx,0,8,71,00,00,00,00,00,0A,FA,
252771,00000120,false,Rx,0,8,3D,00,00,00,60,00,2C,F6,
253739,00000110,false,Rx,0,8,1D,00,00,00,20,00,1A,56,
253740,00000130,false,Rx,0,8,F8,FF,FF,FF,10,00,0C,53,
254731,00000100,false,Rx,0,8,71,00,00,00,10,00,07,3A,
254732,00000120,false,Rx,0,8,3D,00,00,00,70,00,21,36,
254732,00000110,false,Rx,0,8,1D,00,00,00,30,00,17,96,
255988,00000050,false,Rx,0,6,40,54,FF,FF,DF,FF,00,00,
255989,00000130,false,Rx,0,8,4C,BA,F5,FF,23,80,CC,A0,
255990,00000100,false,Rx,0,8,71,00,00,00,20,00,13,3A,
257633,00000120,false,Rx,0,8,3D,00,00,00,80,00,65,36,
257634,00000110,false,Rx,0,8,1D,00,00,00,40,00,32,56,
258614,00000130,false,Rx,0,8,76,00,00,00,30,00,1F,4D,
258616,00000100,false,Rx,0,8,71,00,00,00,30,00,1E,FA,
259608,00000120,false,Rx,0,8,3D,00,00,00,90,00,68,F6,
259609,00000110,false,Rx,0,8,1D,00,00,00,50,00,3F,96,
260764,00000130,false,Rx,0,8,F8,FF,FF,FF,40,00,30,53,
260766,00000100,false,Rx,0,8,71,00,00,00,40,00,3B,3A,
261762,00000120,false,Rx,0,8,3D,00,00,00,A0,00,7C,F6,
261764,00000110,false,Rx,0,8,1D,00,00,00,60,00,2B,96,
262738,00000130,false,Rx,0,8,D9,FF,FF,FF,50,00,3B,22,
262739,00000100,false,Rx,0,8,71,00,00,00,50,00,36,FA,
263739,00000120,false,Rx,0,8,3D,00,00,00,B0,00,71,36,
263741,00000110,false,Rx,0,8,06,00,00,00,70,00,25,BD,
264731,00000130,false,Rx,0,8,D9,FF,FF,FF,60,00,2F,22,
264733,00000100,false,Rx,0,8,71,00,00,00,60,00,22,FA,
264733,00000150,false,Rx,0,4,FD,F4,40,A7,00,00,00,00,
265863,00000120,false,Rx,0,8,3D,00,00,00,C0,00,54,F6,
265864,00000110,false,Rx,0,8,06,00,00,00,80,00,61,BD,
266863,00000130,false,Rx,0,8,18,00,00,00,70,00,26,03,
266865,00000100,false,Rx,0,8,71,00,00,00,70,00,2F,3A,
267864,00000120,false,Rx,0,8,3D,00,00,00,D0,00,59,36,
267865,00000110,false,Rx,0,8,34,00,00,00,90,00,68,6F,
268857,00000130,false,Rx,0,8,D9,FF,FF,FF,80,00,66,E2,
268858,00000100,false,Rx,0,8,71,00,00,00,80,00,6B,3A,
269988,00000120,false,Rx,0,8,3D,00,00,00,E0,00,4D,36,
269989,00000110,false,Rx,0,8,34,00,00,00,A0,00,7C,6F,
270979,00000130,false,Rx,0,8,F8,FF,FF,FF,90,00,6D,93,
270981,00000100,false,Rx,0,8,71,00,00,00,90,00,66,FA,
270981,00000140,false,Rx,0,8,01,00,FF,FF,90,00,6D,EE,
271981,00000120,false,Rx,0,8,3D,00,00,00,F0,00,40,F6,
271983,00000110,false,Rx,0,8,1D,00,00,00,B0,00,76,56,
272983,00000130,false,Rx,0,8,F8,FF,FF,FF,A0,00,79,93,
272984,00000100,false,Rx,0,8,71,00,00,00,A0,00,72,FA,
274134,00000120,false,Rx,0,8,20,00,00,00,00,00,07,7B,
274136,00000110,false,Rx,0,8,1D,00,00,00,C0,00,53,96,
275139,00000130,false,Rx,0,8,56,00,00,00,B0,00,79,ED,
275140,00000100,false,Rx,0,8,5A,00,00,00,B0,00,79,21,
275141,00000120,false,Rx,0,8,20,00,00,00,10,00,0A,BB,
276363,00000110,false,Rx,0,8,34,00,00,00,D0,00,59,AF,
276364,00000050,false,Rx,0,6,40,54,FF,FF,DF,FF,00,00,
276366,00000130,false,Rx,0,8,4D,21,00,00,C3,80,E2,91,
277389,00000100,false,Rx,0,8,71,00,00,00,C0,00,5A,FA,
277391,00000120,false,Rx,0,8,20,00,00,00,20,00,1E,BB,
278365,00000110,false,Rx,0,8,34,00,00,00,E0,00,4D,AF,
278366,00000130,false,Rx,0,8,F8,FF,FF,FF,D0,00,5C,53,
279509,00000100,false,Rx,0,8,88,00,00,00,D0,00,43,53,
279510,00000120,false,Rx,0,8,20,00,00,00,30,00,13,7B,
280512,00000110,false,Rx,0,8,06,00,00,00,F0,00,44,7D,
280514,00000170,false,Rx,0,8,00,00,00,54,50,81,05,9E,
280514,00000130,false,Rx,0,8,F8,FF,FF,FF,E0,00,48,53,
281488,00000100,false,Rx,0,8,71,00,00,00,E0,00,43,3A,
281489,00000120,false,Rx,0,8,20,00,00,00,40,00,36,BB,
282480,00000110,false,Rx,0,8,06,00,00,00,00,00,00,7D,
282481,00000130,false,Rx,0,8,F8,FF,FF,FF,F0,00,45,93,
283639,00000100,false,Rx,0,8,5A,00,00,00,F0,00,48,E1,
283641,00000120,false,Rx,0,8,20,00,00,00,50,00,3B,7B,
284640,00000110,false,Rx,0,8,1D,00,00,00,10,00,0E,56,
284641,00000130,false,Rx,0,8,F8,FF,FF,FF,00,00,01,93,
285616,00000100,false,Rx,0,8,5A,00,00,00,00,00,0C,E1,
285617,00000150,false,Rx,0,4,FD,F4,40,A7,00,00,00,00,
285618,00000120,false,Rx,0,8,3D,00,00,00,60,00,2C,F6,
286613,00000110,false,Rx,0,8,1D,00,00,00,20,00,1A,56,
286615,00000130,false,Rx,0,8,18,00,00,00,10,00,0E,03,
287603,00000100,false,Rx,0,8,71,00,00,00,10,00,07,3A,
287604,00000120,false,Rx,0,8,3D,00,00,00,70,00,21,36,
288757,00000110,false,Rx,0,8,34,00,00,00,30,00,10,6F,
288758,00000130,false,Rx,0,8,18,00,00,00,20,00,1A,03,
289761,00000100,false,Rx,0,8,71,00,00,00,20,00,13,3A,
289763,00000120,false,Rx,0,8,3D,00,00,00,80,00,65,36,
290735,00000110,false,Rx,0,8,34,00,00,00,40,00,35,AF,
290736,00000130,false,Rx,0,8,F8,FF,FF,FF,30,00,15,93,
291732,00000100,false,Rx,0,8,71,00,00,00,30,00,1E,FA,
291733,00000140,false,Rx,0,8,01,00,FF,FF,A0,00,79,EE,
291734,00000120,false,Rx,0,8,3D,00,00,00,90,00,68,F6,
292856,00000110,false,Rx,0,8,06,00,00,00,50,00,3C,7D,
292857,00000130,false,Rx,0,8,B9,FF,FF,FF,40,00,3F,42,
293856,00000100,false,Rx,0,8,71,00,00,00,40,00,3B,3A,
293857,00000120,false,Rx,0,8,3D,00,00,00,A0,00,7C,F6,
294865,00000110,false,Rx,0,8,06,00,00,00,60,00,28,7D,
294867,00000130,false,Rx,0,8,F8,FF,FF,FF,50,00,3D,93,
295875,00000100,false,Rx,0,8,5A,00,00,00,50,00,30,E1,
295876,00000120,false,Rx,0,8,3D,00,00,00,B0,00,71,36,
295876,00000110,false,Rx,0,8,4B,00,00,00,70,00,2A,60,
297104,00000050,false,Rx,0,6,40,54,FF,FF,DF,FF,00,00,
297105,00000130,false,Rx,0,8,D8,34,03,00,63,80,8A,13,
297105,00000100,false,Rx,0,8,71,00,00,00,60,00,22,FA,
298762,00000120,false,Rx,0,8,20,00,00,00,C0,00,57,7B,
298763,00000110,false,Rx,0,8,4B,00,00,00,80,00,6E,60,
299737,00000130,false,Rx,0,8,18,00,00,00,70,00,26,03,
299739,00000100,false,Rx,0,8,71,00,00,00,70,00,2F,3A,
300728,00000120,false,Rx,0,8,20,00,00,00,D0,00,5A,BB,
300729,00000110,false,Rx,0,8,06,00,00,00,90,00,6C,7D,
301860,00000130,false,Rx,0,8,D9,FF,FF,FF,80,00,66,E2,
301862,00000100,false,Rx,0,8,71,00,00,00,80,00,6B,3A,
302848,00000120,false,Rx,0,8,59,00,00,00,E0,00,45,12,
302849,00000110,false,Rx,0,8,06,00,00,00,A0,00,78,7D,
303855,00000130,false,Rx,0,8,F8,FF,FF,FF,90,00,6D,93,
303856,00000100,false,Rx,0,8,5A,00,00,00,90,00,60,E1,
304855,00000120,false,Rx,0,8,59,00,00,00,F0,00,48,D2,
304857,00000110,false,Rx,0,8,1D,00,00,00,B0,00,76,56,
304857,00000150,false,Rx,0,4,FD,F4,40,A7,00,00,00,00,
305855,00000130,false,Rx,0,8,18,00,00,00,A0,00,7B,C3,
305856,00000100,false,Rx,0,8,5A,00,00,00,A0,00,74,E1,
306981,00000120,false,Rx,0,8,3D,00,00,00,00,00,04,F6,
306983,00000110,false,Rx,0,8,1D,00,00,00,C0,00,53,96,
307982,00000130,false,Rx,0,8,18,00,00,00,B0,00,76,03,
307983,00000100,false,Rx,0,8,71,00,00,00,B0,00,7F,3A,
308980,00000120,false,Rx,0,8,3D,00,00,00,10,00,09,36,
308981,00000110,false,Rx,0,8,1D,00,00,00,D0,00,5E,56,
309980,00000130,false,Rx,0,8,F8,FF,FF,FF,C0,00,51,93,
309982,00000100,false,Rx,0,8,71,00,00,00,C0,00,5A,FA,
311105,00000120,false,Rx,0,8,3D,00,00,00,20,00,1D,36,
311106,00000110,false,Rx,0,8,1D,00,00,00,E0,00,4A,56,
312105,00000130,false,Rx,0,8,F8,FF,FF,FF,D0,00,5C,53,
312107,00000100,false,Rx,0,8,71,00,00,00,D0,00,57,3A,
312108,00000140,false,Rx,0,8,01,00,FF,FF,B0,00,74,2E,
313105,00000120,false,Rx,0,8,3D,00,00,00,30,00,10,F6,
313106,00000110,false,Rx,0,8,06,00,00,00,F0,00,44,7D,
314106,00000130,false,Rx,0,8,18,00,00,00,E0,00,4A,03,
314107,00000100,false,Rx,0,8,71,00,00,00,E0,00,43,3A,
315232,00000120,false,Rx,0,8,3D,00,00,00,40,00,35,36,
315233,00000110,false,Rx,0,8,06,00,00,00,00,00,00,7D,
316232,00000130,false,Rx,0,8,F8,FF,FF,FF,F0,00,45,93,
316233,00000100,false,Rx,0,8,71,00,00,00,F0,00,4E,FA,
316234,00000120,false,Rx,0,8,3D,00,00,00,50,00,38,F6,
317481,00000110,false,Rx,0,8,06,00,00,00,10,00,0D,BD,
317482,00000050,false,Rx,0,6,40,54,FF,FF,DF,FF,00,00,
317483,00000130,false,Rx,0,8,EB,95,FF,FF,03,80,1A,69,
318480,00000100,false,Rx,0,8,71,00,00,00,00,00,0A,FA,
318482,00000120,false,Rx,0,8,20,00,00,00,60,00,2F,7B,
319484,00000110,false,Rx,0,8,06,00,00,00,20,00,19,BD,
319485,00000130,false,Rx,0,8,95,00,00,00,10,00,10,DE,
320481,00000100,false,Rx,0,8,71,00,00,00,10,00,07,3A,
320482,00000120,false,Rx,0,8,20,00,00,00,70,00,22,BB,
321607,00000110,false,Rx,0,8,1D,00,00,00,30,00,17,96,
321609,00000130,false,Rx,0,8,F8,FF,FF,FF,20,00,18,53,
322603,00000100,false,Rx,0,8,71,00,00,00,20,00,13,3A,
322605,00000120,false,Rx,0,8,59,00,00,00,80,00,6D,12,
323606,00000110,false,Rx,0,8,1D,00,00,00,40,00,32,56,
323608,00000130,false,Rx,0,8,18,00,00,00,30,00,17,C3,
324731,00000100,false,Rx,0,8,71,00,00,00,30,00,1E,FA,
324732,00000120,false,Rx,0,8,59,00,00,00,90,00,60,D2,
325732,00000110,false,Rx,0,8,1D,00,00,00,50,00,3F,96,
325733,00000150,false,Rx,0,4,FD,F4,40,A7,00,00,00,00,
325734,00000130,false,Rx,0,8,18,00,00,00,40,00,32,03,
326732,00000100,false,Rx,0,8,71,00,00,00,40,00,3B,3A,
326733,00000120,false,Rx,0,8,59,00,00,00,A0,00,74,D2,
327733,00000110,false,Rx,0,8,1D,00,00,00,60,00,2B,96,
327734,00000130,false,Rx,0,8,F8,FF,FF,FF,50,00,3D,93,
328731,00000100,false,Rx,0,8,71,00,00,00,50,00,36,FA,
328733,00000120,false,Rx,0,8,59,00,00,00,B0,00,79,12,
329854,00000110,false,Rx,0,8,1D,00,00,00,70,00,26,56,
329856,00000130,false,Rx,0,8,37,00,00,00,60,00,2C,5C,
330857,00000100,false,Rx,0,8,71,00,00,00,60,00,22,FA,
330858,00000120,false,Rx,0,8,3D,00,00,00,C0,00,54,F6,
331856,00000110,false,Rx,0,8,1D,00,00,00,80,00,62,56,
331858,00000130,false,Rx,0,8,18,00,00,00,70,00,26,03,
332855,00000100,false,Rx,0,8,71,00,00,00,70,00,2F,3A,
332856,00000140,false,Rx,0,8,01,00,FF,FF,C0,00,51,EE,
332857,00000120,false,Rx,0,8,3D,00,00,00,D0,00,59,36,
333981,00000110,false,Rx,0,8,1D,00,00,00,90,00,6F,96,
333983,00000130,false,Rx,0,8,F8,FF,FF,FF,80,00,60,53,
334980,00000100,false,Rx,0,8,71,00,00,00,80,00,6B,3A,
334982,00000120,false,Rx,0,8,3D,00,00,00,E0,00,4D,36,
335977,00000110,false,Rx,0,8,1D,00,00,00,A0,00,7B,96,
335979,00000130,false,Rx,0,8,F8,FF,FF,FF,90,00,6D,93,
336979,00000100,false,Rx,0,8,71,00,00,00,90,00,66,FA,
336980,00000120,false,Rx,0,8,3D,00,00,00,F0,00,40,F6,
336981,00000110,false,Rx,0,8,06,00,00,00,B0,00,75,BD,
338231,00000050,false,Rx,0,6,40,54,FF,FF,DF,FF,00,00,
338233,00000130,false,Rx,0,8,4C,BA,F5,FF,A3,80,AD,60,
338234,00000100,false,Rx,0,8,71,00,00,00,A0,00,72,FA,
339856,00000120,false,Rx,0,8,3D,00,00,00,00,00,04,F6,
339858,00000110,false,Rx,0,8,06,00,00,00,C0,00,50,7D,
340857,00000130,false,Rx,0,8,76,00,00,00,B0,00,7E,8D,
340858,00000100,false,Rx,0,8,71,00,00,00,B0,00,7F,3A,
341856,00000120,false,Rx,0,8,3D,00,00,00,10,00,09,36,
341858,00000110,false,Rx,0,8,1D,00,00,00,D0,00,5E,56,
342980,00000130,false,Rx,0,8,18,00,00,00,C0,00,53,C3,
342982,00000100,false,Rx,0,8,71,00,00,00,C0,00,5A,FA,
343981,00000120,false,Rx,0,8,59,00,00,00,20,00,15,12,
343982,00000110,false,Rx,0,8,1D,00,00,00,E0,00,4A,56,
344983,00000130,false,Rx,0,8,18,00,00,00,D0,00,5E,03,
344985,00000100,false,Rx,0,8,71,00,00,00,D0,00,57,3A,
344985,00000150,false,Rx,0,4,FD,F4,40,A7,00,00,00,00,
345981,00000120,false,Rx,0,8,59,00,00,00,30,00,18,D2,
345983,00000110,false,Rx,0,8,1D,00,00,00,F0,00,47,96,
347105,00000130,false,Rx,0,8,F8,FF,FF,FF,E0,00,48,53,
347106,00000100,false,Rx,0,8,71,00,00,00,E0,00,43,3A,
348079,00000120,false,Rx,0,8,59,00,00,00,40,00,3D,12,
348080,00000110,false,Rx,0,8,1D,00,00,00,00,00,03,96,
349079,00000130,false,Rx,0,8,18,00,00,00,F0,00,47,C3,
349080,00000100,false,Rx,0,8,71,00,00,00,F0,00,4E,FA,
350079,00000120,false,Rx,0,8,59,00,00,00,50,00,30,D2,
350080,00000110,false,Rx,0,8,06,00,00,00,10,00,0D,BD,
351078,00000130,false,Rx,0,8,F8,FF,FF,FF,00,00,01,93,
351079,00000100,false,Rx,0,8,71,00,00,00,00,00,0A,FA,
352203,00000120,false,Rx,0,8,3D,00,00,00,60,00,2C,F6,
352205,00000110,false,Rx,0,8,06,00,00,00,20,00,19,BD,
353200,00000130,false,Rx,0,8,37,00,00,00,10,00,09,9C,
353201,00000100,false,Rx,0,8,5A,00,00,00,10,00,01,21,
353202,00000140,false,Rx,0,8,01,00,FF,FF,D0,00,5C,2E,
354229,00000120,false,Rx,0,8,3D,00,00,00,70,00,21,36,
354230,00000110,false,Rx,0,8,06,00,00,00,30,00,14,7D,
355229,00000130,false,Rx,0,8,B9,FF,FF,FF,20,00,17,42,
355230,00000100,false,Rx,0,8,71,00,00,00,20,00,13,3A,
356354,00000120,false,Rx,0,8,3D,00,00,00,80,00,65,36,
356355,00000110,false,Rx,0,8,06,00,00,00,40,00,31,BD,
357345,00000130,false,Rx,0,8,18,00,00,00,30,00,17,C3,
357347,00000100,false,Rx,0,8,71,00,00,00,30,00,1E,FA,
357348,00000120,false,Rx,0,8,3D,00,00,00,90,00,68,F6,
358603,00000110,false,Rx,0,8,34,00,00,00,50,00,38,6F,
358604,00000050,false,Rx,0,6,40,54,FF,FF,DF,FF,00,00,
358605,00000130,false,Rx,0,8,4D,21,00,00,43,80,83,51,
359575,00000100,false,Rx,0,8,5A,00,00,00,40,00,3D,21,
359575,00000120,false,Rx,0,8,20,00,00,00,A0,00,7F,7B,
360576,00000110,false,Rx,0,8,34,00,00,00,60,00,2C,6F,
360576,00000130,false,Rx,0,8,D9,FF,FF,FF,50,00,3B,22,
361572,00000100,false,Rx,0,8,71,00,00,00,50,00,36,FA,
361573,00000120,false,Rx,0,8,20,00,00,00,B0,00,72,BB,
362698,00000110,false,Rx,0,8,1D,00,00,00,70,00,26,56,
362699,00000130,false,Rx,0,8,F8,FF,FF,FF,60,00,29,93,
363698,00000100,false,Rx,0,8,71,00,00,00,60,00,22,FA,
363699,00000120,false,Rx,0,8,20,00,00,00,C0,00,57,7B,
364700,00000110,false,Rx,0,8,1D,00,00,00,80,00,62,56,
364700,00000150,false,Rx,0,4,FD,F4,40,A7,00,00,00,00,
364701,00000130,false,Rx,0,8,F8,FF,FF,FF,70,00,24,53,
365825,00000100,false,Rx,0,8,71,00,00,00,70,00,2F,3A,
365826,00000120,false,Rx,0,8,20,00,00,00,D0,00,5A,BB,
365826,00000110,false,Rx,0,8,1D,00,00,00,90,00,6F,96,
367573,00000130,false,Rx,0,8,F8,FF,FF,FF,80,00,60,53,
367574,00000100,false,Rx,0,8,71,00,00,00,80,00,6B,3A,
368575,00000120,false,Rx,0,8,59,00,00,00,E0,00,45,12,
368576,00000110,false,Rx,0,8,1D,00,00,00,A0,00,7B,96,
369572,00000130,false,Rx,0,8,D9,FF,FF,FF,90,00,6B,22,
369573,00000100,false,Rx,0,8,71,00,00,00,90,00,66,FA,
370700,00000120,false,Rx,0,8,59,00,00,00,F0,00,48,D2,
370700,00000110,false,Rx,0,8,1D,00,00,00,B0,00,76,56,
371700,00000130,false,Rx,0,8,37,00,00,00,A0,00,7C,5C,
371700,00000100,false,Rx,0,8,5A,00,00,00,A0,00,74,E1,
372697,00000120,false,Rx,0,8,20,00,00,00,00,00,07,7B,
372698,00000110,false,Rx,0,8,1D,00,00,00,C0,00,53,96,
373697,00000130,false,Rx,0,8,18,00,00,00,B0,00,76,03,
373697,00000100,false,Rx,0,8,71,00,00,00,B0,00,7F,3A,
373698,00000140,false,Rx,0,8,01,00,FF,FF,E0,00,48,2E,
374823,00000120,false,Rx,0,8,20,00,00,00,10,00,0A,BB,
374824,00000110,false,Rx,0,8,1D,00,00,00,D0,00,5E,56,
375822,00000130,false,Rx,0,8,F8,FF,FF,FF,C0,00,51,93,
375822,00000100,false,Rx,0,8,71,00,00,00,C0,00,5A,FA,
376854,00000120,false,Rx,0,8,20,00,00,00,20,00,1E,BB,
376855,00000110,false,Rx,0,8,1D,00,00,00,E0,00,4A,56,
377853,00000130,false,Rx,0,8,18,00,00,00,D0,00,5E,03,
377854,00000100,false,Rx,0,8,71,00,00,00,D0,00,57,3A,
377855,00000120,false,Rx,0,8,20,00,00,00,30,00,13,7B,
379104,00000110,false,Rx,0,8,4B,00,00,00,F0,00,4B,A0,
379105,00000050,false,Rx,0,6,40,54,FF,FF,DF,FF,00,00,
379105,00000130,false,Rx,0,8,B8,34,03,00,E3,80,E2,73,
380102,00000100,false,Rx,0,8,71,00,00,00,E0,00,43,3A,
380103,00000120,false,Rx,0,8,20,00,00,00,40,00,36,BB,
381227,00000110,false,Rx,0,8,4B,00,00,00,00,00,0F,A0,
381229,00000130,false,Rx,0,8,D9,FF,FF,FF,F0,00,43,22,
382226,00000100,false,Rx,0,8,71,00,00,00,F0,00,4E,FA,
382227,00000120,false,Rx,0,8,20,00,00,00,50,00,3B,7B,
383225,00000110,false,Rx,0,8,1D,00,00,00,10,00,0E,56,
383226,00000170,false,Rx,0,8,00,00,00,55,50,81,05,03,
383227,00000130,false,Rx,0,8,F8,FF,FF,FF,00,00,01,93,
384350,00000100,false,Rx,0,8,71,00,00,00,00,00,0A,FA,
384351,00000120,false,Rx,0,8,20,00,00,00,60,00,2F,7B,
385351,00000110,false,Rx,0,8,1D,00,00,00,20,00,1A,56,
385352,00000150,false,Rx,0,4,FD,F4,40,A7,00,00,00,00,
385352,00000130,false,Rx,0,8,F8,FF,FF,FF,10,00,0C,53,
386351,00000100,false,Rx,0,8,71,00,00,00,10,00,07,3A,
386352,00000120,false,Rx,0,8,20,00,00,00,70,00,22,BB,
387350,00000110,false,Rx,0,8,34,00,00,00,30,00,10,6F,
387351,00000130,false,Rx,0,8,D9,FF,FF,FF,20,00,1E,E2,
388349,00000100,false,Rx,0,8,71,00,00,00,20,00,13,3A,
388350,00000120,false,Rx,0,8,20,00,00,00,80,00,66,BB,
389475,00000110,false,Rx,0,8,34,00,00,00,40,00,35,AF,
389476,00000130,false,Rx,0,8,F8,FF,FF,FF,30,00,15,93,
390461,00000100,false,Rx,0,8,88,00,00,00,30,00,0A,93,
390462,00000120,false,Rx,0,8,20,00,00,00,90,00,6B,7B,
391454,00000110,false,Rx,0,8,1D,00,00,00,50,00,3F,96,
391456,00000130,false,Rx,0,8,B9,FF,FF,FF,40,00,3F,42,
392451,00000100,false,Rx,0,8,71,00,00,00,40,00,3B,3A,
392452,00000120,false,Rx,0,8,3D,00,00,00,A0,00,7C,F6,
393576,00000110,false,Rx,0,8,1D,00,00,00,60,00,2B,96,
393577,00000130,false,Rx,0,8,18,00,00,00,50,00,3F,C3,
394577,00000100,false,Rx,0,8,71,00,00,00,50,00,36,FA,
394578,00000140,false,Rx,0,8,01,00,FF,FF,F0,00,45,EE,
394579,00000120,false,Rx,0,8,3D,00,00,00,B0,00,71,36,
395578,00000110,false,Rx,0,8,06,00,00,00,70,00,25,BD,
395579,00000130,false,Rx,0,8,F8,FF,FF,FF,60,00,29,93,
396577,00000100,false,Rx,0,8,71,00,00,00,60,00,22,FA,
396578,00000120,false,Rx,0,8,04,00,00,00,C0,00,51,9F,
397699,00000110,false,Rx,0,8,06,00,00,00,80,00,61,BD,
397700,00000130,false,Rx,0,8,F8,FF,FF,FF,70,00,24,53,
397701,00000100,false,Rx,0,8,88,00,00,00,70,00,3B,53,
399478,00000120,false,Rx,0,8,04,00,00,00,D0,00,5C,5F,
399480,00000110,false,Rx,0,8,1D,00,00,00,90,00,6F,96,
399480,00000050,false,Rx,0,6,40,54,FF,FF,DF,FF,00,00,
400450,00000130,false,Rx,0,8,EB,95,FF,FF,83,80,7B,A9,
400451,00000100,false,Rx,0,8,71,00,00,00,80,00,6B,3A,
401469,00000120,false,Rx,0,8,3D,00,00,00,E0,00,4D,36,
401470,00000110,false,Rx,0,8,1D,00,00,00,A0,00,7B,96,
402457,00000130,false,Rx,0,8,76,00,00,00,90,00,67,4D,
402458,00000100,false,Rx,0,8,71,00,00,00,90,00,66,FA,
403577,00000120,false,Rx,0,8,3D,00,00,00,F0,00,40,F6,
403578,00000110,false,Rx,0,8,1D,00,00,00,B0,00,76,56,
404604,00000130,false,Rx,0,8,18,00,00,00,A0,00,7B,C3,
404605,00000100,false,Rx,0,8,71,00,00,00,A0,00,72,FA,
404606,00000150,false,Rx,0,4,FD,F4,40,A7,00,00,00,00,
405607,00000120,false,Rx,0,8,3D,00,00,00,00,00,04,F6,
405608,00000110,false,Rx,0,8,1D,00,00,00,C0,00,53,96,
406629,00000130,false,Rx,0,8,18,00,00,00,B0,00,76,03,
406630,00000100,false,Rx,0,8,71,00,00,00,B0,00,7F,3A,
407731,00000120,false,Rx,0,8,3D,00,00,00,10,00,09,36,
407733,00000110,false,Rx,0,8,4B,00,00,00,D0,00,52,60,
408803,00000130,false,Rx,0,8,F8,FF,FF,FF,C0,00,51,93,
408804,00000100,false,Rx,0,8,5A,00,00,00,C0,00,5C,E1,
409730,00000120,false,Rx,0,8,20,00,00,00,20,00,1E,BB,
409732,00000110,false,Rx,0,8,4B,00,00,00,E0,00,46,60,
410707,00000130,false,Rx,0,8,F8,FF,FF,FF,D0,00,5C,53,
410709,00000100,false,Rx,0,8,71,00,00,00,D0,00,57,3A,
411854,00000120,false,Rx,0,8,20,00,00,00,30,00,13,7B,
411855,00000110,false,Rx,0,8,1D,00,00,00,F0,00,47,96,
412854,00000130,false,Rx,0,8,18,00,00,00,E0,00,4A,03,
412856,00000100,false,Rx,0,8,71,00,00,00,E0,00,43,3A,
413854,00000120,false,Rx,0,8,20,00,00,00,40,00,36,BB,
413856,00000110,false,Rx,0,8,1D,00,00,00,00,00,03,96,
414855,00000130,false,Rx,0,8,18,00,00,00,F0,00,47,C3,
414856,00000100,false,Rx,0,8,71,00,00,00,F0,00,4E,FA,
414857,00000140,false,Rx,0,8,01,00,FF,FF,00,00,01,EE,
415988,00000120,false,Rx,0,8,20,00,00,00,50,00,3B,7B,
415990,00000110,false,Rx,0,8,1D,00,00,00,10,00,0E,56,
417021,00000130,false,Rx,0,8,B9,FF,FF,FF,00,00,0E,82,
417022,00000100,false,Rx,0,8,71,00,00,00,00,00,0A,FA,
417993,00000120,false,Rx,0,8,3D,00,00,00,60,00,2C,F6,
417995,00000110,false,Rx,0,8,1D,00,00,00,20,00,1A,56,
418976,00000130,false,Rx,0,8,F8,FF,FF,FF,10,00,0C,53,
418977,00000100,false,Rx,0,8,71,00,00,00,10,00,07,3A,
418978,00000120,false,Rx,0,8,3D,00,00,00,70,00,21,36,
420230,00000110,false,Rx,0,8,1D,00,00,00,30,00,17,96,
420231,00000050,false,Rx,0,6,40,54,FF,FF,DF,FF,00,00,
420232,00000130,false,Rx,0,8,4C,BA,F5,FF,23,80,CC,A0,
421230,00000100,false,Rx,0,8,71,00,00,00,20,00,13,3A,
421232,00000120,false,Rx,0,8,3D,00,00,00,80,00,65,36,
422355,00000110,false,Rx,0,8,1D,00,00,00,40,00,32,56,
422356,00000130,false,Rx,0,8,B5,00,00,00,30,00,0E,7E,
423356,00000100,false,Rx,0,8,71,00,00,00,30,00,1E,FA,
423357,00000120,false,Rx,0,8,3D,00,00,00,90,00,68,F6,
424359,00000110,false,Rx,0,8,1D,00,00,00,50,00,3F,96,
424360,00000130,false,Rx,0,8,D9,FF,FF,FF,40,00,36,E2,
425351,00000100,false,Rx,0,8,71,00,00,00,40,00,3B,3A,
425353,00000150,false,Rx,0,4,FD,F4,40,A7,00,00,00,00,
425353,00000120,false,Rx,0,8,3D,00,00,00,A0,00,7C,F6,
426508,00000110,false,Rx,0,8,1D,00,00,00,60,00,2B,96,
426510,00000130,false,Rx,0,8,18,00,00,00,50,00,3F,C3,
427476,00000100,false,Rx,0,8,71,00,00,00,50,00,36,FA,
427477,00000120,false,Rx,0,8,3D,00,00,00,B0,00,71,36,
428503,00000110,false,Rx,0,8,34,00,00,00,70,00,21,AF,
428505,00000130,false,Rx,0,8,18,00,00,00,60,00,2B,C3,
429480,00000100,false,Rx,0,8,5A,00,00,00,60,00,24,E1,
429482,00000120,false,Rx,0,8,3D,00,00,00,C0,00,54,F6,
430601,00000110,false,Rx,0,8,34,00,00,00,80,00,65,AF,
430602,00000130,false,Rx,0,8,F8,FF,FF,FF,70,00,24,53,
431613,00000100,false,Rx,0,8,71,00,00,00,70,00,2F,3A,
431614,00000120,false,Rx,0,8,3D,00,00,00,D0,00,59,36,
432610,00000110,false,Rx,0,8,1D,00,00,00,90,00,6F,96,
432611,00000130,false,Rx,0,8,F8,FF,FF,FF,80,00,60,53,
433627,00000100,false,Rx,0,8,71,00,00,00,80,00,6B,3A,
433628,00000120,false,Rx,0,8,20,00,00,00,E0,00,4E,BB,
434605,00000110,false,Rx,0,8,1D,00,00,00,A0,00,7B,96,
434606,00000130,false,Rx,0,8,F8,FF,FF,FF,90,00,6D,93,
435763,00000100,false,Rx,0,8,71,00,00,00,90,00,66,FA,
435764,00000140,false,Rx,0,8,01,00,FF,FF,10,00,0C,2E,
435765,00000120,false,Rx,0,8,20,00,00,00,F0,00,43,7B,
436737,00000110,false,Rx,0,8,1D,00,00,00,B0,00,76,56,
436738,00000130,false,Rx,0,8,F8,FF,FF,FF,A0,00,79,93,
437739,00000100,false,Rx,0,8,71,00,00,00,A0,00,72,FA,
437740,00000120,false,Rx,0,8,3D,00,00,00,00,00,04,F6,
438736,00000110,false,Rx,0,8,1D,00,00,00,C0,00,53,96,
438737,00000130,false,Rx,0,8,18,00,00,00,B0,00,76,03,
439858,00000100,false,Rx,0,8,71,00,00,00,B0,00,7F,3A,
439860,00000120,false,Rx,0,8,3D,00,00,00,10,00,09,36,
439860,00000110,false,Rx,0,8,4B,00,00,00,D0,00,52,60,
440987,00000050,false,Rx,0,6,40,54,FF,FF,DF,FF,00,00,
440988,00000130,false,Rx,0,8,4D,21,00,00,C3,80,E2,91,
440989,00000100,false,Rx,0,8,5A,00,00,00,C0,00,5C,E1,
442606,00000120,false,Rx,0,8,20,00,00,00,20,00,1E,BB,
442608,00000110,false,Rx,0,8,4B,00,00,00,E0,00,46,60,
443724,00000130,false,Rx,0,8,18,00,00,00,D0,00,5E,03,
443725,00000100,false,Rx,0,8,71,00,00,00,D0,00,57,3A,
444739,00000120,false,Rx,0,8,20,00,00,00,30,00,13,7B,
444740,00000110,false,Rx,0,8,1D,00,00,00,F0,00,47,96,
444741,00000150,false,Rx,0,4,FD,F4,40,A7,00,00,00,00,
445736,00000130,false,Rx,0,8,18,00,00,00,E0,00,4A,03,
445737,00000100,false,Rx,0,8,71,00,00,00,E0,00,43,3A,
446726,00000120,false,Rx,0,8,3D,00,00,00,40,00,35,36,
446727,00000110,false,Rx,0,8,1D,00,00,00,00,00,03,96,
446728,00000130,false,Rx,0,8,F8,FF,FF,FF,F0,00,45,93,
447980,00000100,false,Rx,0,8,71,00,00,00,F0,00,4E,FA,
447982,00000120,false,Rx,0,8,3D,00,00,00,50,00,38,F6,
449105,00000110,false,Rx,0,8,34,00,00,00,10,00,09,AF,
449106,00000130,false,Rx,0,8,B9,FF,FF,FF,00,00,0E,82,
450131,00000100,false,Rx,0,8,5A,00,00,00,00,00,0C,E1,
450132,00000120,false,Rx,0,8,3D,00,00,00,60,00,2C,F6,
451110,00000110,false,Rx,0,8,34,00,00,00,20,00,1D,AF,
451111,00000130,false,Rx,0,8,18,00,00,00,10,00,0E,03,
452102,00000100,false,Rx,0,8,71,00,00,00,10,00,07,3A,
452103,00000120,false,Rx,0,8,3D,00,00,00,70,00,21,36,
453262,00000110,false,Rx,0,8,06,00,00,00,30,00,14,7D,
453264,00000130,false,Rx,0,8,18,00,00,00,20,00,1A,03,
454256,00000100,false,Rx,0,8,71,00,00,00,20,00,13,3A,
454258,00000120,false,Rx,0,8,3D,00,00,00,80,00,65,36,
455266,00000110,false,Rx,0,8,06,00,00,00,40,00,31,BD,
455267,00000130,false,Rx,0,8,F8,FF,FF,FF,30,00,15,93,
456234,00000100,false,Rx,0,8,71,00,00,00,30,00,1E,FA,
456235,00000140,false,Rx,0,8,01,00,FF,FF,20,00,18,2E,
456236,00000120,false,Rx,0,8,3D,00,00,00,90,00,68,F6,
457385,00000110,false,Rx,0,8,06,00,00,00,50,00,3C,7D,
457386,00000130,false,Rx,0,8,F8,FF,FF,FF,40,00,30,53,
458383,00000100,false,Rx,0,8,71,00,00,00,40,00,3B,3A,
458384,00000120,false,Rx,0,8,20,00,00,00,A0,00,7F,7B,
459360,00000110,false,Rx,0,8,06,00,00,00,60,00,28,7D,
459361,00000130,false,Rx,0,8,18,00,00,00,50,00,3F,C3,
460358,00000100,false,Rx,0,8,71,00,00,00,50,00,36,FA,
460359,00000120,false,Rx,0,8,20,00,00,00,B0,00,72,BB,
460360,00000110,false,Rx,0,8,34,00,00,00,70,00,21,AF,
461635,00000050,false,Rx,0,6,40,54,FF,FF,DF,FF,00,00,
461636,00000130,false,Rx,0,8,D8,34,03,00,63,80,8A,13,
461637,00000100,false,Rx,0,8,71,00,00,00,60,00,22,FA,
463234,00000120,false,Rx,0,8,3D,00,00,00,C0,00,54,F6,
463235,00000110,false,Rx,0,8,34,00,00,00,80,00,65,AF,
464232,00000130,false,Rx,0,8,D9,FF,FF,FF,70,00,22,E2,
464233,00000100,false,Rx,0,8,71,00,00,00,70,00,2F,3A,
465237,00000120,false,Rx,0,8,3D,00,00,00,D0,00,59,36,
465238,00000110,false,Rx,0,8,1D,00,00,00,90,00,6F,96,
465239,00000150,false,Rx,0,4,FD,F4,40,A7,00,00,00,00,
466385,00000130,false,Rx,0,8,F8,FF,FF,FF,80,00,60,53,
466387,00000100,false,Rx,0,8,71,00,00,00,80,00,6B,3A,
467362,00000120,false,Rx,0,8,59,00,00,00,E0,00,45,12,
467363,00000110,false,Rx,0,8,1D,00,00,00,A0,00,7B,96,
468361,00000130,false,Rx,0,8,D9,FF,FF,FF,90,00,6B,22,
468362,00000100,false,Rx,0,8,71,00,00,00,90,00,66,FA,
469369,00000120,false,Rx,0,8,59,00,00,00,F0,00,48,D2,
469371,00000110,false,Rx,0,8,1D,00,00,00,B0,00,76,56,
470359,00000130,false,Rx,0,8,F8,FF,FF,FF,A0,00,79,93,
470361,00000100,false,Rx,0,8,71,00,00,00,A0,00,72,FA,
471508,00000120,false,Rx,0,8,3D,00,00,00,00,00,04,F6,
471509,00000110,false,Rx,0,8,1D,00,00,00,C0,00,53,96,
472502,00000130,false,Rx,0,8,37,00,00,00,B0,00,71,9C,
472504,00000100,false,Rx,0,8,5A,00,00,00,B0,00,79,21,
473485,00000120,false,Rx,0,8,3D,00,00,00,10,00,09,36,
473486,00000110,false,Rx,0,8,1D,00,00,00,D0,00,5E,56,
474504,00000130,false,Rx,0,8,F8,FF,FF,FF,C0,00,51,93,
474505,00000100,false,Rx,0,8,71,00,00,00,C0,00,5A,FA,
475633,00000120,false,Rx,0,8,3D,00,00,00,20,00,1D,36,
475634,00000110,false,Rx,0,8,1D,00,00,00,E0,00,4A,56,
476634,00000130,false,Rx,0,8,F8,FF,FF,FF,D0,00,5C,53,
476635,00000100,false,Rx,0,8,71,00,00,00,D0,00,57,3A,
476636,00000140,false,Rx,0,8,01,00,FF,FF,30,00,15,EE,
477608,00000120,false,Rx,0,8,3D,00,00,00,30,00,10,F6,
477609,00000110,false,Rx,0,8,06,00,00,00,F0,00,44,7D,
478604,00000130,false,Rx,0,8,F8,FF,FF,FF,E0,00,48,53,
478606,00000100,false,Rx,0,8,5A,00,00,00,E0,00,45,21,
479730,00000120,false,Rx,0,8,20,00,00,00,40,00,36,BB,
479731,00000110,false,Rx,0,8,06,00,00,00,00,00,00,7D,
480732,00000130,false,Rx,0,8,18,00,00,00,F0,00,47,C3,
480733,00000100,false,Rx,0,8,71,00,00,00,F0,00,4E,FA,
480734,00000120,false,Rx,0,8,20,00,00,00,50,00,3B,7B,
481858,00000110,false,Rx,0,8,1D,00,00,00,10,00,0E,56,
481860,00000050,false,Rx,0,6,40,54,FF,FF,DF,FF,00,00,
481860,00000130,false,Rx,0,8,EB,95,FF,FF,03,80,1A,69,
482979,00000100,false,Rx,0,8,5A,00,00,00,00,00,0C,E1,
482980,00000120,false,Rx,0,8,3D,00,00,00,60,00,2C,F6,
483979,00000110,false,Rx,0,8,1D,00,00,00,20,00,1A,56,
483981,00000130,false,Rx,0,8,76,00,00,00,10,00,06,8D,
485124,00000100,false,Rx,0,8,71,00,00,00,10,00,07,3A,
485125,00000150,false,Rx,0,4,FD,F4,40,A7,00,00,00,00,
485126,00000120,false,Rx,0,8,3D,00,00,00,70,00,21,36,
486132,00000110,false,Rx,0,8,1D,00,00,00,30,00,17,96,
486133,00000170,false,Rx,0,8,00,00,00,56,50,81,05,B9,
486134,00000130,false,Rx,0,8,F8,FF,FF,FF,20,00,18,53,
487136,00000100,false,Rx,0,8,71,00,00,00,20,00,13,3A,
487138,00000120,false,Rx,0,8,59,00,00,00,80,00,6D,12,
488109,00000110,false,Rx,0,8,1D,00,00,00,40,00,32,56,
488110,00000130,false,Rx,0,8,F8,FF,FF,FF,30,00,15,93,
489258,00000100,false,Rx,0,8,71,00,00,00,30,00,1E,FA,
489259,00000120,false,Rx,0,8,59,00,00,00,90,00,60,D2,
490256,00000110,false,Rx,0,8,1D,00,00,00,50,00,3F,96,
490257,00000130,false,Rx,0,8,D9,FF,FF,FF,40,00,36,E2,
491260,00000100,false,Rx,0,8,5A,00,00,00,40,00,3D,21,
491261,00000120,false,Rx,0,8,59,00,00,00,A0,00,74,D2,
492236,00000110,false,Rx,0,8,1D,00,00,00,60,00,2B,96,
492238,00000130,false,Rx,0,8,18,00,00,00,50,00,3F,C3,
493226,00000100,false,Rx,0,8,71,00,00,00,50,00,36,FA,
493227,00000120,false,Rx,0,8,59,00,00,00,B0,00,79,12,
494383,00000110,false,Rx,0,8,06,00,00,00,70,00,25,BD,
494384,00000130,false,Rx,0,8,F8,FF,FF,FF,60,00,29,93,
495385,00000100,false,Rx,0,8,5A,00,00,00,60,00,24,E1,
495386,00000120,false,Rx,0,8,3D,00,00,00,C0,00,54,F6,
496378,00000110,false,Rx,0,8,06,00,00,00,80,00,61,BD,
496379,00000130,false,Rx,0,8,F8,FF,FF,FF,70,00,24,53,
497359,00000100,false,Rx,0,8,71,00,00,00,70,00,2F,3A,
497360,00000140,false,Rx,0,8,01,00,FF,FF,40,00,30,2E,
497360,00000120,false,Rx,0,8,3D,00,00,00,D0,00,59,36,
498509,00000110,false,Rx,0,8,06,00,00,00,90,00,6C,7D,
498511,00000130,false,Rx,0,8,F8,FF,FF,FF,80,00,60,53,
499485,00000100,false,Rx,0,8,71,00,00,00,80,00,6B,3A,
499486,00000120,false,Rx,0,8,3D,00,00,00,E0,00,4D,36,
500481,00000110,false,Rx,0,8,06,00,00,00,A0,00,78,7D,
500483,00000130,false,Rx,0,8,18,00,00,00,90,00,6F,C3,
501487,00000100,false,Rx,0,8,71,00,00,00,90,00,66,FA,
501488,00000120,false,Rx,0,8,3D,00,00,00,F0,00,40,F6,
501489,00000110,false,Rx,0,8,06,00,00,00,B0,00,75,BD,
502729,00000050,false,Rx,0,6,40,54,FF,FF,DF,FF,00,00,
502730,00000130,false,Rx,0,8,4C,BA,F5,FF,A3,80,AD,60,
502731,00000100,false,Rx,0,8,71,00,00,00,A0,00,72,FA,
504382,00000120,false,Rx,0,8,3D,00,00,00,00,00,04,F6,
504383,00000110,false,Rx,0,8,06,00,00,00,C0,00,50,7D,
505379,00000130,false,Rx,0,8,95,00,00,00,B0,00,68,DE,
505380,00000100,false,Rx,0,8,71,00,00,00,B0,00,7F,3A,
505381,00000150,false,Rx,0,4,FD,F4,40,A7,00,00,00,00,
506350,00000120,false,Rx,0,8,3D,00,00,00,10,00,09,36,
506351,00000110,false,Rx,0,8,1D,00,00,00,D0,00,5E,56,
507509,00000130,false,Rx,0,8,18,00,00,00,C0,00,53,C3,
507510,00000100,false,Rx,0,8,5A,00,00,00,C0,00,5C,E1,
508509,00000120,false,Rx,0,8,59,00,00,00,20,00,15,12,
508510,00000110,false,Rx,0,8,1D,00,00,00,E0,00,4A,56,
509484,00000130,false,Rx,0,8,F8,FF,FF,FF,D0,00,5C,53,
509485,00000100,false,Rx,0,8,71,00,00,00,D0,00,57,3A,
510487,00000120,false,Rx,0,8,59,00,00,00,30,00,18,D2,
510488,00000110,false,Rx,0,8,1D,00,00,00,F0,00,47,96,
511476,00000130,false,Rx,0,8,F8,FF,FF,FF,E0,00,48,53,
511477,00000100,false,Rx,0,8,71,00,00,00,E0,00,43,3A,
512603,00000120,false,Rx,0,8,20,00,00,00,40,00,36,BB,
512604,00000110,false,Rx,0,8,1D,00,00,00,00,00,03,96,
513616,00000130,false,Rx,0,8,B9,FF,FF,FF,F0,00,4A,82,
513617,00000100,false,Rx,0,8,71,00,00,00,F0,00,4E,FA,
514611,00000120,false,Rx,0,8,20,00,00,00,50,00,3B,7B,
514612,00000110,false,Rx,0,8,06,00,00,00,10,00,0D,BD,
515630,00000130,false,Rx,0,8,18,00,00,00,00,00,03,C3,
515631,00000100,false,Rx,0,8,71,00,00,00,00,00,0A,FA,
516759,00000120,false,Rx,0,8,20,00,00,00,60,00,2F,7B,
516760,00000110,false,Rx,0,8,06,00,00,00,20,00,19,BD,
517759,00000130,false,Rx,0,8,F8,FF,FF,FF,10,00,0C,53,
517760,00000100,false,Rx,0,8,71,00,00,00,10,00,07,3A,
517761,00000140,false,Rx,0,8,01,00,FF,FF,50,00,3D,EE,
518734,00000120,false,Rx,0,8,20,00,00,00,70,00,22,BB,
518735,00000110,false,Rx,0,8,06,00,00,00,30,00,14,7D,
519724,00000130,false,Rx,0,8,F8,FF,FF,FF,20,00,18,53,
519726,00000100,false,Rx,0,8,5A,00,00,00,20,00,15,21,
520858,00000120,false,Rx,0,8,3D,00,00,00,80,00,65,36,
520860,00000110,false,Rx,0,8,06,00,00,00,40,00,31,BD,
521859,00000130,false,Rx,0,8,37,00,00,00,30,00,10,5C,
521861,00000100,false,Rx,0,8,71,00,00,00,30,00,1E,FA,
521861,00000120,false,Rx,0,8,3D,00,00,00,90,00,68,F6,
522982,00000110,false,Rx,0,8,4B,00,00,00,50,00,33,A0,
522983,00000050,false,Rx,0,6,40,54,FF,FF,DF,FF,00,00,
522983,00000130,false,Rx,0,8,4D,21,00,00,43,80,83,51,
524133,00000100,false,Rx,0,8,5A,00,00,00,40,00,3D,21,
524134,00000120,false,Rx,0,8,3D,00,00,00,A0,00,7C,F6,
525108,00000110,false,Rx,0,8,4B,00,00,00,60,00,27,A0,
525109,00000150,false,Rx,0,4,FD,F4,40,A7,00,00,00,00,
525110,00000130,false,Rx,0,8,18,00,00,00,50,00,3F,C3,
526132,00000100,false,Rx,0,8,71,00,00,00,50,00,36,FA,
526133,00000120,false,Rx,0,8,3D,00,00,00,B0,00,71,36,
527258,00000110,false,Rx,0,8,34,00,00,00,70,00,21,AF,
527259,00000130,false,Rx,0,8,D9,FF,FF,FF,60,00,2F,22,
528233,00000100,false,Rx,0,8,71,00,00,00,60,00,22,FA,
528235,00000120,false,Rx,0,8,3D,00,00,00,C0,00,54,F6,
529239,00000110,false,Rx,0,8,34,00,00,00,80,00,65,AF,
529240,00000130,false,Rx,0,8,18,00,00,00,70,00,26,03,
530234,00000100,false,Rx,0,8,71,00,00,00,70,00,2F,3A,
530235,00000120,false,Rx,0,8,3D,00,00,00,D0,00,59,36,
531370,00000110,false,Rx,0,8,1D,00,00,00,90,00,6F,96,
531372,00000130,false,Rx,0,8,F8,FF,FF,FF,80,00,60,53,
532370,00000100,false,Rx,0,8,71,00,00,00,80,00,6B,3A,
532371,00000120,false,Rx,0,8,20,00,00,00,E0,00,4E,BB,
533358,00000110,false,Rx,0,8,1D,00,00,00,A0,00,7B,96,
533359,00000130,false,Rx,0,8,D9,FF,FF,FF,90,00,6B,22,
534358,00000100,false,Rx,0,8,71,00,00,00,90,00,66,FA,
534359,00000120,false,Rx,0,8,20,00,00,00,F0,00,43,7B,
535350,00000110,false,Rx,0,8,1D,00,00,00,B0,00,76,56,
535352,00000130,false,Rx,0,8,F8,FF,FF,FF,A0,00,79,93,
536509,00000100,false,Rx,0,8,71,00,00,00,A0,00,72,FA,
536510,00000120,false,Rx,0,8,20,00,00,00,00,00,07,7B,
537484,00000110,false,Rx,0,8,1D,00,00,00,C0,00,53,96,
537485,00000130,false,Rx,0,8,F8,FF,FF,FF,B0,00,74,53,
538498,00000100,false,Rx,0,8,71,00,00,00,B0,00,7F,3A,
538499,00000140,false,Rx,0,8,01,00,FF,FF,60,00,29,EE,
538500,00000120,false,Rx,0,8,20,00,00,00,10,00,0A,BB,
539636,00000110,false,Rx,0,8,1D,00,00,00,D0,00,5E,56,
539637,00000130,false,Rx,0,8,F8,FF,FF,FF,C0,00,51,93,
540600,00000100,false,Rx,0,8,71,00,00,00,C0,00,5A,FA,
540602,00000120,false,Rx,0,8,3D,00,00,00,20,00,1D,36,
541609,00000110,false,Rx,0,8,1D,00,00,00,E0,00,4A,56,
541611,00000130,false,Rx,0,8,F8,FF,FF,FF,D0,00,5C,53,
542606,00000100,false,Rx,0,8,71,00,00,00,D0,00,57,3A,
542607,00000120,false,Rx,0,8,3D,00,00,00,30,00,10,F6,
542607,00000110,false,Rx,0,8,4B,00,00,00,F0,00,4B,A0,
543857,00000050,false,Rx,0,6,40,54,FF,FF,DF,FF,00,00,
543858,00000130,false,Rx,0,8,D8,34,03,00,E3,80,EB,D3,
543858,00000100,false,Rx,0,8,5A,00,00,00,E0,00,45,21,
545359,00000120,false,Rx,0,8,3D,00,00,00,40,00,35,36,
545360,00000110,false,Rx,0,8,4B,00,00,00,00,00,0F,A0,
545360,00000150,false,Rx,0,4,FD,F4,40,A7,00,00,00,00,
546483,00000130,false,Rx,0,8,18,00,00,00,F0,00,47,C3,
546484,00000100,false,Rx,0,8,71,00,00,00,F0,00,4E,FA,
547474,00000120,false,Rx,0,8,3D,00,00,00,50,00,38,F6,
547476,00000110,false,Rx,0,8,34,00,00,00,10,00,09,AF,
548484,00000130,false,Rx,0,8,18,00,00,00,00,00,03,C3,
548485,00000100,false,Rx,0,8,71,00,00,00,00,00,0A,FA,
549636,00000120,false,Rx,0,8,3D,00,00,00,60,00,2C,F6,
549637,00000110,false,Rx,0,8,34,00,00,00,20,00,1D,AF,
550633,00000130,false,Rx,0,8,18,00,00,00,10,00,0E,03,
550635,00000100,false,Rx,0,8,71,00,00,00,10,00,07,3A,
551608,00000120,false,Rx,0,8,3D,00,00,00,70,00,21,36,
551609,00000110,false,Rx,0,8,06,00,00,00,30,00,14,7D,
552604,00000130,false,Rx,0,8,37,00,00,00,20,00,1D,9C,
552605,00000100,false,Rx,0,8,5A,00,00,00,20,00,15,21,
553727,00000120,false,Rx,0,8,3D,00,00,00,80,00,65,36,
553728,00000110,false,Rx,0,8,06,00,00,00,40,00,31,BD,
554726,00000130,false,Rx,0,8,F8,FF,FF,FF,30,00,15,93,
554728,00000100,false,Rx,0,8,71,00,00,00,30,00,1E,FA,
555728,00000120,false,Rx,0,8,3D,00,00,00,90,00,68,F6,
555729,00000110,false,Rx,0,8,06,00,00,00,50,00,3C,7D,
556728,00000130,false,Rx,0,8,D9,FF,FF,FF,40,00,36,E2,
556729,00000100,false,Rx,0,8,88,00,00,00,40,00,2F,53,
557851,00000120,false,Rx,0,8,04,00,00,00,A0,00,79,9F,
557853,00000110,false,Rx,0,8,06,00,00,00,60,00,28,7D,
558853,00000130,false,Rx,0,8,D9,FF,FF,FF,50,00,3B,22,
558854,00000100,false,Rx,0,8,71,00,00,00,50,00,36,FA,
558855,00000140,false,Rx,0,8,01,00,FF,FF,70,00,24,2E,
559851,00000120,false,Rx,0,8,04,00,00,00,B0,00,74,5F,
559853,00000110,false,Rx,0,8,1D,00,00,00,70,00,26,56,
560852,00000130,false,Rx,0,8,F8,FF,FF,FF,60,00,29,93,
560853,00000100,false,Rx,0,8,71,00,00,00,60,00,22,FA,
561850,00000120,false,Rx,0,8,3D,00,00,00,C0,00,54,F6,
561852,00000110,false,Rx,0,8,1D,00,00,00,80,00,62,56,
562974,00000130,false,Rx,0,8,F8,FF,FF,FF,70,00,24,53,
562975,00000100,false,Rx,0,8,71,00,00,00,70,00,2F,3A,
562976,00000120,false,Rx,0,8,3D,00,00,00,D0,00,59,36,
564101,00000110,false,Rx,0,8,1D,00,00,00,90,00,6F,96,
564103,00000050,false,Rx,0,6,40,54,FF,FF,DF,FF,00,00,
564103,00000130,false,Rx,0,8,EB,95,FF,FF,83,80,7B,A9,
565226,00000100,false,Rx,0,8,71,00,00,00,80,00,6B,3A,
565227,00000150,false,Rx,0,4,FD,F4,40,A7,00,00,00,00,
565228,00000120,false,Rx,0,8,3D,00,00,00,E0,00,4D,36,
566227,00000110,false,Rx,0,8,1D,00,00,00,A0,00,7B,96,
566228,00000130,false,Rx,0,8,76,00,00,00,90,00,67,4D,
567226,00000100,false,Rx,0,8,5A,00,00,00,90,00,60,E1,
567227,00000120,false,Rx,0,8,3D,00,00,00,F0,00,40,F6,
568349,00000110,false,Rx,0,8,4B,00,00,00,B0,00,7A,60,
568350,00000130,false,Rx,0,8,F8,FF,FF,FF,A0,00,79,93,
569351,00000100,false,Rx,0,8,71,00,00,00,A0,00,72,FA,
569352,00000120,false,Rx,0,8,20,00,00,00,00,00,07,7B,
570352,00000110,false,Rx,0,8,4B,00,00,00,C0,00,5F,A0,
570354,00000130,false,Rx,0,8,F8,FF,FF,FF,B0,00,74,53,
571353,00000100,false,Rx,0,8,71,00,00,00,B0,00,7F,3A,
571354,00000120,false,Rx,0,8,20,00,00,00,10,00,0A,BB,
572478,00000110,false,Rx,0,8,1D,00,00,00,D0,00,5E,56,
572479,00000130,false,Rx,0,8,18,00,00,00,C0,00,53,C3,
573473,00000100,false,Rx,0,8,71,00,00,00,C0,00,5A,FA,
573475,00000120,false,Rx,0,8,3D,00,00,00,20,00,1D,36,
574475,00000110,false,Rx,0,8,1D,00,00,00,E0,00,4A,56,
574477,00000130,false,Rx,0,8,18,00,00,00,D0,00,5E,03,
575475,00000100,false,Rx,0,8,71,00,00,00,D0,00,57,3A,
575476,00000120,false,Rx,0,8,3D,00,00,00,30,00,10,F6,
576602,00000110,false,Rx,0,8,1D,00,00,00,F0,00,47,96,
576604,00000130,false,Rx,0,8,B9,FF,FF,FF,E0,00,47,42,
577601,00000100,false,Rx,0,8,71,00,00,00,E0,00,43,3A,
577602,00000120,false,Rx,0,8,20,00,00,00,40,00,36,BB,
578601,00000110,false,Rx,0,8,1D,00,00,00,00,00,03,96,
578602,00000130,false,Rx,0,8,F8,FF,FF,FF,F0,00,45,93,
579602,00000100,false,Rx,0,8,71,00,00,00,F0,00,4E,FA,
579603,00000140,false,Rx,0,8,01,00,FF,FF,80,00,60,2E,
579604,00000120,false,Rx,0,8,20,00,00,00,50,00,3B,7B,
580725,00000110,false,Rx,0,8,1D,00,00,00,10,00,0E,56,
580727,00000130,false,Rx,0,8,F8,FF,FF,FF,00,00,01,93,
581726,00000100,false,Rx,0,8,71,00,00,00,00,00,0A,FA,
581728,00000120,false,Rx,0,8,3D,00,00,00,60,00,2C,F6,
582725,00000110,false,Rx,0,8,1D,00,00,00,20,00,1A,56,
582726,00000130,false,Rx,0,8,F8,FF,FF,FF,10,00,0C,53,
583725,00000100,false,Rx,0,8,71,00,00,00,10,00,07,3A,
583726,00000120,false,Rx,0,8,3D,00,00,00,70,00,21,36,
583727,00000110,false,Rx,0,8,06,00,00,00,30,00,14,7D,
584976,00000050,false,Rx,0,6,40,54,FF,FF,DF,FF,00,00,
584977,00000150,false,Rx,0,4,FD,F4,40,A7,00,00,00,00,
584977,00000130,false,Rx,0,8,4C,BA,F5,FF,23,80,CC,A0,
584978,00000100,false,Rx,0,8,71,00,00,00,20,00,13,3A,
586601,00000120,false,Rx,0,8,3D,00,00,00,80,00,65,36,
586602,00000110,false,Rx,0,8,06,00,00,00,40,00,31,BD,
587601,00000130,false,Rx,0,8,B5,00,00,00,30,00,0E,7E,
587602,00000100,false,Rx,0,8,71,00,00,00,30,00,1E,FA,
588600,00000120,false,Rx,0,8,3D,00,00,00,90,00,68,F6,
588601,00000110,false,Rx,0,8,34,00,00,00,50,00,38,6F,
588602,00000170,false,Rx,0,8,00,00,00,57,50,81,05,24,
589728,00000130,false,Rx,0,8,37,00,00,00,40,00,35,9C,
589729,00000100,false,Rx,0,8,71,00,00,00,40,00,3B,3A,
590727,00000120,false,Rx,0,8,3D,00,00,00,A0,00,7C,F6,
590729,00000110,false,Rx,0,8,34,00,00,00,60,00,2C,6F,
591727,00000130,false,Rx,0,8,18,00,00,00,50,00,3F,C3,
591728,00000100,false,Rx,0,8,71,00,00,00,50,00,36,FA,
592727,00000120,false,Rx,0,8,3D,00,00,00,B0,00,71,36,
592729,00000110,false,Rx,0,8,1D,00,00,00,70,00,26,56,
593727,00000130,false,Rx,0,8,F8,FF,FF,FF,60,00,29,93,
593728,00000100,false,Rx,0,8,71,00,00,00,60,00,22,FA,
594849,00000120,false,Rx,0,8,3D,00,00,00,C0,00,54,F6,
594850,00000110,false,Rx,0,8,1D,00,00,00,80,00,62,56,
595849,00000130,false,Rx,0,8,F8,FF,FF,FF,70,00,24,53,
595850,00000100,false,Rx,0,8,71,00,00,00,70,00,2F,3A,
596826,00000120,false,Rx,0,8,3D,00,00,00,D0,00,59,36,
596827,00000110,false,Rx,0,8,1D,00,00,00,90,00,6F,96,
597823,00000130,false,Rx,0,8,18,00,00,00,80,00,62,03,
597824,00000100,false,Rx,0,8,71,00,00,00,80,00,6B,3A,
598951,00000120,false,Rx,0,8,20,00,00,00,E0,00,4E,BB,
598952,00000110,false,Rx,0,8,1D,00,00,00,A0,00,7B,96,
599950,00000130,false,Rx,0,8,D9,FF,FF,FF,90,00,6B,22,
599952,00000100,false,Rx,0,8,5A,00,00,00,90,00,60,E1,
599953,00000140,false,Rx,0,8,01,00,FF,FF,90,00,6D,EE,
600949,00000120,false,Rx,0,8,20,00,00,00,F0,00,43,7B,
600950,00000110,false,Rx,0,8,1D,00,00,00,B0,00,76,56,
600951,00000130,false,Rx,0,8,18,00,00,00,A0,00,7B,C3,
602228,00000100,false,Rx,0,8,71,00,00,00,A0,00,72,FA,
602229,00000120,false,Rx,0,8,59,00,00,00,00,00,0C,D2,
603212,00000110,false,Rx,0,8,1D,00,00,00,C0,00,53,96,
603213,00000130,false,Rx,0,8,37,00,00,00,B0,00,71,9C,
604331,00000100,false,Rx,0,8,71,00,00,00,B0,00,7F,3A,
604332,00000120,false,Rx,0,8,59,00,00,00,10,00,01,12,
604333,00000110,false,Rx,0,8,4B,00,00,00,D0,00,52,60,
605525,00000050,false,Rx,0,6,40,54,FF,FF,DF,FF,00,00,
605525,00000150,false,Rx,0,4,FD,F4,40,A7,00,00,00,00,
605526,00000130,false,Rx,0,8,6C,21,00,00,C3,80,E4,20,
605526,00000100,false,Rx,0,8,5A,00,00,00,C0,00,5C,E1,
607112,00000120,false,Rx,0,8,3D,00,00,00,20,00,1D,36,
607113,00000110,false,Rx,0,8,4B,00,00,00,E0,00,46,60,
608223,00000130,false,Rx,0,8,18,00,00,00,D0,00,5E,03,
608225,00000100,false,Rx,0,8,71,00,00,00,D0,00,57,3A,
609224,00000120,false,Rx,0,8,3D,00,00,00,30,00,10,F6,
609225,00000110,false,Rx,0,8,1D,00,00,00,F0,00,47,96,
610225,00000130,false,Rx,0,8,F8,FF,FF,FF,E0,00,48,53,
610226,00000100,false,Rx,0,8,71,00,00,00,E0,00,43,3A,
611225,00000120,false,Rx,0,8,3D,00,00,00,40,00,35,36,
611227,00000110,false,Rx,0,8,1D,00,00,00,00,00,03,96,
612224,00000130,false,Rx,0,8,D9,FF,FF,FF,F0,00,43,22,
612225,00000100,false,Rx,0,8,71,00,00,00,F0,00,4E,FA,
613350,00000120,false,Rx,0,8,3D,00,00,00,50,00,38,F6,
613352,00000110,false,Rx,0,8,06,00,00,00,10,00,0D,BD,
614349,00000130,false,Rx,0,8,B9,FF,FF,FF,00,00,0E,82,
614350,00000100,false,Rx,0,8,71,00,00,00,00,00,0A,FA,
615349,00000120,false,Rx,0,8,20,00,00,00,60,00,2F,7B,
615350,00000110,false,Rx,0,8,06,00,00,00,20,00,19,BD,
616350,00000130,false,Rx,0,8,18,00,00,00,10,00,0E,03,
616351,00000100,false,Rx,0,8,5A,00,00,00,10,00,01,21,
617474,00000120,false,Rx,0,8,20,00,00,00,70,00,22,BB,
617476,00000110,false,Rx,0,8,06,00,00,00,30,00,14,7D,
618475,00000130,false,Rx,0,8,F8,FF,FF,FF,20,00,18,53,
618476,00000100,false,Rx,0,8,88,00,00,00,20,00,07,53,
619475,00000120,false,Rx,0,8,20,00,00,00,80,00,66,BB,
619476,00000110,false,Rx,0,8,06,00,00,00,40,00,31,BD,
620474,00000130,false,Rx,0,8,18,00,00,00,30,00,17,C3,
620475,00000100,false,Rx,0,8,71,00,00,00,30,00,1E,FA,
620475,00000140,false,Rx,0,8,01,00,FF,FF,A0,00,79,EE,
621600,00000120,false,Rx,0,8,20,00,00,00,90,00,6B,7B,
621602,00000110,false,Rx,0,8,1D,00,00,00,50,00,3F,96,
622599,00000130,false,Rx,0,8,F8,FF,FF,FF,40,00,30,53,
622600,00000100,false,Rx,0,8,71,00,00,00,40,00,3B,3A,
623600,00000120,false,Rx,0,8,59,00,00,00,A0,00,74,D2,
623601,00000110,false,Rx,0,8,1D,00,00,00,60,00,2B,96,
624600,00000130,false,Rx,0,8,18,00,00,00,50,00,3F,C3,
624601,00000100,false,Rx,0,8,71,00,00,00,50,00,36,FA,
624601,00000150,false,Rx,0,4,FD,F4,40,A7,00,00,00,00,
624602,00000120,false,Rx,0,8,59,00,00,00,B0,00,79,12,
625847,00000110,false,Rx,0,8,4B,00,00,00,70,00,2A,60,
625849,00000050,false,Rx,0,6,40,54,FF,FF,DF,FF,00,00,
625850,00000130,false,Rx,0,8,D8,34,03,00,63,80,8A,13,
626848,00000100,false,Rx,0,8,5A,00,00,00,60,00,24,E1,
626849,00000120,false,Rx,0,8,3D,00,00,00,C0,00,54,F6,
627846,00000110,false,Rx,0,8,4B,00,00,00,80,00,6E,60,
627848,00000130,false,Rx,0,8,F8,FF,FF,FF,70,00,24,53,
628972,00000100,false,Rx,0,8,71,00,00,00,70,00,2F,3A,
628973,00000120,false,Rx,0,8,3D,00,00,00,D0,00,59,36,
629981,00000110,false,Rx,0,8,1D,00,00,00,90,00,6F,96,
629982,00000130,false,Rx,0,8,F8,FF,FF,FF,80,00,60,53,
630971,00000100,false,Rx,0,8,71,00,00,00,80,00,6B,3A,
630972,00000120,false,Rx,0,8,3D,00,00,00,E0,00,4D,36,
632097,00000110,false,Rx,0,8,1D,00,00,00,A0,00,7B,96,
632098,00000130,false,Rx,0,8,18,00,00,00,90,00,6F,C3,
633111,00000100,false,Rx,0,8,5A,00,00,00,90,00,60,E1,
633112,00000120,false,Rx,0,8,3D,00,00,00,F0,00,40,F6,
634096,00000110,false,Rx,0,8,1D,00,00,00,B0,00,76,56,
634097,00000130,false,Rx,0,8,F8,FF,FF,FF,A0,00,79,93,
635096,00000100,false,Rx,0,8,71,00,00,00,A0,00,72,FA,
635098,00000120,false,Rx,0,8,3D,00,00,00,00,00,04,F6,
636199,00000110,false,Rx,0,8,1D,00,00,00,C0,00,53,96,
636200,00000130,false,Rx,0,8,F8,FF,FF,FF,B0,00,74,53,
637200,00000100,false,Rx,0,8,71,00,00,00,B0,00,7F,3A,
637201,00000120,false,Rx,0,8,3D,00,00,00,10,00,09,36,
638199,00000110,false,Rx,0,8,06,00,00,00,D0,00,5D,BD,
638201,00000130,false,Rx,0,8,F8,FF,FF,FF,C0,00,51,93,
639197,00000100,false,Rx,0,8,71,00,00,00,C0,00,5A,FA,
639197,00000120,false,Rx,0,8,20,00,00,00,20,00,1E,BB,
640324,00000110,false,Rx,0,8,06,00,00,00,E0,00,49,BD,
640325,00000130,false,Rx,0,8,F8,FF,FF,FF,D0,00,5C,53,
641350,00000100,false,Rx,0,8,71,00,00,00,D0,00,57,3A,
641351,00000140,false,Rx,0,8,01,00,FF,FF,B0,00,74,2E,
641352,00000120,false,Rx,0,8,20,00,00,00,30,00,13,7B,
642334,00000110,false,Rx,0,8,1D,00,00,00,F0,00,47,96,
642335,00000130,false,Rx,0,8,F8,FF,FF,FF,E0,00,48,53,
643351,00000100,false,Rx,0,8,71,00,00,00,E0,00,43,3A,
643353,00000120,false,Rx,0,8,3D,00,00,00,40,00,35,36,
644351,00000110,false,Rx,0,8,1D,00,00,00,00,00,03,96,
644353,00000130,false,Rx,0,8,18,00,00,00,F0,00,47,C3,
645507,00000100,false,Rx,0,8,71,00,00,00,F0,00,4E,FA,
645508,00000150,false,Rx,0,4,FD,F4,40,A7,00,00,00,00,
645509,00000120,false,Rx,0,8,3D,00,00,00,50,00,38,F6,
645509,00000110,false,Rx,0,8,34,00,00,00,10,00,09,AF,
646570,00000050,false,Rx,0,6,40,54,FF,FF,DF,FF,00,00,
646571,00000130,false,Rx,0,8,CC,95,FF,FF,03,80,1C,BE,
646572,00000100,false,Rx,0,8,71,00,00,00,00,00,0A,FA,
648197,00000120,false,Rx,0,8,59,00,00,00,60,00,24,D2,
648197,00000110,false,Rx,0,8,34,00,00,00,20,00,1D,AF,
649193,00000130,false,Rx,0,8,95,00,00,00,10,00,10,DE,
649195,00000100,false,Rx,0,8,71,00,00,00,10,00,07,3A,
650321,00000120,false,Rx,0,8,59,00,00,00,70,00,29,12,
650321,00000110,false,Rx,0,8,1D,00,00,00,30,00,17,96,
651318,00000130,false,Rx,0,8,D9,FF,FF,FF,20,00,1E,E2,
651319,00000100,false,Rx,0,8,71,00,00,00,20,00,13,3A,
652320,00000120,false,Rx,0,8,3D,00,00,00,80,00,65,36,
652321,00000110,false,Rx,0,8,1D,00,00,00,40,00,32,56,
653320,00000130,false,Rx,0,8,37,00,00,00,30,00,10,5C,
653321,00000100,false,Rx,0,8,71,00,00,00,30,00,1E,FA,
654444,00000120,false,Rx,0,8,3D,00,00,00,90,00,68,F6,
654444,00000110,false,Rx,0,8,1D,00,00,00,50,00,3F,96,
655447,00000130,false,Rx,0,8,F8,FF,FF,FF,40,00,30,53,
655448,00000100,false,Rx,0,8,71,00,00,00,40,00,3B,3A,
656444,00000120,false,Rx,0,8,3D,00,00,00,A0,00,7C,F6,
656444,00000110,false,Rx,0,8,1D,00,00,00,60,00,2B,96,
657473,00000130,false,Rx,0,8,18,00,00,00,50,00,3F,C3,
657474,00000100,false,Rx,0,8,71,00,00,00,50,00,36,FA,
658628,00000120,false,Rx,0,8,3D,00,00,00,B0,00,71,36,
658629,00000110,false,Rx,0,8,06,00,00,00,70,00,25,BD,
659626,00000130,false,Rx,0,8,D9,FF,FF,FF,60,00,2F,22,
659628,00000100,false,Rx,0,8,71,00,00,00,60,00,22,FA,
660609,00000120,false,Rx,0,8,20,00,00,00,C0,00,57,7B,
660610,00000110,false,Rx,0,8,06,00,00,00,80,00,61,BD,
661606,00000130,false,Rx,0,8,F8,FF,FF,FF,70,00,24,53,
661607,00000100,false,Rx,0,8,71,00,00,00,70,00,2F,3A,
661608,00000140,false,Rx,0,8,01,00,FF,FF,C0,00,51,EE,
662754,00000120,false,Rx,0,8,20,00,00,00,D0,00,5A,BB,
662756,00000110,false,Rx,0,8,06,00,00,00,90,00,6C,7D,
663753,00000130,false,Rx,0,8,18,00,00,00,80,00,62,03,
663755,00000100,false,Rx,0,8,71,00,00,00,80,00,6B,3A,
664753,00000120,false,Rx,0,8,3D,00,00,00,E0,00,4D,36,
664754,00000110,false,Rx,0,8,06,00,00,00,A0,00,78,7D,
664755,00000150,false,Rx,0,4,FD,F4,40,A7,00,00,00,00,
665731,00000130,false,Rx,0,8,F8,FF,FF,FF,90,00,6D,93,
665732,00000100,false,Rx,0,8,5A,00,00,00,90,00,60,E1,
665733,00000120,false,Rx,0,8,3D,00,00,00,F0,00,40,F6,
666991,00000110,false,Rx,0,8,34,00,00,00,B0,00,71,AF,
666993,00000050,false,Rx,0,6,40,54,FF,FF,DF,FF,00,00,
666993,00000130,false,Rx,0,8,8B,BA,F5,FF,A3,80,BD,D7,
667978,00000100,false,Rx,0,8,5A,00,00,00,A0,00,74,E1,
667980,00000120,false,Rx,0,8,3D,00,00,00,00,00,04,F6,
668981,00000110,false,Rx,0,8,34,00,00,00,C0,00,54,6F,
668982,00000210,false,Rx,0,8,75,69,00,05,06,5F,01,03,
668983,00000130,false,Rx,0,8,D5,00,00,00,B0,00,66,1E,
670129,00000100,false,Rx,0,8,5A,00,00,00,B0,00,79,21,
670131,00000120,false,Rx,0,8,3D,00,00,00,10,00,09,36,
671104,00000110,false,Rx,0,8,1D,00,00,00,D0,00,5E,56,
671105,00000130,false,Rx,0,8,18,00,00,00,C0,00,53,C3,
672102,00000100,false,Rx,0,8,5A,00,00,00,C0,00,5C,E1,
672103,00000120,false,Rx,0,8,20,00,00,00,20,00,1E,BB,
673257,00000110,false,Rx,0,8,1D,00,00,00,E0,00,4A,56,
673259,00000130,false,Rx,0,8,D9,FF,FF,FF,D0,00,5A,E2,
674253,00000100,false,Rx,0,8,71,00,00,00,D0,00,57,3A,
674254,00000120,false,Rx,0,8,20,00,00,00,30,00,13,7B,
675236,00000110,false,Rx,0,8,06,00,00,00,F0,00,44,7D,
675238,00000130,false,Rx,0,8,D9,FF,FF,FF,E0,00,4E,E2,
675239,00000100,false,Rx,0,8,71,00,00,00,E0,00,43,3A,
677113,00000120,false,Rx,0,8,3D,00,00,00,40,00,35,36,
677115,00000110,false,Rx,0,8,06,00,00,00,00,00,00,7D,
678130,00000130,false,Rx,0,8,F8,FF,FF,FF,F0,00,45,93,
678131,00000100,false,Rx,0,8,71,00,00,00,F0,00,4E,FA,
679108,00000120,false,Rx,0,8,3D,00,00,00,50,00,38,F6,
679109,00000110,false,Rx,0,8,1D,00,00,00,10,00,0E,56,
680109,00000130,false,Rx,0,8,D9,FF,FF,FF,00,00,07,22,
680110,00000100,false,Rx,0,8,71,00,00,00,00,00,0A,FA,
681099,00000120,false,Rx,0,8,3D,00,00,00,60,00,2C,F6,
681100,00000110,false,Rx,0,8,1D,00,00,00,20,00,1A,56,
682256,00000130,false,Rx,0,8,18,00,00,00,10,00,0E,03,
682257,00000100,false,Rx,0,8,71,00,00,00,10,00,07,3A,
682257,00000140,false,Rx,0,8,01,00,FF,FF,D0,00,5C,2E,
683230,00000120,false,Rx,0,8,3D,00,00,00,70,00,21,36,
683231,00000110,false,Rx,0,8,34,00,00,00,30,00,10,6F,
684240,00000130,false,Rx,0,8,F8,FF,FF,FF,20,00,18,53,
684242,00000100,false,Rx,0,8,71,00,00,00,20,00,13,3A,
685224,00000120,false,Rx,0,8,20,00,00,00,80,00,66,BB,
685226,00000110,false,Rx,0,8,34,00,00,00,40,00,35,AF,
685226,00000150,false,Rx,0,4,FD,F4,40,A7,00,00,00,00,
686383,00000130,false,Rx,0,8,F8,FF,FF,FF,30,00,15,93,
686384,00000100,false,Rx,0,8,5A,00,00,00,30,00,18,E1,
686385,00000120,false,Rx,0,8,20,00,00,00,90,00,6B,7B,
687474,00000110,false,Rx,0,8,62,00,00,00,50,00,34,59,
687476,00000050,false,Rx,0,6,40,54,FF,FF,DF,FF,00,00,
687476,00000130,false,Rx,0,8,6C,21,00,00,43,80,85,E0,
688626,00000100,false,Rx,0,8,71,00,00,00,40,00,3B,3A,
688628,00000120,false,Rx,0,8,3D,00,00,00,A0,00,7C,F6,
689606,00000110,false,Rx,0,8,62,00,00,00,60,00,20,59,
689608,00000130,false,Rx,0,8,F8,FF,FF,FF,50,00,3D,93,
690750,00000100,false,Rx,0,8,71,00,00,00,50,00,36,FA,
690752,00000120,false,Rx,0,8,3D,00,00,00,B0,00,71,36,
691755,00000110,false,Rx,0,8,1D,00,00,00,70,00,26,56,
691756,00000170,false,Rx,0,8,00,00,00,58,50,81,05,4C,
691757,00000130,false,Rx,0,8,18,00,00,00,60,00,2B,C3,
692759,00000100,false,Rx,0,8,71,00,00,00,60,00,22,FA,
692761,00000120,false,Rx,0,8,20,00,00,00,C0,00,57,7B,
693731,00000110,false,Rx,0,8,1D,00,00,00,80,00,62,56,
693732,00000130,false,Rx,0,8,B9,FF,FF,FF,70,00,2B,42,
694743,00000100,false,Rx,0,8,71,00,00,00,70,00,2F,3A,
694744,00000120,false,Rx,0,8,20,00,00,00,D0,00,5A,BB,
695727,00000110,false,Rx,0,8,1D,00,00,00,90,00,6F,96,
695729,00000130,false,Rx,0,8,D9,FF,FF,FF,80,00,66,E2,
696854,00000100,false,Rx,0,8,71,00,00,00,80,00,6B,3A,
696856,00000120,false,Rx,0,8,3D,00,00,00,E0,00,4D,36,
697856,00000110,false,Rx,0,8,1D,00,00,00,A0,00,7B,96,
697858,00000130,false,Rx,0,8,F8,FF,FF,FF,90,00,6D,93,
698870,00000100,false,Rx,0,8,5A,00,00,00,90,00,60,E1,
698872,00000120,false,Rx,0,8,3D,00,00,00,F0,00,40,F6,
699986,00000110,false,Rx,0,8,1D,00,00,00,B0,00,76,56,
699988,00000130,false,Rx,0,8,18,00,00,00,A0,00,7B,C3,
700981,00000100,false,Rx,0,8,71,00,00,00,A0,00,72,FA,
700982,00000120,false,Rx,0,8,3D,00,00,00,00,00,04,F6,
701976,00000110,false,Rx,0,8,1D,00,00,00,C0,00,53,96,
701978,00000130,false,Rx,0,8,F8,FF,FF,FF,B0,00,74,53,
702973,00000100,false,Rx,0,8,71,00,00,00,B0,00,7F,3A,
702974,00000140,false,Rx,0,8,01,00,FF,FF,E0,00,48,2E,
702975,00000120,false,Rx,0,8,3D,00,00,00,10,00,09,36,
703975,00000110,false,Rx,0,8,34,00,00,00,D0,00,59,AF,
703976,00000130,false,Rx,0,8,37,00,00,00,C0,00,54,5C,
705111,00000100,false,Rx,0,8,71,00,00,00,C0,00,5A,FA,
705112,00000150,false,Rx,0,4,FD,F4,40,A7,00,00,00,00,
705114,00000120,false,Rx,0,8,3D,00,00,00,20,00,1D,36,
706128,00000110,false,Rx,0,8,34,00,00,00,E0,00,4D,AF,
706129,00000130,false,Rx,0,8,F8,FF,FF,FF,D0,00,5C,53,
707151,00000100,false,Rx,0,8,71,00,00,00,D0,00,57,3A,
707152,00000120,false,Rx,0,8,3D,00,00,00,30,00,10,F6,
707153,00000110,false,Rx,0,8,4B,00,00,00,F0,00,4B,A0,
708357,00000050,false,Rx,0,6,40,54,FF,FF,DF,FF,00,00,
708358,00000130,false,Rx,0,8,D8,34,03,00,E3,80,EB,D3,
708359,00000100,false,Rx,0,8,5A,00,00,00,E0,00,45,21,
709847,00000120,false,Rx,0,8,3D,00,00,00,40,00,35,36,
709848,00000110,false,Rx,0,8,4B,00,00,00,00,00,0F,A0,
710992,00000130,false,Rx,0,8,F8,FF,FF,FF,F0,00,45,93,
710994,00000100,false,Rx,0,8,71,00,00,00,F0,00,4E,FA,
711985,00000120,false,Rx,0,8,3D,00,00,00,50,00,38,F6,
711986,00000110,false,Rx,0,8,1D,00,00,00,10,00,0E,56,
712979,00000130,false,Rx,0,8,F8,FF,FF,FF,00,00,01,93,
712980,00000100,false,Rx,0,8,71,00,00,00,00,00,0A,FA,
714130,00000120,false,Rx,0,8,20,00,00,00,60,00,2F,7B,
714132,00000110,false,Rx,0,8,1D,00,00,00,20,00,1A,56,
715127,00000130,false,Rx,0,8,F8,FF,FF,FF,10,00,0C,53,
715128,00000100,false,Rx,0,8,71,00,00,00,10,00,07,3A,
716107,00000120,false,Rx,0,8,20,00,00,00,70,00,22,BB,
716108,00000110,false,Rx,0,8,1D,00,00,00,30,00,17,96,
717107,00000130,false,Rx,0,8,18,00,00,00,20,00,1A,03,
717109,00000100,false,Rx,0,8,71,00,00,00,20,00,13,3A,
718256,00000120,false,Rx,0,8,20,00,00,00,80,00,66,BB,
718257,00000110,false,Rx,0,8,1D,00,00,00,40,00,32,56,
719225,00000130,false,Rx,0,8,F8,FF,FF,FF,30,00,15,93,
719227,00000100,false,Rx,0,8,71,00,00,00,30,00,1E,FA,
720229,00000120,false,Rx,0,8,20,00,00,00,90,00,6B,7B,
720230,00000110,false,Rx,0,8,1D,00,00,00,50,00,3F,96,
721221,00000130,false,Rx,0,8,F8,FF,FF,FF,40,00,30,53,
721223,00000100,false,Rx,0,8,71,00,00,00,40,00,3B,3A,
722380,00000120,false,Rx,0,8,3D,00,00,00,A0,00,7C,F6,
722382,00000110,false,Rx,0,8,1D,00,00,00,60,00,2B,96,
723385,00000130,false,Rx,0,8,18,00,00,00,50,00,3F,C3,
723387,00000100,false,Rx,0,8,71,00,00,00,50,00,36,FA,
723387,00000140,false,Rx,0,8,01,00,FF,FF,F0,00,45,EE,
724356,00000120,false,Rx,0,8,3D,00,00,00,B0,00,71,36,
724357,00000110,false,Rx,0,8,1D,00,00,00,70,00,26,56,
725360,00000130,false,Rx,0,8,37,00,00,00,60,00,2C,5C,
725362,00000100,false,Rx,0,8,71,00,00,00,60,00,22,FA,
725362,00000150,false,Rx,0,4,FD,F4,40,A7,00,00,00,00,
726352,00000120,false,Rx,0,8,3D,00,00,00,C0,00,54,F6,
726353,00000110,false,Rx,0,8,1D,00,00,00,80,00,62,56,
727504,00000130,false,Rx,0,8,B9,FF,FF,FF,70,00,2B,42,
727505,00000100,false,Rx,0,8,71,00,00,00,70,00,2F,3A,
727506,00000120,false,Rx,0,8,3D,00,00,00,D0,00,59,36,
728597,00000110,false,Rx,0,8,34,00,00,00,90,00,68,6F,
728599,00000050,false,Rx,0,6,40,54,FF,FF,DF,FF,00,00,
728599,00000130,false,Rx,0,8,EB,95,FF,FF,83,80,7B,A9,
729760,00000100,false,Rx,0,8,71,00,00,00,80,00,6B,3A,
729762,00000120,false,Rx,0,8,20,00,00,00,E0,00,4E,BB,
730730,00000110,false,Rx,0,8,34,00,00,00,A0,00,7C,6F,
730732,00000130,false,Rx,0,8,95,00,00,00,90,00,71,1E,
731721,00000100,false,Rx,0,8,5A,00,00,00,90,00,60,E1,
731723,00000120,false,Rx,0,8,20,00,00,00,F0,00,43,7B,
732857,00000110,false,Rx,0,8,1D,00,00,00,B0,00,76,56,
732858,00000130,false,Rx,0,8,F8,FF,FF,FF,A0,00,79,93,
733854,00000100,false,Rx,0,8,71,00,00,00,A0,00,72,FA,
733856,00000120,false,Rx,0,8,20,00,00,00,00,00,07,7B,
734857,00000110,false,Rx,0,8,1D,00,00,00,C0,00,53,96,
734859,00000130,false,Rx,0,8,F8,FF,FF,FF,B0,00,74,53,
735878,00000100,false,Rx,0,8,71,00,00,00,B0,00,7F,3A,
735880,00000120,false,Rx,0,8,20,00,00,00,10,00,0A,BB,
736974,00000110,false,Rx,0,8,1D,00,00,00,D0,00,5E,56,
736975,00000130,false,Rx,0,8,18,00,00,00,C0,00,53,C3,
737979,00000100,false,Rx,0,8,71,00,00,00,C0,00,5A,FA,
737980,00000120,false,Rx,0,8,20,00,00,00,20,00,1E,BB,
738979,00000110,false,Rx,0,8,1D,00,00,00,E0,00,4A,56,
738981,00000130,false,Rx,0,8,18,00,00,00,D0,00,5E,03,
739975,00000100,false,Rx,0,8,71,00,00,00,D0,00,57,3A,
739976,00000120,false,Rx,0,8,20,00,00,00,30,00,13,7B,
740973,00000110,false,Rx,0,8,1D,00,00,00,F0,00,47,96,
740975,00000130,false,Rx,0,8,F8,FF,FF,FF,E0,00,48,53,
742101,00000100,false,Rx,0,8,71,00,00,00,E0,00,43,3A,
742103,00000120,false,Rx,0,8,3D,00,00,00,40,00,35,36,
743106,00000110,false,Rx,0,8,1D,00,00,00,00,00,03,96,
743107,00000130,false,Rx,0,8,F8,FF,FF,FF,F0,00,45,93,
744137,00000100,false,Rx,0,8,71,00,00,00,F0,00,4E,FA,
744139,00000140,false,Rx,0,8,01,00,FF,FF,00,00,01,EE,
744139,00000120,false,Rx,0,8,3D,00,00,00,50,00,38,F6,
745096,00000110,false,Rx,0,8,06,00,00,00,10,00,0D,BD,
745097,00000150,false,Rx,0,4,FD,F4,40,A7,00,00,00,00,
745098,00000130,false,Rx,0,8,F8,FF,FF,FF,00,00,01,93,
746256,00000100,false,Rx,0,8,71,00,00,00,00,00,0A,FA,
746258,00000120,false,Rx,0,8,3D,00,00,00,60,00,2C,F6,
747255,00000110,false,Rx,0,8,06,00,00,00,20,00,19,BD,
747256,00000130,false,Rx,0,8,F8,FF,FF,FF,10,00,0C,53,
748232,00000100,false,Rx,0,8,71,00,00,00,10,00,07,3A,
748233,00000120,false,Rx,0,8,3D,00,00,00,70,00,21,36,
748234,00000110,false,Rx,0,8,1D,00,00,00,30,00,17,96,
749505,00000050,false,Rx,0,6,40,54,FF,FF,DF,FF,00,00,
749506,00000130,false,Rx,0,8,6B,BA,F5,FF,23,80,CA,77,
749507,00000100,false,Rx,0,8,71,00,00,00,20,00,13,3A,
751127,00000120,false,Rx,0,8,3D,00,00,00,80,00,65,36,
751129,00000110,false,Rx,0,8,1D,00,00,00,40,00,32,56,
752101,00000130,false,Rx,0,8,95,00,00,00,30,00,09,1E,
752102,00000100,false,Rx,0,8,71,00,00,00,30,00,1E,FA,
753111,00000120,false,Rx,0,8,3D,00,00,00,90,00,68,F6,
753113,00000110,false,Rx,0,8,1D,00,00,00,50,00,3F,96,
754099,00000130,false,Rx,0,8,F8,FF,FF,FF,40,00,30,53,
754101,00000100,false,Rx,0,8,71,00,00,00,40,00,3B,3A,
755225,00000120,false,Rx,0,8,3D,00,00,00,A0,00,7C,F6,
755226,00000110,false,Rx,0,8,1D,00,00,00,60,00,2B,96,
756230,00000130,false,Rx,0,8,18,00,00,00,50,00,3F,C3,
756231,00000100,false,Rx,0,8,71,00,00,00,50,00,36,FA,
757231,00000120,false,Rx,0,8,3D,00,00,00,B0,00,71,36,
757233,00000110,false,Rx,0,8,1D,00,00,00,70,00,26,56,
758245,00000130,false,Rx,0,8,37,00,00,00,60,00,2C,5C,
758247,00000100,false,Rx,0,8,5A,00,00,00,60,00,24,E1,
759377,00000120,false,Rx,0,8,20,00,00,00,C0,00,57,7B,
759379,00000110,false,Rx,0,8,1D,00,00,00,80,00,62,56,
760382,00000130,false,Rx,0,8,18,00,00,00,70,00,26,03,
760383,00000100,false,Rx,0,8,71,00,00,00,70,00,2F,3A,
761353,00000120,false,Rx,0,8,20,00,00,00,D0,00,5A,BB,
761355,00000110,false,Rx,0,8,1D,00,00,00,90,00,6F,96,
762371,00000130,false,Rx,0,8,18,00,00,00,80,00,62,03,
762372,00000100,false,Rx,0,8,71,00,00,00,80,00,6B,3A,
763474,00000120,false,Rx,0,8,3D,00,00,00,E0,00,4D,36,
763475,00000110,false,Rx,0,8,1D,00,00,00,A0,00,7B,96,
764477,00000130,false,Rx,0,8,18,00,00,00,90,00,6F,C3,
764479,00000100,false,Rx,0,8,71,00,00,00,90,00,66,FA,
764479,00000140,false,Rx,0,8,01,00,FF,FF,10,00,0C,2E,
765480,00000120,false,Rx,0,8,3D,00,00,00,F0,00,40,F6,
765482,00000110,false,Rx,0,8,1D,00,00,00,B0,00,76,56,
765482,00000150,false,Rx,0,4,FD,F4,40,A7,00,00,00,00,
766479,00000130,false,Rx,0,8,F8,FF,FF,FF,A0,00,79,93,
766480,00000100,false,Rx,0,8,5A,00,00,00,A0,00,74,E1,
767497,00000120,false,Rx,0,8,59,00,00,00,00,00,0C,D2,
767498,00000110,false,Rx,0,8,1D,00,00,00,C0,00,53,96,
768479,00000130,false,Rx,0,8,F8,FF,FF,FF,B0,00,74,53,
768480,00000100,false,Rx,0,8,5A,00,00,00,B0,00,79,21,
768482,00000120,false,Rx,0,8,59,00,00,00,10,00,01,12,
769723,00000110,false,Rx,0,8,4B,00,00,00,D0,00,52,60,
769724,00000050,false,Rx,0,6,40,54,FF,FF,DF,FF,00,00,
769725,00000130,false,Rx,0,8,6C,21,00,00,C3,80,E4,20,
770867,00000100,false,Rx,0,8,71,00,00,00,C0,00,5A,FA,
770868,00000120,false,Rx,0,8,3D,00,00,00,20,00,1D,36,
771857,00000110,false,Rx,0,8,4B,00,00,00,E0,00,46,60,
771859,00000130,false,Rx,0,8,B9,FF,FF,FF,D0,00,53,42,
772845,00000100,false,Rx,0,8,71,00,00,00,D0,00,57,3A,
772847,00000120,false,Rx,0,8,3D,00,00,00,30,00,10,F6,
773982,00000110,false,Rx,0,8,1D,00,00,00,F0,00,47,96,
773983,00000130,false,Rx,0,8,F8,FF,FF,FF,E0,00,48,53,
774978,00000100,false,Rx,0,8,5A,00,00,00,E0,00,45,21,
774980,00000120,false,Rx,0,8,3D,00,00,00,40,00,35,36,
775982,00000110,false,Rx,0,8,1D,00,00,00,00,00,03,96,
775984,00000130,false,Rx,0,8,D9,FF,FF,FF,F0,00,43,22,
776976,00000100,false,Rx,0,8,71,00,00,00,F0,00,4E,FA,
776977,00000120,false,Rx,0,8,3D,00,00,00,50,00,38,F6,
778131,00000110,false,Rx,0,8,06,00,00,00,10,00,0D,BD,
778132,00000130,false,Rx,0,8,D9,FF,FF,FF,00,00,07,22,
779096,00000100,false,Rx,0,8,71,00,00,00,00,00,0A,FA,
779097,00000120,false,Rx,0,8,20,00,00,00,60,00,2F,7B,
780099,00000110,false,Rx,0,8,06,00,00,00,20,00,19,BD,
780101,00000130,false,Rx,0,8,18,00,00,00,10,00,0E,03,
781104,00000100,false,Rx,0,8,71,00,00,00,10,00,07,3A,
781105,00000120,false,Rx,0,8,20,00,00,00,70,00,22,BB,
782250,00000110,false,Rx,0,8,1D,00,00,00,30,00,17,96,
782252,00000130,false,Rx,0,8,F8,FF,FF,FF,20,00,18,53,
783251,00000100,false,Rx,0,8,71,00,00,00,20,00,13,3A,
783252,00000120,false,Rx,0,8,3D,00,00,00,80,00,65,36,
784227,00000110,false,Rx,0,8,1D,00,00,00,40,00,32,56,
784229,00000130,false,Rx,0,8,18,00,00,00,30,00,17,C3,
785229,00000100,false,Rx,0,8,71,00,00,00,30,00,1E,FA,
785231,00000140,false,Rx,0,8,01,00,FF,FF,20,00,18,2E,
785231,00000150,false,Rx,0,4,FD,F4,40,A7,00,00,00,00,
785232,00000120,false,Rx,0,8,3D,00,00,00,90,00,68,F6,
786221,00000110,false,Rx,0,8,1D,00,00,00,50,00,3F,96,
786222,00000130,false,Rx,0,8,18,00,00,00,40,00,32,03,
787376,00000100,false,Rx,0,8,71,00,00,00,40,00,3B,3A,
787377,00000120,false,Rx,0,8,59,00,00,00,A0,00,74,D2,
788373,00000110,false,Rx,0,8,1D,00,00,00,60,00,2B,96,
788375,00000130,false,Rx,0,8,18,00,00,00,50,00,3F,C3,
789355,00000100,false,Rx,0,8,5A,00,00,00,50,00,30,E1,
789356,00000120,false,Rx,0,8,59,00,00,00,B0,00,79,12,
789357,00000110,false,Rx,0,8,34,00,00,00,70,00,21,AF,
790495,00000050,false,Rx,0,6,40,54,FF,FF,DF,FF,00,00,
790497,00000130,false,Rx,0,8,B8,34,03,00,63,80,83,B3,
790497,00000100,false,Rx,0,8,71,00,00,00,60,00,22,FA,
792102,00000120,false,Rx,0,8,3D,00,00,00,C0,00,54,F6,
792104,00000110,false,Rx,0,8,34,00,00,00,80,00,65,AF,
793252,00000130,false,Rx,0,8,F8,FF,FF,FF,70,00,24,53,
793254,00000100,false,Rx,0,8,71,00,00,00,70,00,2F,3A,
794254,00000120,false,Rx,0,8,3D,00,00,00,D0,00,59,36,
794256,00000110,false,Rx,0,8,1D,00,00,00,90,00,6F,96,
794256,00000170,false,Rx,0,8,00,00,00,59,50,81,05,D1,
795224,00000130,false,Rx,0,8,F8,FF,FF,FF,80,00,60,53,
795226,00000100,false,Rx,0,8,71,00,00,00,80,00,6B,3A,
796355,00000120,false,Rx,0,8,3D,00,00,00,E0,00,4D,36,
796357,00000110,false,Rx,0,8,1D,00,00,00,A0,00,7B,96,
797348,00000130,false,Rx,0,8,F8,FF,FF,FF,90,00,6D,93,
797349,00000100,false,Rx,0,8,5A,00,00,00,90,00,60,E1,
798354,00000120,false,Rx,0,8,3D,00,00,00,F0,00,40,F6,
798355,00000110,false,Rx,0,8,06,00,00,00,B0,00,75,BD,
799378,00000130,false,Rx,0,8,F8,FF,FF,FF,A0,00,79,93,
799379,00000100,false,Rx,0,8,71,00,00,00,A0,00,72,FA,
800500,00000120,false,Rx,0,8,3D,00,00,00,00,00,04,F6,
800502,00000110,false,Rx,0,8,06,00,00,00,C0,00,50,7D,
801505,00000130,false,Rx,0,8,18,00,00,00,B0,00,76,03,
801506,00000100,false,Rx,0,8,71,00,00,00,B0,00,7F,3A,
802473,00000120,false,Rx,0,8,3D,00,00,00,10,00,09,36,
802475,00000110,false,Rx,0,8,1D,00,00,00,D0,00,5E,56,
803475,00000130,false,Rx,0,8,F8,FF,FF,FF,C0,00,51,93,
803477,00000100,false,Rx,0,8,71,00,00,00,C0,00,5A,FA,
804598,00000120,false,Rx,0,8,3D,00,00,00,20,00,1D,36,
804599,00000110,false,Rx,0,8,1D,00,00,00,E0,00,4A,56,
804600,00000150,false,Rx,0,4,FD,F4,40,A7,00,00,00,00,
805598,00000130,false,Rx,0,8,37,00,00,00,D0,00,59,9C,
805600,00000100,false,Rx,0,8,5A,00,00,00,D0,00,51,21,
805600,00000140,false,Rx,0,8,01,00,FF,FF,30,00,15,EE,
805601,00000120,false,Rx,0,8,3D,00,00,00,30,00,10,F6,
806852,00000110,false,Rx,0,8,1D,00,00,00,F0,00,47,96,
806853,00000130,false,Rx,0,8,18,00,00,00,E0,00,4A,03,
807848,00000100,false,Rx,0,8,71,00,00,00,E0,00,43,3A,
807849,00000120,false,Rx,0,8,59,00,00,00,40,00,3D,12,
808850,00000110,false,Rx,0,8,1D,00,00,00,00,00,03,96,
808851,00000130,false,Rx,0,8,D9,FF,FF,FF,F0,00,43,22,
809847,00000100,false,Rx,0,8,71,00,00,00,F0,00,4E,FA,
809849,00000120,false,Rx,0,8,59,00,00,00,50,00,30,D2,
809849,00000110,false,Rx,0,8,06,00,00,00,10,00,0D,BD,
811099,00000050,false,Rx,0,6,40,54,FF,FF,DF,FF,00,00,
811100,00000130,false,Rx,0,8,EB,95,FF,FF,03,80,1A,69,
811101,00000100,false,Rx,0,8,71,00,00,00,00,00,0A,FA,
812724,00000120,false,Rx,0,8,3D,00,00,00,60,00,2C,F6,
812725,00000110,false,Rx,0,8,06,00,00,00,20,00,19,BD,
813723,00000130,false,Rx,0,8,76,00,00,00,10,00,06,8D,
813725,00000100,false,Rx,0,8,5A,00,00,00,10,00,01,21,
814849,00000120,false,Rx,0,8,3D,00,00,00,70,00,21,36,
814851,00000110,false,Rx,0,8,06,00,00,00,30,00,14,7D,
815850,00000130,false,Rx,0,8,B9,FF,FF,FF,20,00,17,42,
815851,00000100,false,Rx,0,8,71,00,00,00,20,00,13,3A,
816845,00000120,false,Rx,0,8,20,00,00,00,80,00,66,BB,
816847,00000110,false,Rx,0,8,06,00,00,00,40,00,31,BD,
817847,00000130,false,Rx,0,8,F8,FF,FF,FF,30,00,15,93,
817848,00000100,false,Rx,0,8,71,00,00,00,30,00,1E,FA,
818973,00000120,false,Rx,0,8,20,00,00,00,90,00,6B,7B,
818975,00000110,false,Rx,0,8,1D,00,00,00,50,00,3F,96,
819972,00000130,false,Rx,0,8,B9,FF,FF,FF,40,00,3F,42,
819973,00000100,false,Rx,0,8,71,00,00,00,40,00,3B,3A,
820972,00000120,false,Rx,0,8,3D,00,00,00,A0,00,7C,F6,
820974,00000110,false,Rx,0,8,1D,00,00,00,60,00,2B,96,
821949,00000130,false,Rx,0,8,F8,FF,FF,FF,50,00,3D,93,
821950,00000100,false,Rx,0,8,71,00,00,00,50,00,36,FA,
822973,00000120,false,Rx,0,8,3D,00,00,00,B0,00,71,36,
822974,00000110,false,Rx,0,8,34,00,00,00,70,00,21,AF,
824098,00000130,false,Rx,0,8,F8,FF,FF,FF,60,00,29,93,
824099,00000100,false,Rx,0,8,71,00,00,00,60,00,22,FA,
825098,00000120,false,Rx,0,8,3D,00,00,00,C0,00,54,F6,
825100,00000110,false,Rx,0,8,34,00,00,00,80,00,65,AF,
825100,00000150,false,Rx,0,4,FD,F4,40,A7,00,00,00,00,
826099,00000130,false,Rx,0,8,F8,FF,FF,FF,70,00,24,53,
826101,00000100,false,Rx,0,8,71,00,00,00,70,00,2F,3A,
826101,00000140,false,Rx,0,8,01,00,FF,FF,40,00,30,2E,
827224,00000120,false,Rx,0,8,3D,00,00,00,D0,00,59,36,
827225,00000110,false,Rx,0,8,34,00,00,00,90,00,68,6F,
828222,00000130,false,Rx,0,8,F8,FF,FF,FF,80,00,60,53,
828223,00000100,false,Rx,0,8,71,00,00,00,80,00,6B,3A,
829224,00000120,false,Rx,0,8,3D,00,00,00,E0,00,4D,36,
829226,00000110,false,Rx,0,8,34,00,00,00,A0,00,7C,6F,
830223,00000130,false,Rx,0,8,F8,FF,FF,FF,90,00,6D,93,
830224,00000100,false,Rx,0,8,71,00,00,00,90,00,66,FA,
830225,00000120,false,Rx,0,8,3D,00,00,00,F0,00,40,F6,
831474,00000110,false,Rx,0,8,1D,00,00,00,B0,00,76,56,
831475,00000050,false,Rx,0,6,40,54,FF,FF,DF,FF,00,00,
831475,00000130,false,Rx,0,8,6B,BA,F5,FF,A3,80,AB,B7,
832474,00000100,false,Rx,0,8,5A,00,00,00,A0,00,74,E1,
832476,00000120,false,Rx,0,8,3D,00,00,00,00,00,04,F6,
833475,00000110,false,Rx,0,8,1D,00,00,00,C0,00,53,96,
833476,00000130,false,Rx,0,8,95,00,00,00,B0,00,68,DE,
834599,00000100,false,Rx,0,8,71,00,00,00,B0,00,7F,3A,
834600,00000120,false,Rx,0,8,3D,00,00,00,10,00,09,36,
835599,00000110,false,Rx,0,8,1D,00,00,00,D0,00,5E,56,
835600,00000130,false,Rx,0,8,D9,FF,FF,FF,C0,00,57,22,
836598,00000100,false,Rx,0,8,88,00,00,00,C0,00,4E,93,
836600,00000120,false,Rx,0,8,20,00,00,00,20,00,1E,BB,
837724,00000110,false,Rx,0,8,1D,00,00,00,E0,00,4A,56,
837726,00000130,false,Rx,0,8,F8,FF,FF,FF,D0,00,5C,53,
838720,00000100,false,Rx,0,8,71,00,00,00,D0,00,57,3A,
838723,00000120,false,Rx,0,8,20,00,00,00,30,00,13,7B,
839724,00000110,false,Rx,0,8,1D,00,00,00,F0,00,47,96,
839725,00000130,false,Rx,0,8,18,00,00,00,E0,00,4A,03,
840722,00000100,false,Rx,0,8,71,00,00,00,E0,00,43,3A,
840723,00000120,false,Rx,0,8,20,00,00,00,40,00,36,BB,
841849,00000110,false,Rx,0,8,1D,00,00,00,00,00,03,96,
841850,00000130,false,Rx,0,8,F8,FF,FF,FF,F0,00,45,93,
842849,00000100,false,Rx,0,8,71,00,00,00,F0,00,4E,FA,
842850,00000120,false,Rx,0,8,20,00,00,00,50,00,3B,7B,
843848,00000110,false,Rx,0,8,1D,00,00,00,10,00,0E,56,
843849,00000130,false,Rx,0,8,F8,FF,FF,FF,00,00,01,93,
844847,00000100,false,Rx,0,8,71,00,00,00,00,00,0A,FA,
844848,00000150,false,Rx,0,4,FD,F4,40,A7,00,00,00,00,
844849,00000120,false,Rx,0,8,20,00,00,00,60,00,2F,7B,
845973,00000110,false,Rx,0,8,1D,00,00,00,20,00,1A,56,
845974,00000130,false,Rx,0,8,F8,FF,FF,FF,10,00,0C,53,
846973,00000100,false,Rx,0,8,71,00,00,00,10,00,07,3A,
846975,00000140,false,Rx,0,8,01,00,FF,FF,50,00,3D,EE,
846975,00000120,false,Rx,0,8,20,00,00,00,70,00,22,BB,
847947,00000110,false,Rx,0,8,1D,00,00,00,30,00,17,96,
847948,00000130,false,Rx,0,8,D9,FF,FF,FF,20,00,1E,E2,
848955,00000100,false,Rx,0,8,71,00,00,00,20,00,13,3A,
848957,00000120,false,Rx,0,8,3D,00,00,00,80,00,65,36,
849956,00000110,false,Rx,0,8,1D,00,00,00,40,00,32,56,
849957,00000130,false,Rx,0,8,F8,FF,FF,FF,30,00,15,93,
850945,00000100,false,Rx,0,8,71,00,00,00,30,00,1E,FA,
850946,00000120,false,Rx,0,8,3D,00,00,00,90,00,68,F6,
850947,00000110,false,Rx,0,8,4B,00,00,00,50,00,33,A0,
852197,00000050,false,Rx,0,6,40,54,FF,FF,DF,FF,00,00,
852198,00000130,false,Rx,0,8,4D,21,00,00,43,80,83,51,
852199,00000100,false,Rx,0,8,71,00,00,00,40,00,3B,3A,
853847,00000120,false,Rx,0,8,3D,00,00,00,A0,00,7C,F6,
853849,00000110,false,Rx,0,8,4B,00,00,00,60,00,27,A0,
854836,00000130,false,Rx,0,8,F8,FF,FF,FF,50,00,3D,93,
854837,00000100,false,Rx,0,8,71,00,00,00,50,00,36,FA,
855970,00000120,false,Rx,0,8,3D,00,00,00,B0,00,71,36,
855971,00000110,false,Rx,0,8,1D,00,00,00,70,00,26,56,
856971,00000130,false,Rx,0,8,18,00,00,00,60,00,2B,C3,
856972,00000100,false,Rx,0,8,5A,00,00,00,60,00,24,E1,
857946,00000120,false,Rx,0,8,04,00,00,00,C0,00,51,9F,
857947,00000110,false,Rx,0,8,1D,00,00,00,80,00,62,56,
858945,00000130,false,Rx,0,8,D9,FF,FF,FF,70,00,22,E2,
858945,00000100,false,Rx,0,8,71,00,00,00,70,00,2F,3A,
860065,00000120,false,Rx,0,8,04,00,00,00,D0,00,5C,5F,
860066,00000110,false,Rx,0,8,1D,00,00,00,90,00,6F,96,
861065,00000130,false,Rx,0,8,18,00,00,00,80,00,62,03,
861066,00000100,false,Rx,0,8,5A,00,00,00,80,00,6D,21,
862065,00000120,false,Rx,0,8,3D,00,00,00,E0,00,4D,36,
862066,00000110,false,Rx,0,8,1D,00,00,00,A0,00,7B,96,
863065,00000130,false,Rx,0,8,F8,FF,FF,FF,90,00,6D,93,
863066,00000100,false,Rx,0,8,71,00,00,00,90,00,66,FA,
864064,00000120,false,Rx,0,8,3D,00,00,00,F0,00,40,F6,
864065,00000110,false,Rx,0,8,34,00,00,00,B0,00,71,AF,
865190,00000130,false,Rx,0,8,D9,FF,FF,FF,A0,00,7F,22,
865191,00000100,false,Rx,0,8,71,00,00,00,A0,00,72,FA,
865191,00000150,false,Rx,0,4,FD,F4,40,A7,00,00,00,00,
866190,00000120,false,Rx,0,8,3D,00,00,00,00,00,04,F6,
866190,00000110,false,Rx,0,8,34,00,00,00,C0,00,54,6F,
867190,00000130,false,Rx,0,8,18,00,00,00,B0,00,76,03,
867191,00000100,false,Rx,0,8,71,00,00,00,B0,00,7F,3A,
867192,00000140,false,Rx,0,8,01,00,FF,FF,60,00,29,EE,
868315,00000120,false,Rx,0,8,3D,00,00,00,10,00,09,36,
868315,00000110,false,Rx,0,8,34,00,00,00,D0,00,59,AF,
869317,00000130,false,Rx,0,8,18,00,00,00,C0,00,53,C3,
869318,00000100,false,Rx,0,8,71,00,00,00,C0,00,5A,FA,
870316,00000120,false,Rx,0,8,20,00,00,00,20,00,1E,BB,
870317,00000110,false,Rx,0,8,34,00,00,00,E0,00,4D,AF,
