Time Stamp,ID,Extended,Dir,Bus,LEN,D1,D2,D3,D4,D5,D6,D7,D8
15523853,00000110,false,Rx,0,8,46,00,00,00,10,00,03,7D,
15523858,00000130,false,Rx,0,8,D9,FF,FF,FF,10,00,0A,E2,
15524827,00000100,false,Rx,0,8,A9,A4,00,00,10,00,64,3B,
15524828,00000120,false,Rx,0,8,46,00,00,00,E0,00,47,7D,
15525824,00000110,false,Rx,0,8,EA,FF,FF,FF,20,00,1B,21,
15525825,00000130,false,Rx,0,8,18,00,00,00,20,00,1A,03,
15526950,00000100,false,Rx,0,8,92,A4,00,00,20,00,74,B0,
15526950,00000120,false,Rx,0,8,0E,00,00,00,F0,00,45,35,
15527951,00000110,false,Rx,0,8,EA,FF,FF,FF,30,00,16,E1,
15527951,00000130,false,Rx,0,8,F8,FF,FF,FF,30,00,15,93,
15528977,00000100,false,Rx,0,8,A9,A4,00,00,30,00,7D,FB,
15528978,00000120,false,Rx,0,8,0E,00,00,00,00,00,01,35,
15529971,00000110,false,Rx,0,8,18,00,00,00,40,00,32,03,
15529972,00000130,false,Rx,0,8,18,00,00,00,40,00,32,03,
15531079,00000100,false,Rx,0,8,92,A4,00,00,40,00,5C,B0,
15531080,00000120,false,Rx,0,8,46,00,00,00,10,00,03,7D,
15532084,00000110,false,Rx,0,8,18,00,00,00,50,00,3F,C3,
15532085,00000130,false,Rx,0,8,F8,FF,FF,FF,50,00,3D,93,
15533079,00000100,false,Rx,0,8,A9,A4,00,00,50,00,55,FB,
15533080,00000140,false,Rx,0,8,01,00,FF,FF,60,00,29,EE,
15533081,00000120,false,Rx,0,8,46,00,00,00,20,00,17,7D,
15534087,00000110,false,Rx,0,8,18,00,00,00,60,00,2B,C3,
15534088,00000130,false,Rx,0,8,F8,FF,FF,FF,60,00,29,93,
15534088,00000100,false,Rx,0,8,92,A4,00,00,60,00,45,70,
15535951,00000120,false,Rx,0,8,2A,00,00,00,30,00,13,D1,
15535952,00000110,false,Rx,0,8,18,00,00,00,70,00,26,03,
15536948,00000130,false,Rx,0,8,F8,FF,FF,FF,70,00,24,53,
15536948,00000100,false,Rx,0,8,92,A4,00,00,70,00,48,B0,
15536949,00000120,false,Rx,0,8,2A,00,00,00,40,00,36,11,
15538215,00000110,false,Rx,0,8,2F,00,00,00,80,00,66,44,
15538215,00000050,false,Rx,0,6,41,5C,FF,FB,DF,FF,00,00,
15538216,00000130,false,Rx,0,8,5D,34,03,00,83,80,DC,46,
15539215,00000100,false,Rx,0,8,92,A4,00,00,80,00,0C,B0,
15539216,00000120,false,Rx,0,8,7F,00,00,00,50,00,37,D4,
15540212,00000110,false,Rx,0,8,2F,00,00,00,90,00,6B,84,
15540213,00000130,false,Rx,0,8,B9,FF,FF,FF,90,00,62,82,
15541356,00000100,false,Rx,0,8,A9,A4,00,00,90,00,05,FB,
15541357,00000120,false,Rx,0,8,7F,00,00,00,60,00,23,D4,
15542339,00000110,false,Rx,0,8,46,00,00,00,A0,00,76,BD,
15542340,00000130,false,Rx,0,8,F8,FF,FF,FF,A0,00,79,93,
15543331,00000100,false,Rx,0,8,A9,A4,00,00,A0,00,11,FB,
15543331,00000120,false,Rx,0,8,46,00,00,00,70,00,2B,7D,
15544339,00000110,false,Rx,0,8,46,00,00,00,B0,00,7B,7D,
15544340,00000130,false,Rx,0,8,18,00,00,00,B0,00,76,03,
15545462,00000100,false,Rx,0,8,A9,A4,00,00,B0,00,1C,3B,
15545463,00000120,false,Rx,0,8,46,00,00,00,80,00,6F,7D,
15546465,00000110,false,Rx,0,8,EA,FF,FF,FF,C0,00,52,E1,
15546471,00000130,false,Rx,0,8,F8,FF,FF,FF,C0,00,51,93,
15547463,00000100,false,Rx,0,8,92,A4,00,00,C0,00,3D,70,
15547463,00000120,false,Rx,0,8,0E,00,00,00,90,00,6D,35,
15548462,00000110,false,Rx,0,8,EA,FF,FF,FF,D0,00,5F,21,
15548462,00000130,false,Rx,0,8,F8,FF,FF,FF,D0,00,5C,53,
15549587,00000100,false,Rx,0,8,92,A4,00,00,D0,00,30,B0,
15549588,00000120,false,Rx,0,8,0E,00,00,00,A0,00,79,35,
15550588,00000110,false,Rx,0,8,2F,00,00,00,E0,00,4E,44,
15550588,00000130,false,Rx,0,8,F8,FF,FF,FF,E0,00,48,53,
15551590,00000100,false,Rx,0,8,92,A4,00,00,E0,00,24,B0,
15551590,00000120,false,Rx,0,8,46,00,00,00,B0,00,7B,7D,
15552589,00000110,false,Rx,0,8,2F,00,00,00,F0,00,43,84,
15552589,00000130,false,Rx,0,8,F8,FF,FF,FF,F0,00,45,93,
15553587,00000100,false,Rx,0,8,92,A4,00,00,F0,00,29,70,
15553587,00000140,false,Rx,0,8,01,00,FF,FF,70,00,24,2E,
15553588,00000120,false,Rx,0,8,46,00,00,00,C0,00,5E,BD,
15554777,00000110,false,Rx,0,8,01,00,00,00,00,00,01,CA,
15554778,00000130,false,Rx,0,8,18,00,00,00,00,00,03,C3,
15555714,00000100,false,Rx,0,8,A9,A4,00,00,00,00,69,FB,
15555715,00000120,false,Rx,0,8,2A,00,00,00,D0,00,5A,11,
15556713,00000110,false,Rx,0,8,01,00,00,00,10,00,0C,0A,
15556714,00000130,false,Rx,0,8,F8,FF,FF,FF,10,00,0C,53,
15557712,00000100,false,Rx,0,8,92,A4,00,00,10,00,60,B0,
15557712,00000120,false,Rx,0,8,2A,00,00,00,E0,00,4E,11,
15557713,00000110,false,Rx,0,8,18,00,00,00,20,00,1A,03,
15558967,00000050,false,Rx,0,6,41,5C,FF,FB,DF,FF,00,00,
15558967,00000130,false,Rx,0,8,FB,95,FF,FF,23,80,01,39,
15558968,00000100,false,Rx,0,8,A9,A4,00,00,20,00,70,3B,
15560589,00000120,false,Rx,0,8,63,00,00,00,F0,00,4D,88,
15560589,00000110,false,Rx,0,8,18,00,00,00,30,00,17,C3,
15561588,00000130,false,Rx,0,8,76,00,00,00,30,00,1F,4D,
15561589,00000100,false,Rx,0,8,92,A4,00,00,30,00,79,70,
15562589,00000120,false,Rx,0,8,63,00,00,00,00,00,09,88,
15562589,00000110,false,Rx,0,8,2F,00,00,00,40,00,36,44,
15563700,00000130,false,Rx,0,8,F8,FF,FF,FF,40,00,30,53,
15563700,00000100,false,Rx,0,8,A9,A4,00,00,40,00,58,3B,
15564705,00000120,false,Rx,0,8,2A,00,00,00,10,00,0A,11,
15564706,00000110,false,Rx,0,8,2F,00,00,00,50,00,3B,84,
15565714,00000130,false,Rx,0,8,F8,FF,FF,FF,50,00,3D,93,
15565714,00000100,false,Rx,0,8,A9,A4,00,00,50,00,55,FB,
15566713,00000120,false,Rx,0,8,2A,00,00,00,20,00,1E,11,
15566713,00000110,false,Rx,0,8,EA,FF,FF,FF,60,00,2A,E1,
15567715,00000130,false,Rx,0,8,F8,FF,FF,FF,60,00,29,93,
15567715,00000100,false,Rx,0,8,A9,A4,00,00,60,00,41,FB,
15568837,00000120,false,Rx,0,8,0E,00,00,00,30,00,15,35,
15568837,00000110,false,Rx,0,8,EA,FF,FF,FF,70,00,27,21,
15569837,00000130,false,Rx,0,8,18,00,00,00,70,00,26,03,
15569838,00000100,false,Rx,0,8,92,A4,00,00,70,00,48,B0,
15570838,00000120,false,Rx,0,8,0E,00,00,00,40,00,30,F5,
15570838,00000110,false,Rx,0,8,2F,00,00,00,80,00,66,44,
15571836,00000130,false,Rx,0,8,F8,FF,FF,FF,80,00,60,53,
15571837,00000100,false,Rx,0,8,92,A4,00,00,80,00,0C,B0,
15572963,00000135,false,Rx,0,8,C2,00,00,00,60,00,38,F9,
15572964,00000110,false,Rx,0,8,2F,00,00,00,90,00,6B,84,
15573972,00000130,false,Rx,0,8,F8,FF,FF,FF,90,00,6D,93,
15573973,00000100,false,Rx,0,8,92,A4,00,00,90,00,01,70,
15573973,00000140,false,Rx,0,8,01,00,FF,FF,80,00,60,2E,
15574962,00000120,false,Rx,0,8,0E,00,00,00,50,00,3D,35,
15574963,00000110,false,Rx,0,8,01,00,00,00,A0,00,79,CA,
15575963,00000130,false,Rx,0,8,F8,FF,FF,FF,A0,00,79,93,
15575964,00000100,false,Rx,0,8,92,A4,00,00,A0,00,15,70,
15576969,00000120,false,Rx,0,8,2A,00,00,00,60,00,2F,D1,
15576970,00000110,false,Rx,0,8,01,00,00,00,B0,00,74,0A,
15578087,00000130,false,Rx,0,8,F8,FF,FF,FF,B0,00,74,53,
15578088,00000100,false,Rx,0,8,A9,A4,00,00,B0,00,1C,3B,
15578088,00000120,false,Rx,0,8,2A,00,00,00,70,00,22,11,
15579336,00000110,false,Rx,0,8,46,00,00,00,C0,00,5E,BD,
15579336,00000050,false,Rx,0,6,41,5C,FF,FB,DF,FF,00,00,
15579337,00000130,false,Rx,0,8,16,BC,F5,FF,C3,80,01,9A,
15580339,00000100,false,Rx,0,8,92,A4,00,00,C0,00,3D,70,
15580340,00000120,false,Rx,0,8,7F,00,00,00,80,00,6A,14,
15581338,00000110,false,Rx,0,8,46,00,00,00,D0,00,53,7D,
15581338,00000130,false,Rx,0,8,76,00,00,00,D0,00,56,8D,
15582338,00000100,false,Rx,0,8,92,A4,00,00,D0,00,30,B0,
15582339,00000120,false,Rx,0,8,7F,00,00,00,90,00,67,D4,
15583464,00000110,false,Rx,0,8,2F,00,00,00,E0,00,4E,44,
15583464,00000170,false,Rx,0,8,00,00,00,57,50,81,05,24,
15583465,00000130,false,Rx,0,8,D9,FF,FF,FF,E0,00,4E,E2,
15584463,00000100,false,Rx,0,8,92,A4,00,00,E0,00,24,B0,
15584463,00000120,false,Rx,0,8,0E,00,00,00,A0,00,79,35,
15585462,00000110,false,Rx,0,8,2F,00,00,00,F0,00,43,84,
15585462,00000130,false,Rx,0,8,18,00,00,00,F0,00,47,C3,
15586462,00000100,false,Rx,0,8,92,A4,00,00,F0,00,29,70,
15586463,00000120,false,Rx,0,8,0E,00,00,00,B0,00,74,F5,
15587463,00000110,false,Rx,0,8,EA,FF,FF,FF,00,00,02,E1,
15587464,00000130,false,Rx,0,8,37,00,00,00,00,00,04,5C,
15588618,00000100,false,Rx,0,8,92,A4,00,00,00,00,6D,70,
15588619,00000120,false,Rx,0,8,63,00,00,00,C0,00,59,88,
15589597,00000110,false,Rx,0,8,EA,FF,FF,FF,10,00,0F,21,
15589598,00000130,false,Rx,0,8,F8,FF,FF,FF,10,00,0C,53,
15590591,00000100,false,Rx,0,8,A9,A4,00,00,10,00,64,3B,
15590591,00000120,false,Rx,0,8,63,00,00,00,D0,00,54,48,
15591588,00000110,false,Rx,0,8,2F,00,00,00,20,00,1E,44,
15591589,00000130,false,Rx,0,8,D9,FF,FF,FF,20,00,1E,E2,
15592743,00000100,false,Rx,0,8,92,A4,00,00,20,00,74,B0,
15592744,00000120,false,Rx,0,8,2A,00,00,00,E0,00,4E,11,
15593748,00000110,false,Rx,0,8,2F,00,00,00,30,00,13,84,
15593748,00000130,false,Rx,0,8,18,00,00,00,30,00,17,C3,
15594721,00000100,false,Rx,0,8,92,A4,00,00,30,00,79,70,
15594722,00000140,false,Rx,0,8,01,00,FF,FF,90,00,6D,EE,
15594723,00000120,false,Rx,0,8,2A,00,00,00,F0,00,43,D1,
15595713,00000110,false,Rx,0,8,01,00,00,00,40,00,30,0A,
15595714,00000130,false,Rx,0,8,F8,FF,FF,FF,40,00,30,53,
15596867,00000100,false,Rx,0,8,A9,A4,00,00,40,00,58,3B,
15596868,00000120,false,Rx,0,8,2A,00,00,00,00,00,07,D1,
15597872,00000110,false,Rx,0,8,01,00,00,00,50,00,3D,CA,
15597873,00000130,false,Rx,0,8,18,00,00,00,50,00,3F,C3,
15598869,00000100,false,Rx,0,8,92,A4,00,00,50,00,51,70,
15598870,00000120,false,Rx,0,8,2A,00,00,00,10,00,0A,11,
15598870,00000110,false,Rx,0,8,5D,00,00,00,60,00,25,56,
15599970,00000050,false,Rx,0,6,41,5C,FF,FB,DF,FF,00,00,
15599971,00000130,false,Rx,0,8,67,21,00,00,63,80,9D,5B,
15599971,00000100,false,Rx,0,8,92,A4,00,00,60,00,45,70,
15601591,00000120,false,Rx,0,8,63,00,00,00,20,00,10,48,
15601601,00000110,false,Rx,0,8,5D,00,00,00,70,00,28,96,
15602715,00000130,false,Rx,0,8,B9,FF,FF,FF,70,00,2B,42,
15602715,00000100,false,Rx,0,8,A9,A4,00,00,70,00,4C,3B,
15603721,00000120,false,Rx,0,8,63,00,00,00,30,00,1D,88,
15603722,00000110,false,Rx,0,8,2F,00,00,00,80,00,66,44,
15604727,00000130,false,Rx,0,8,D9,FF,FF,FF,80,00,66,E2,
15604728,00000100,false,Rx,0,8,7A,A4,00,00,80,00,1B,98,
15605873,00000120,false,Rx,0,8,2A,00,00,00,40,00,36,11,
15605874,00000110,false,Rx,0,8,2F,00,00,00,90,00,6B,84,
15606872,00000130,false,Rx,0,8,18,00,00,00,90,00,6F,C3,
15606873,00000100,false,Rx,0,8,92,A4,00,00,90,00,01,70,
15607866,00000120,false,Rx,0,8,2A,00,00,00,50,00,3B,D1,
15607866,00000110,false,Rx,0,8,EA,FF,FF,FF,A0,00,7A,E1,
15608861,00000130,false,Rx,0,8,18,00,00,00,A0,00,7B,C3,
15608862,00000100,false,Rx,0,8,A9,A4,00,00,A0,00,11,FB,
15610014,00000120,false,Rx,0,8,46,00,00,00,60,00,26,BD,
15610015,00000110,false,Rx,0,8,EA,FF,FF,FF,B0,00,77,21,
15610982,00000130,false,Rx,0,8,F8,FF,FF,FF,B0,00,74,53,
15610983,00000100,false,Rx,0,8,92,A4,00,00,B0,00,18,B0,
15612013,00000120,false,Rx,0,8,46,00,00,00,70,00,2B,7D,
15612014,00000110,false,Rx,0,8,18,00,00,00,C0,00,53,C3,
15612990,00000130,false,Rx,0,8,F8,FF,FF,FF,C0,00,51,93,
15612992,00000100,false,Rx,0,8,92,A4,00,00,C0,00,3D,70,
15613986,00000120,false,Rx,0,8,46,00,00,00,80,00,6F,7D,
15613987,00000110,false,Rx,0,8,18,00,00,00,D0,00,5E,03,
15615133,00000130,false,Rx,0,8,F8,FF,FF,FF,D0,00,5C,53,
15615134,00000100,false,Rx,0,8,92,A4,00,00,D0,00,30,B0,
15615135,00000140,false,Rx,0,8,01,00,FF,FF,A0,00,79,EE,
15616135,00000120,false,Rx,0,8,46,00,00,00,90,00,62,BD,
15616137,00000110,false,Rx,0,8,18,00,00,00,E0,00,4A,03,
15617111,00000130,false,Rx,0,8,F8,FF,FF,FF,E0,00,48,53,
15617112,00000100,false,Rx,0,8,92,A4,00,00,E0,00,24,B0,
15618104,00000120,false,Rx,0,8,2A,00,00,00,A0,00,7F,D1,
15618105,00000110,false,Rx,0,8,18,00,00,00,F0,00,47,C3,
15619105,00000130,false,Rx,0,8,D9,FF,FF,FF,F0,00,43,22,
15619106,00000100,false,Rx,0,8,92,A4,00,00,F0,00,29,70,
15619106,00000120,false,Rx,0,8,2A,00,00,00,B0,00,72,11,
15620361,00000110,false,Rx,0,8,74,00,00,00,00,00,0A,AF,
15620362,00000050,false,Rx,0,6,41,5C,FF,FB,DF,FF,00,00,
15620363,00000130,false,Rx,0,8,3D,34,03,00,03,80,B4,26,
15621489,00000100,false,Rx,0,8,A9,A4,00,00,00,00,69,FB,
15621490,00000120,false,Rx,0,8,7F,00,00,00,C0,00,5B,D4,
15622481,00000110,false,Rx,0,8,74,00,00,00,10,00,07,6F,
15622482,00000130,false,Rx,0,8,D9,FF,FF,FF,10,00,0A,E2,
15623487,00000100,false,Rx,0,8,A9,A4,00,00,10,00,64,3B,
15623489,00000120,false,Rx,0,8,7F,00,00,00,D0,00,56,14,
15624485,00000110,false,Rx,0,8,18,00,00,00,20,00,1A,03,
15624486,00000130,false,Rx,0,8,18,00,00,00,20,00,1A,03,
15625635,00000100,false,Rx,0,8,92,A4,00,00,20,00,74,B0,
15625636,00000120,false,Rx,0,8,0E,00,00,00,E0,00,48,F5,
15626635,00000110,false,Rx,0,8,18,00,00,00,30,00,17,C3,
15626637,00000130,false,Rx,0,8,F8,FF,FF,FF,30,00,15,93,
15627612,00000100,false,Rx,0,8,92,A4,00,00,30,00,79,70,
15627614,00000120,false,Rx,0,8,0E,00,00,00,F0,00,45,35,
15628603,00000110,false,Rx,0,8,EA,FF,FF,FF,40,00,33,21,
15628605,00000130,false,Rx,0,8,37,00,00,00,40,00,35,9C,
15629755,00000100,false,Rx,0,8,92,A4,00,00,40,00,5C,B0,
15629756,00000120,false,Rx,0,8,63,00,00,00,00,00,09,88,
15630761,00000110,false,Rx,0,8,EA,FF,FF,FF,50,00,3E,E1,
15630762,00000130,false,Rx,0,8,F8,FF,FF,FF,50,00,3D,93,
15631760,00000100,false,Rx,0,8,92,A4,00,00,50,00,51,70,
15631762,00000120,false,Rx,0,8,63,00,00,00,10,00,04,48,
15632735,00000110,false,Rx,0,8,18,00,00,00,60,00,2B,C3,
15632736,00000130,false,Rx,0,8,D9,FF,FF,FF,60,00,2F,22,
15633728,00000100,false,Rx,0,8,92,A4,00,00,60,00,45,70,
15633729,00000120,false,Rx,0,8,2A,00,00,00,20,00,1E,11,
15634885,00000110,false,Rx,0,8,18,00,00,00,70,00,26,03,
15634887,00000130,false,Rx,0,8,F8,FF,FF,FF,70,00,24,53,
15635884,00000100,false,Rx,0,8,92,A4,00,00,70,00,48,B0,
15635885,00000140,false,Rx,0,8,01,00,FF,FF,B0,00,74,2E,
15635885,00000120,false,Rx,0,8,2A,00,00,00,30,00,13,D1,
15636865,00000110,false,Rx,0,8,01,00,00,00,80,00,60,0A,
15636866,00000130,false,Rx,0,8,F8,FF,FF,FF,80,00,60,53,
15637864,00000100,false,Rx,0,8,92,A4,00,00,80,00,0C,B0,
15637865,00000120,false,Rx,0,8,46,00,00,00,40,00,3F,7D,
15638979,00000110,false,Rx,0,8,01,00,00,00,90,00,6D,CA,
15638980,00000130,false,Rx,0,8,18,00,00,00,90,00,6F,C3,
15639981,00000100,false,Rx,0,8,92,A4,00,00,90,00,01,70,
15639983,00000120,false,Rx,0,8,46,00,00,00,50,00,32,BD,
15639983,00000110,false,Rx,0,8,46,00,00,00,A0,00,76,BD,
15641105,00000050,false,Rx,0,6,41,5C,FF,FB,DF,FF,00,00,
15641106,00000130,false,Rx,0,8,FB,95,FF,FF,A3,80,60,F9,
15641107,00000100,false,Rx,0,8,92,A4,00,00,A0,00,15,70,
15642736,00000120,false,Rx,0,8,46,00,00,00,60,00,26,BD,
15642737,00000110,false,Rx,0,8,46,00,00,00,B0,00,7B,7D,
15643886,00000130,false,Rx,0,8,76,00,00,00,B0,00,7E,8D,
15643888,00000100,false,Rx,0,8,92,A4,00,00,B0,00,18,B0,
15644886,00000120,false,Rx,0,8,46,00,00,00,70,00,2B,7D,
15644887,00000110,false,Rx,0,8,18,00,00,00,C0,00,53,C3,
15645861,00000130,false,Rx,0,8,18,00,00,00,C0,00,53,C3,
15645862,00000100,false,Rx,0,8,92,A4,00,00,C0,00,3D,70,
15646853,00000120,false,Rx,0,8,F1,FF,FF,FF,80,00,60,CA,
15646854,00000110,false,Rx,0,8,18,00,00,00,D0,00,5E,03,
15647987,00000130,false,Rx,0,8,D9,FF,FF,FF,D0,00,5A,E2,
15647988,00000100,false,Rx,0,8,92,A4,00,00,D0,00,30,B0,
15648993,00000120,false,Rx,0,8,F1,FF,FF,FF,90,00,6D,0A,
15648994,00000110,false,Rx,0,8,01,00,00,00,E0,00,48,0A,
15650013,00000130,false,Rx,0,8,D9,FF,FF,FF,E0,00,4E,E2,
15650014,00000100,false,Rx,0,8,92,A4,00,00,E0,00,24,B0,
15650977,00000120,false,Rx,0,8,46,00,00,00,A0,00,76,BD,
15650978,00000110,false,Rx,0,8,01,00,00,00,F0,00,45,CA,
15651979,00000130,false,Rx,0,8,D9,FF,FF,FF,F0,00,43,22,
15651980,00000100,false,Rx,0,8,92,A4,00,00,F0,00,29,70,
15653106,00000120,false,Rx,0,8,46,00,00,00,B0,00,7B,7D,
15653107,00000110,false,Rx,0,8,18,00,00,00,00,00,03,C3,
15654103,00000130,false,Rx,0,8,18,00,00,00,00,00,03,C3,
15654104,00000100,false,Rx,0,8,A9,A4,00,00,00,00,69,FB,
15655102,00000120,false,Rx,0,8,2A,00,00,00,C0,00,57,D1,
15655103,00000110,false,Rx,0,8,18,00,00,00,10,00,0E,03,
15656112,00000130,false,Rx,0,8,18,00,00,00,10,00,0E,03,
15656113,00000100,false,Rx,0,8,92,A4,00,00,10,00,60,B0,
15656114,00000140,false,Rx,0,8,01,00,FF,FF,C0,00,51,EE,
15657110,00000120,false,Rx,0,8,2A,00,00,00,D0,00,5A,11,
15657111,00000110,false,Rx,0,8,01,00,00,00,20,00,18,0A,
15658262,00000130,false,Rx,0,8,18,00,00,00,20,00,1A,03,
15658263,00000100,false,Rx,0,8,92,A4,00,00,20,00,74,B0,
15659239,00000120,false,Rx,0,8,46,00,00,00,E0,00,47,7D,
15659240,00000110,false,Rx,0,8,01,00,00,00,30,00,15,CA,
15660235,00000130,false,Rx,0,8,18,00,00,00,30,00,17,C3,
15660236,00000100,false,Rx,0,8,92,A4,00,00,30,00,79,70,
15660236,00000120,false,Rx,0,8,46,00,00,00,F0,00,4A,BD,
15661484,00000110,false,Rx,0,8,46,00,00,00,40,00,3F,7D,
15661485,00000050,false,Rx,0,6,41,5C,FF,FB,DF,FF,00,00,
15661485,00000130,false,Rx,0,8,36,BC,F5,FF,43,80,67,3A,
15662488,00000100,false,Rx,0,8,92,A4,00,00,40,00,5C,B0,
15662489,00000120,false,Rx,0,8,46,00,00,00,00,00,0E,BD,
15663476,00000110,false,Rx,0,8,46,00,00,00,50,00,32,BD,
15663478,00000130,false,Rx,0,8,76,00,00,00,50,00,37,4D,
15664635,00000100,false,Rx,0,8,92,A4,00,00,50,00,51,70,
15664636,00000120,false,Rx,0,8,46,00,00,00,10,00,03,7D,
15665614,00000110,false,Rx,0,8,01,00,00,00,60,00,29,CA,
15665615,00000130,false,Rx,0,8,D9,FF,FF,FF,60,00,2F,22,
15666602,00000100,false,Rx,0,8,92,A4,00,00,60,00,45,70,
15666604,00000120,false,Rx,0,8,0E,00,00,00,20,00,18,F5,
15667760,00000110,false,Rx,0,8,01,00,00,00,70,00,24,0A,
15667761,00000130,false,Rx,0,8,F8,FF,FF,FF,70,00,24,53,
15668761,00000100,false,Rx,0,8,92,A4,00,00,70,00,48,B0,
15668762,00000120,false,Rx,0,8,0E,00,00,00,30,00,15,35,
15669734,00000110,false,Rx,0,8,18,00,00,00,80,00,62,03,
15669735,00000130,false,Rx,0,8,F8,FF,FF,FF,80,00,60,53,
15670757,00000100,false,Rx,0,8,92,A4,00,00,80,00,0C,B0,
15670758,00000120,false,Rx,0,8,2A,00,00,00,40,00,36,11,
15671885,00000110,false,Rx,0,8,18,00,00,00,90,00,6F,C3,
15671886,00000130,false,Rx,0,8,F8,FF,FF,FF,90,00,6D,93,
15672886,00000100,false,Rx,0,8,A9,A4,00,00,90,00,05,FB,
15672887,00000120,false,Rx,0,8,2A,00,00,00,50,00,3B,D1,
15673862,00000110,false,Rx,0,8,2F,00,00,00,A0,00,7F,84,
15673864,00000130,false,Rx,0,8,F8,FF,FF,FF,A0,00,79,93,
15674858,00000100,false,Rx,0,8,92,A4,00,00,A0,00,15,70,
15674860,00000120,false,Rx,0,8,2A,00,00,00,60,00,2F,D1,
15675852,00000110,false,Rx,0,8,2F,00,00,00,B0,00,72,44,
15675854,00000130,false,Rx,0,8,F8,FF,FF,FF,B0,00,74,53,
15676986,00000100,false,Rx,0,8,92,A4,00,00,B0,00,18,B0,
15676987,00000140,false,Rx,0,8,01,00,FF,FF,D0,00,5C,2E,
15676987,00000120,false,Rx,0,8,2A,00,00,00,70,00,22,11,
15677986,00000110,false,Rx,0,8,01,00,00,00,C0,00,51,CA,
15677987,00000130,false,Rx,0,8,18,00,00,00,C0,00,53,C3,
15678997,00000100,false,Rx,0,8,92,A4,00,00,C0,00,3D,70,
15678998,00000120,false,Rx,0,8,63,00,00,00,80,00,68,48,
15680000,00000110,false,Rx,0,8,01,00,00,00,D0,00,5C,0A,
15680001,00000130,false,Rx,0,8,F8,FF,FF,FF,D0,00,5C,53,
15680978,00000100,false,Rx,0,8,A9,A4,00,00,D0,00,34,3B,
15680979,00000120,false,Rx,0,8,63,00,00,00,90,00,65,88,
15680980,00000110,false,Rx,0,8,74,00,00,00,E0,00,43,6F,
15682238,00000050,false,Rx,0,6,41,5C,FF,FB,DF,FF,00,00,
15682239,00000130,false,Rx,0,8,67,21,00,00,E3,80,FC,9B,
15682240,00000100,false,Rx,0,8,92,A4,00,00,E0,00,24,B0,
15683884,00000120,false,Rx,0,8,46,00,00,00,A0,00,76,BD,
15683886,00000110,false,Rx,0,8,74,00,00,00,F0,00,4E,AF,
15684858,00000130,false,Rx,0,8,D9,FF,FF,FF,F0,00,43,22,
15684860,00000100,false,Rx,0,8,92,A4,00,00,F0,00,29,70,
15685977,00000120,false,Rx,0,8,46,00,00,00,B0,00,7B,7D,
15685978,00000110,false,Rx,0,8,01,00,00,00,00,00,01,CA,
15685979,00000170,false,Rx,0,8,00,00,00,58,50,81,05,4C,
15686978,00000130,false,Rx,0,8,D9,FF,FF,FF,00,00,07,22,
15686979,00000100,false,Rx,0,8,92,A4,00,00,00,00,6D,70,
15687986,00000120,false,Rx,0,8,0E,00,00,00,C0,00,51,35,
15687987,00000110,false,Rx,0,8,01,00,00,00,10,00,0C,0A,
15688989,00000130,false,Rx,0,8,B9,FF,FF,FF,10,00,03,42,
15688990,00000100,false,Rx,0,8,92,A4,00,00,10,00,60,B0,
15690111,00000120,false,Rx,0,8,0E,00,00,00,D0,00,5C,F5,
15690112,00000110,false,Rx,0,8,2F,00,00,00,20,00,1E,44,
15691139,00000130,false,Rx,0,8,D9,FF,FF,FF,20,00,1E,E2,
15691140,00000100,false,Rx,0,8,92,A4,00,00,20,00,74,B0,
15692122,00000120,false,Rx,0,8,46,00,00,00,E0,00,47,7D,
15692123,00000110,false,Rx,0,8,2F,00,00,00,30,00,13,84,
15693111,00000130,false,Rx,0,8,18,00,00,00,30,00,17,C3,
15693112,00000100,false,Rx,0,8,A9,A4,00,00,30,00,7D,FB,
15694258,00000120,false,Rx,0,8,46,00,00,00,F0,00,4A,BD,
15694259,00000110,false,Rx,0,8,18,00,00,00,40,00,32,03,
15695261,00000130,false,Rx,0,8,F8,FF,FF,FF,40,00,30,53,
15695263,00000100,false,Rx,0,8,92,A4,00,00,40,00,5C,B0,
15696258,00000120,false,Rx,0,8,2A,00,00,00,00,00,07,D1,
15696259,00000110,false,Rx,0,8,18,00,00,00,50,00,3F,C3,
15697253,00000130,false,Rx,0,8,F8,FF,FF,FF,50,00,3D,93,
15697254,00000100,false,Rx,0,8,92,A4,00,00,50,00,51,70,
15697255,00000140,false,Rx,0,8,01,00,FF,FF,E0,00,48,2E,
15698246,00000120,false,Rx,0,8,2A,00,00,00,10,00,0A,11,
15698248,00000110,false,Rx,0,8,01,00,00,00,60,00,29,CA,
15699230,00000130,false,Rx,0,8,F8,FF,FF,FF,60,00,29,93,
15699231,00000100,false,Rx,0,8,92,A4,00,00,60,00,45,70,
15700385,00000120,false,Rx,0,8,46,00,00,00,20,00,17,7D,
15700386,00000110,false,Rx,0,8,01,00,00,00,70,00,24,0A,
15701385,00000130,false,Rx,0,8,18,00,00,00,70,00,26,03,
15701387,00000100,false,Rx,0,8,A9,A4,00,00,70,00,4C,3B,
15701387,00000120,false,Rx,0,8,46,00,00,00,30,00,1A,BD,
15702630,00000110,false,Rx,0,8,5D,00,00,00,80,00,6C,96,
15702631,00000050,false,Rx,0,6,41,5C,FF,FB,DF,FF,00,00,
15702631,00000130,false,Rx,0,8,1E,34,03,00,83,80,D2,B5,
15703635,00000100,false,Rx,0,8,92,A4,00,00,80,00,0C,B0,
15703636,00000120,false,Rx,0,8,46,00,00,00,40,00,3F,7D,
15704612,00000110,false,Rx,0,8,5D,00,00,00,90,00,61,56,
15704613,00000130,false,Rx,0,8,18,00,00,00,90,00,6F,C3,
15705759,00000100,false,Rx,0,8,A9,A4,00,00,90,00,05,FB,
15705761,00000120,false,Rx,0,8,46,00,00,00,50,00,32,BD,
15706761,00000110,false,Rx,0,8,01,00,00,00,A0,00,79,CA,
15706762,00000130,false,Rx,0,8,18,00,00,00,A0,00,7B,C3,
15707728,00000100,false,Rx,0,8,92,A4,00,00,A0,00,15,70,
15707729,00000120,false,Rx,0,8,2A,00,00,00,60,00,2F,D1,
15708851,00000110,false,Rx,0,8,01,00,00,00,B0,00,74,0A,
15708852,00000130,false,Rx,0,8,18,00,00,00,B0,00,76,03,
15709854,00000100,false,Rx,0,8,A9,A4,00,00,B0,00,1C,3B,
15709855,00000120,false,Rx,0,8,2A,00,00,00,70,00,22,11,
15710859,00000110,false,Rx,0,8,2F,00,00,00,C0,00,57,84,
15710860,00000130,false,Rx,0,8,F8,FF,FF,FF,C0,00,51,93,
15711862,00000100,false,Rx,0,8,92,A4,00,00,C0,00,3D,70,
15711864,00000120,false,Rx,0,8,63,00,00,00,80,00,68,48,
15712865,00000110,false,Rx,0,8,2F,00,00,00,D0,00,5A,44,
15712866,00000130,false,Rx,0,8,F8,FF,FF,FF,D0,00,5C,53,
15713852,00000100,false,Rx,0,8,92,A4,00,00,D0,00,30,B0,
15713853,00000120,false,Rx,0,8,63,00,00,00,90,00,65,88,
15714985,00000110,false,Rx,0,8,18,00,00,00,E0,00,4A,03,
15714986,00000130,false,Rx,0,8,18,00,00,00,E0,00,4A,03,
15715985,00000100,false,Rx,0,8,92,A4,00,00,E0,00,24,B0,
15715987,00000120,false,Rx,0,8,2A,00,00,00,A0,00,7F,D1,
15716984,00000110,false,Rx,0,8,18,00,00,00,F0,00,47,C3,
15716985,00000130,false,Rx,0,8,F8,FF,FF,FF,F0,00,45,93,
15718002,00000100,false,Rx,0,8,92,A4,00,00,F0,00,29,70,
15718003,00000140,false,Rx,0,8,01,00,FF,FF,F0,00,45,EE,
15718004,00000120,false,Rx,0,8,2A,00,00,00,B0,00,72,11,
15719138,00000110,false,Rx,0,8,18,00,00,00,00,00,03,C3,
15719139,00000130,false,Rx,0,8,F8,FF,FF,FF,00,00,01,93,
15720136,00000100,false,Rx,0,8,A9,A4,00,00,00,00,69,FB,
15720138,00000120,false,Rx,0,8,63,00,00,00,C0,00,59,88,
15721111,00000110,false,Rx,0,8,18,00,00,00,10,00,0E,03,
15721113,00000130,false,Rx,0,8,F8,FF,FF,FF,10,00,0C,53,
15722112,00000100,false,Rx,0,8,92,A4,00,00,10,00,60,B0,
15722113,00000120,false,Rx,0,8,63,00,00,00,D0,00,54,48,
15722114,00000110,false,Rx,0,8,2F,00,00,00,20,00,1E,44,
15723384,00000050,false,Rx,0,6,41,5C,FF,FB,DF,FF,00,00,
15723385,00000130,false,Rx,0,8,FB,95,FF,FF,23,80,01,39,
15723386,00000100,false,Rx,0,8,92,A4,00,00,20,00,74,B0,
15724994,00000120,false,Rx,0,8,2A,00,00,00,E0,00,4E,11,
15724996,00000110,false,Rx,0,8,2F,00,00,00,30,00,13,84,
15725985,00000130,false,Rx,0,8,95,00,00,00,30,00,09,1E,
15725987,00000100,false,Rx,0,8,92,A4,00,00,30,00,79,70,
15726989,00000120,false,Rx,0,8,2A,00,00,00,F0,00,43,D1,
15726990,00000110,false,Rx,0,8,EA,FF,FF,FF,40,00,33,21,
15728139,00000130,false,Rx,0,8,18,00,00,00,40,00,32,03,
15728140,00000100,false,Rx,0,8,92,A4,00,00,40,00,5C,B0,
15729136,00000120,false,Rx,0,8,46,00,00,00,00,00,0E,BD,
15729138,00000110,false,Rx,0,8,EA,FF,FF,FF,50,00,3E,E1,
15730134,00000130,false,Rx,0,8,D9,FF,FF,FF,50,00,3B,22,
15730135,00000100,false,Rx,0,8,92,A4,00,00,50,00,51,70,
15731110,00000120,false,Rx,0,8,46,00,00,00,10,00,03,7D,
15731111,00000110,false,Rx,0,8,2F,00,00,00,60,00,2F,84,
15732263,00000130,false,Rx,0,8,18,00,00,00,60,00,2B,C3,
15732264,00000100,false,Rx,0,8,92,A4,00,00,60,00,45,70,
15733239,00000120,false,Rx,0,8,2A,00,00,00,20,00,1E,11,
15733239,00000110,false,Rx,0,8,2F,00,00,00,70,00,22,44,
15734238,00000130,false,Rx,0,8,18,00,00,00,70,00,26,03,
15734239,00000100,false,Rx,0,8,92,A4,00,00,70,00,48,B0,
15735217,00000120,false,Rx,0,8,2A,00,00,00,30,00,13,D1,
15735218,00000110,false,Rx,0,8,01,00,00,00,80,00,60,0A,
15736209,00000130,false,Rx,0,8,F8,FF,FF,FF,80,00,60,53,
15736210,00000100,false,Rx,0,8,92,A4,00,00,80,00,0C,B0,
15737364,00000120,false,Rx,0,8,2A,00,00,00,40,00,36,11,
15737365,00000110,false,Rx,0,8,01,00,00,00,90,00,6D,CA,
15738364,00000130,false,Rx,0,8,F8,FF,FF,FF,90,00,6D,93,
15738365,00000100,false,Rx,0,8,A9,A4,00,00,90,00,05,FB,
15738366,00000140,false,Rx,0,8,01,00,FF,FF,00,00,01,EE,
15739343,00000120,false,Rx,0,8,2A,00,00,00,50,00,3B,D1,
15739344,00000110,false,Rx,0,8,46,00,00,00,A0,00,76,BD,
15740342,00000130,false,Rx,0,8,18,00,00,00,A0,00,7B,C3,
15740343,00000100,false,Rx,0,8,92,A4,00,00,A0,00,15,70,
15741339,00000120,false,Rx,0,8,63,00,00,00,60,00,21,88,
15741340,00000110,false,Rx,0,8,46,00,00,00,B0,00,7B,7D,
15742467,00000130,false,Rx,0,8,D9,FF,FF,FF,B0,00,72,E2,
15742468,00000100,false,Rx,0,8,92,A4,00,00,B0,00,18,B0,
15742468,00000120,false,Rx,0,8,63,00,00,00,70,00,2C,48,
15743586,00000110,false,Rx,0,8,18,00,00,00,C0,00,53,C3,
15743587,00000050,false,Rx,0,6,41,5C,FF,FB,DF,FF,00,00,
15743587,00000130,false,Rx,0,8,55,BC,F5,FF,C3,80,0F,69,
15744715,00000100,false,Rx,0,8,A9,A4,00,00,C0,00,39,FB,
15744716,00000120,false,Rx,0,8,0E,00,00,00,80,00,60,F5,
15745740,00000110,false,Rx,0,8,18,00,00,00,D0,00,5E,03,
15745741,00000130,false,Rx,0,8,76,00,00,00,D0,00,56,8D,
15746699,00000100,false,Rx,0,8,A9,A4,00,00,D0,00,34,3B,
15746700,00000120,false,Rx,0,8,0E,00,00,00,90,00,6D,35,
15747842,00000110,false,Rx,0,8,01,00,00,00,E0,00,48,0A,
15747843,00000130,false,Rx,0,8,18,00,00,00,E0,00,4A,03,
15748826,00000100,false,Rx,0,8,92,A4,00,00,E0,00,24,B0,
15748827,00000120,false,Rx,0,8,46,00,00,00,A0,00,76,BD,
15749841,00000110,false,Rx,0,8,01,00,00,00,F0,00,45,CA,
15749842,00000130,false,Rx,0,8,18,00,00,00,F0,00,47,C3,
15750841,00000100,false,Rx,0,8,92,A4,00,00,F0,00,29,70,
15750842,00000120,false,Rx,0,8,46,00,00,00,B0,00,7B,7D,
15751972,00000110,false,Rx,0,8,18,00,00,00,00,00,03,C3,
15751973,00000130,false,Rx,0,8,D9,FF,FF,FF,00,00,07,22,
15752974,00000100,false,Rx,0,8,92,A4,00,00,00,00,6D,70,
15752975,00000120,false,Rx,0,8,46,00,00,00,C0,00,5E,BD,
15753971,00000110,false,Rx,0,8,18,00,00,00,10,00,0E,03,
15753972,00000130,false,Rx,0,8,F8,FF,FF,FF,10,00,0C,53,
15754971,00000100,false,Rx,0,8,92,A4,00,00,10,00,60,B0,
15754972,00000120,false,Rx,0,8,46,00,00,00,D0,00,53,7D,
15755972,00000110,false,Rx,0,8,01,00,00,00,20,00,18,0A,
15755973,00000130,false,Rx,0,8,F8,FF,FF,FF,20,00,18,53,
15757093,00000100,false,Rx,0,8,92,A4,00,00,20,00,74,B0,
15757094,00000120,false,Rx,0,8,2A,00,00,00,E0,00,4E,11,
15758115,00000110,false,Rx,0,8,01,00,00,00,30,00,15,CA,
15758116,00000130,false,Rx,0,8,D9,FF,FF,FF,30,00,13,22,
15759114,00000100,false,Rx,0,8,A9,A4,00,00,30,00,7D,FB,
15759115,00000140,false,Rx,0,8,01,00,FF,FF,10,00,0C,2E,
15759115,00000120,false,Rx,0,8,2A,00,00,00,F0,00,43,D1,
15760093,00000110,false,Rx,0,8,46,00,00,00,40,00,3F,7D,
15760094,00000130,false,Rx,0,8,18,00,00,00,40,00,32,03,
15761239,00000100,false,Rx,0,8,A9,A4,00,00,40,00,58,3B,
15761240,00000120,false,Rx,0,8,63,00,00,00,00,00,09,88,
15761240,00000110,false,Rx,0,8,46,00,00,00,50,00,32,BD,
15762948,00000130,false,Rx,0,8,18,00,00,00,50,00,3F,C3,
15762949,00000100,false,Rx,0,8,92,A4,00,00,50,00,51,70,
15762949,00000120,false,Rx,0,8,63,00,00,00,10,00,04,48,
15764242,00000110,false,Rx,0,8,46,00,00,00,60,00,26,BD,
15764243,00000050,false,Rx,0,6,41,5C,FF,FB,DF,FF,00,00,
15764243,00000130,false,Rx,0,8,67,21,00,00,63,80,9D,5B,
15765239,00000100,false,Rx,0,8,92,A4,00,00,60,00,45,70,
15765240,00000120,false,Rx,0,8,0E,00,00,00,20,00,18,F5,
15766232,00000110,false,Rx,0,8,46,00,00,00,70,00,2B,7D,
15766233,00000130,false,Rx,0,8,F8,FF,FF,FF,70,00,24,53,
15767347,00000100,false,Rx,0,8,92,A4,00,00,70,00,48,B0,
15767348,00000120,false,Rx,0,8,0E,00,00,00,30,00,15,35,
15768341,00000110,false,Rx,0,8,EA,FF,FF,FF,80,00,63,21,
15768341,00000130,false,Rx,0,8,D9,FF,FF,FF,80,00,66,E2,
15769357,00000100,false,Rx,0,8,92,A4,00,00,80,00,0C,B0,
15769358,00000120,false,Rx,0,8,63,00,00,00,40,00,38,48,
15770497,00000110,false,Rx,0,8,EA,FF,FF,FF,90,00,6E,E1,
15770497,00000130,false,Rx,0,8,18,00,00,00,90,00,6F,C3,
15771450,00000100,false,Rx,0,8,A9,A4,00,00,90,00,05,FB,
15771451,00000120,false,Rx,0,8,63,00,00,00,50,00,35,88,
15772467,00000110,false,Rx,0,8,18,00,00,00,A0,00,7B,C3,
15772467,00000130,false,Rx,0,8,18,00,00,00,A0,00,7B,C3,
15773468,00000100,false,Rx,0,8,A9,A4,00,00,A0,00,11,FB,
15773469,00000120,false,Rx,0,8,46,00,00,00,60,00,26,BD,
15774462,00000110,false,Rx,0,8,18,00,00,00,B0,00,76,03,
15774463,00000130,false,Rx,0,8,D9,FF,FF,FF,B0,00,72,E2,
15774463,00000100,false,Rx,0,8,A9,A4,00,00,B0,00,1C,3B,
15776362,00000120,false,Rx,0,8,46,00,00,00,70,00,2B,7D,
15776362,00000110,false,Rx,0,8,01,00,00,00,C0,00,51,CA,
15777338,00000130,false,Rx,0,8,F8,FF,FF,FF,C0,00,51,93,
15777338,00000100,false,Rx,0,8,92,A4,00,00,C0,00,3D,70,
15778337,00000120,false,Rx,0,8,46,00,00,00,80,00,6F,7D,
15778337,00000110,false,Rx,0,8,01,00,00,00,D0,00,5C,0A,
15779338,00000130,false,Rx,0,8,F8,FF,FF,FF,D0,00,5C,53,
15779339,00000100,false,Rx,0,8,92,A4,00,00,D0,00,30,B0,
15779340,00000140,false,Rx,0,8,01,00,FF,FF,20,00,18,2E,
15780463,00000120,false,Rx,0,8,46,00,00,00,90,00,62,BD,
15780463,00000110,false,Rx,0,8,2F,00,00,00,E0,00,4E,44,
15781489,00000130,false,Rx,0,8,D9,FF,FF,FF,E0,00,4E,E2,
15781490,00000100,false,Rx,0,8,A9,A4,00,00,E0,00,20,3B,
15782463,00000120,false,Rx,0,8,63,00,00,00,A0,00,71,88,
15782464,00000110,false,Rx,0,8,2F,00,00,00,F0,00,43,84,
15783461,00000130,false,Rx,0,8,F8,FF,FF,FF,F0,00,45,93,
15783462,00000100,false,Rx,0,8,92,A4,00,00,F0,00,29,70,
15783463,00000120,false,Rx,0,8,63,00,00,00,B0,00,7C,48,
15784709,00000110,false,Rx,0,8,46,00,00,00,00,00,0E,BD,
15784711,00000050,false,Rx,0,6,41,5C,FF,FB,DF,FF,00,00,
15784711,00000130,false,Rx,0,8,5D,34,03,00,03,80,BD,86,
15785791,00000100,false,Rx,0,8,92,A4,00,00,00,00,6D,70,
15785792,00000120,false,Rx,0,8,0E,00,00,00,C0,00,51,35,
15786838,00000110,false,Rx,0,8,46,00,00,00,10,00,03,7D,
15786838,00000130,false,Rx,0,8,F8,FF,FF,FF,10,00,0C,53,
15787836,00000100,false,Rx,0,8,92,A4,00,00,10,00,60,B0,
15787837,00000120,false,Rx,0,8,0E,00,00,00,D0,00,5C,F5,
15788837,00000110,false,Rx,0,8,18,00,00,00,20,00,1A,03,
15788838,00000170,false,Rx,0,8,00,00,00,59,50,81,05,D1,
15788838,00000130,false,Rx,0,8,18,00,00,00,20,00,1A,03,
15789966,00000100,false,Rx,0,8,92,A4,00,00,20,00,74,B0,
15789966,00000120,false,Rx,0,8,46,00,00,00,E0,00,47,7D,
15790970,00000110,false,Rx,0,8,18,00,00,00,30,00,17,C3,
15790971,00000130,false,Rx,0,8,B9,FF,FF,FF,30,00,1A,82,
15791976,00000100,false,Rx,0,8,92,A4,00,00,30,00,79,70,
15791977,00000120,false,Rx,0,8,46,00,00,00,F0,00,4A,BD,
15792978,00000110,false,Rx,0,8,18,00,00,00,40,00,32,03,
15792979,00000130,false,Rx,0,8,F8,FF,FF,FF,40,00,30,53,
15793982,00000100,false,Rx,0,8,92,A4,00,00,40,00,5C,B0,
15793984,00000120,false,Rx,0,8,46,00,00,00,00,00,0E,BD,
15795100,00000110,false,Rx,0,8,18,00,00,00,50,00,3F,C3,
15795102,00000130,false,Rx,0,8,18,00,00,00,50,00,3F,C3,
15796101,00000100,false,Rx,0,8,92,A4,00,00,50,00,51,70,
15796102,00000120,false,Rx,0,8,46,00,00,00,10,00,03,7D,
15797102,00000110,false,Rx,0,8,01,00,00,00,60,00,29,CA,
15797103,00000130,false,Rx,0,8,18,00,00,00,60,00,2B,C3,
15798100,00000100,false,Rx,0,8,92,A4,00,00,60,00,45,70,
15798101,00000120,false,Rx,0,8,46,00,00,00,20,00,17,7D,
15799224,00000110,false,Rx,0,8,01,00,00,00,70,00,24,0A,
15799226,00000130,false,Rx,0,8,F8,FF,FF,FF,70,00,24,53,
15800226,00000100,false,Rx,0,8,92,A4,00,00,70,00,48,B0,
15800228,00000140,false,Rx,0,8,01,00,FF,FF,30,00,15,EE,
15800228,00000120,false,Rx,0,8,46,00,00,00,30,00,1A,BD,
15801224,00000110,false,Rx,0,8,46,00,00,00,80,00,6F,7D,
15801225,00000130,false,Rx,0,8,F8,FF,FF,FF,80,00,60,53,
15802225,00000100,false,Rx,0,8,92,A4,00,00,80,00,0C,B0,
15802226,00000120,false,Rx,0,8,46,00,00,00,40,00,3F,7D,
15803353,00000110,false,Rx,0,8,46,00,00,00,90,00,62,BD,
15803354,00000130,false,Rx,0,8,F8,FF,FF,FF,90,00,6D,93,
15804363,00000100,false,Rx,0,8,92,A4,00,00,90,00,01,70,
15804364,00000120,false,Rx,0,8,46,00,00,00,50,00,32,BD,
15804365,00000110,false,Rx,0,8,EA,FF,FF,FF,A0,00,7A,E1,
15805477,00000050,false,Rx,0,6,41,5C,FF,FB,DF,FF,00,00,
15805478,00000130,false,Rx,0,8,FB,95,FF,FF,A3,80,60,F9,
15805479,00000100,false,Rx,0,8,A9,A4,00,00,A0,00,11,FB,
15807099,00000120,false,Rx,0,8,0E,00,00,00,60,00,29,35,
15807100,00000110,false,Rx,0,8,EA,FF,FF,FF,B0,00,77,21,
15808228,00000130,false,Rx,0,8,76,00,00,00,B0,00,7E,8D,
15808229,00000100,false,Rx,0,8,92,A4,00,00,B0,00,18,B0,
15809225,00000120,false,Rx,0,8,0E,00,00,00,70,00,24,F5,
15809227,00000110,false,Rx,0,8,18,00,00,00,C0,00,53,C3,
15810226,00000130,false,Rx,0,8,F8,FF,FF,FF,C0,00,51,93,
15810227,00000100,false,Rx,0,8,A9,A4,00,00,C0,00,39,FB,
15811225,00000120,false,Rx,0,8,46,00,00,00,80,00,6F,7D,
15811226,00000110,false,Rx,0,8,18,00,00,00,D0,00,5E,03,
15812228,00000130,false,Rx,0,8,F8,FF,FF,FF,D0,00,5C,53,
15812229,00000100,false,Rx,0,8,A9,A4,00,00,D0,00,34,3B,
15813352,00000120,false,Rx,0,8,46,00,00,00,90,00,62,BD,
15813354,00000110,false,Rx,0,8,01,00,00,00,E0,00,48,0A,
15814354,00000130,false,Rx,0,8,18,00,00,00,E0,00,4A,03,
15814355,00000100,false,Rx,0,8,92,A4,00,00,E0,00,24,B0,
15815342,00000120,false,Rx,0,8,46,00,00,00,A0,00,76,BD,
15815343,00000110,false,Rx,0,8,01,00,00,00,F0,00,45,CA,
15816326,00000130,false,Rx,0,8,F8,FF,FF,FF,F0,00,45,93,
15816327,00000100,false,Rx,0,8,A9,A4,00,00,F0,00,2D,FB,
15817454,00000120,false,Rx,0,8,46,00,00,00,B0,00,7B,7D,
15817455,00000110,false,Rx,0,8,01,00,00,00,00,00,01,CA,
15818454,00000130,false,Rx,0,8,F8,FF,FF,FF,00,00,01,93,
15818455,00000100,false,Rx,0,8,92,A4,00,00,00,00,6D,70,
15819478,00000120,false,Rx,0,8,63,00,00,00,C0,00,59,88,
15819480,00000110,false,Rx,0,8,01,00,00,00,10,00,0C,0A,
15820476,00000130,false,Rx,0,8,18,00,00,00,10,00,0E,03,
15820477,00000100,false,Rx,0,8,92,A4,00,00,10,00,60,B0,
15820478,00000140,false,Rx,0,8,01,00,FF,FF,40,00,30,2E,
15821602,00000120,false,Rx,0,8,63,00,00,00,D0,00,54,48,
15821603,00000110,false,Rx,0,8,46,00,00,00,20,00,17,7D,
15822600,00000130,false,Rx,0,8,D9,FF,FF,FF,20,00,1E,E2,
15822601,00000100,false,Rx,0,8,A9,A4,00,00,20,00,70,3B,
15823576,00000120,false,Rx,0,8,46,00,00,00,E0,00,47,7D,
15823578,00000110,false,Rx,0,8,46,00,00,00,30,00,1A,BD,
15824573,00000130,false,Rx,0,8,F8,FF,FF,FF,30,00,15,93,
15824574,00000100,false,Rx,0,8,92,A4,00,00,30,00,79,70,
15824575,00000120,false,Rx,0,8,46,00,00,00,F0,00,4A,BD,
15825831,00000110,false,Rx,0,8,01,00,00,00,40,00,30,0A,
15825832,00000050,false,Rx,0,6,41,5C,FF,FB,DF,FF,00,00,
15825833,00000130,false,Rx,0,8,55,BC,F5,FF,43,80,6E,A9,
15826825,00000100,false,Rx,0,8,A9,A4,00,00,40,00,58,3B,
15826825,00000120,false,Rx,0,8,0E,00,00,00,00,00,01,35,
15827823,00000110,false,Rx,0,8,01,00,00,00,50,00,3D,CA,
15827824,00000130,false,Rx,0,8,95,00,00,00,50,00,21,1E,
15828947,00000100,false,Rx,0,8,92,A4,00,00,50,00,51,70,
15828948,00000120,false,Rx,0,8,0E,00,00,00,10,00,0C,F5,
15829944,00000110,false,Rx,0,8,2F,00,00,00,60,00,2F,84,
15829945,00000130,false,Rx,0,8,18,00,00,00,60,00,2B,C3,
15831091,00000100,false,Rx,0,8,92,A4,00,00,60,00,45,70,
15831092,00000120,false,Rx,0,8,2A,00,00,00,20,00,1E,11,
15832120,00000110,false,Rx,0,8,2F,00,00,00,70,00,22,44,
15832121,00000130,false,Rx,0,8,F8,FF,FF,FF,70,00,24,53,
15833201,00000100,false,Rx,0,8,92,A4,00,00,70,00,48,B0,
15833202,00000120,false,Rx,0,8,2A,00,00,00,30,00,13,D1,
15834081,00000110,false,Rx,0,8,18,00,00,00,80,00,62,03,
15834083,00000130,false,Rx,0,8,D9,FF,FF,FF,80,00,66,E2,
15835101,00000100,false,Rx,0,8,A9,A4,00,00,80,00,08,3B,
15835102,00000120,false,Rx,0,8,0E,00,00,00,40,00,30,F5,
15836227,00000110,false,Rx,0,8,18,00,00,00,90,00,6F,C3,
15836229,00000130,false,Rx,0,8,F8,FF,FF,FF,90,00,6D,93,
15837210,00000100,false,Rx,0,8,92,A4,00,00,90,00,01,70,
15837211,00000120,false,Rx,0,8,0E,00,00,00,50,00,3D,35,
15838211,00000110,false,Rx,0,8,EA,FF,FF,FF,A0,00,7A,E1,
15838212,00000130,false,Rx,0,8,F8,FF,FF,FF,A0,00,79,93,
15839210,00000100,false,Rx,0,8,92,A4,00,00,A0,00,15,70,
15839211,00000120,false,Rx,0,8,63,00,00,00,60,00,21,88,
15840212,00000110,false,Rx,0,8,EA,FF,FF,FF,B0,00,77,21,
15840213,00000130,false,Rx,0,8,18,00,00,00,B0,00,76,03,
15841335,00000100,false,Rx,0,8,92,A4,00,00,B0,00,18,B0,
15841336,00000140,false,Rx,0,8,01,00,FF,FF,50,00,3D,EE,
15841336,00000120,false,Rx,0,8,63,00,00,00,70,00,2C,48,
15842334,00000110,false,Rx,0,8,46,00,00,00,C0,00,5E,BD,
15842335,00000130,false,Rx,0,8,F8,FF,FF,FF,C0,00,51,93,
15843335,00000100,false,Rx,0,8,92,A4,00,00,C0,00,3D,70,
15843335,00000120,false,Rx,0,8,2A,00,00,00,80,00,66,11,
15844334,00000110,false,Rx,0,8,46,00,00,00,D0,00,53,7D,
15844335,00000130,false,Rx,0,8,37,00,00,00,D0,00,59,9C,
15845334,00000100,false,Rx,0,8,92,A4,00,00,D0,00,30,B0,
15845335,00000120,false,Rx,0,8,2A,00,00,00,90,00,6B,D1,
15845335,00000110,false,Rx,0,8,18,00,00,00,E0,00,4A,03,
15846585,00000050,false,Rx,0,6,41,5C,FF,FB,DF,FF,00,00,
15846586,00000130,false,Rx,0,8,48,21,00,00,E3,80,FB,04,
15846586,00000100,false,Rx,0,8,92,A4,00,00,E0,00,24,B0,
15848211,00000120,false,Rx,0,8,2A,00,00,00,A0,00,7F,D1,
15848212,00000110,false,Rx,0,8,18,00,00,00,F0,00,47,C3,
15849209,00000130,false,Rx,0,8,D9,FF,FF,FF,F0,00,43,22,
15849210,00000100,false,Rx,0,8,92,A4,00,00,F0,00,29,70,
15850334,00000120,false,Rx,0,8,2A,00,00,00,B0,00,72,11,
15850334,00000110,false,Rx,0,8,2F,00,00,00,00,00,07,84,
15851350,00000130,false,Rx,0,8,F8,FF,FF,FF,00,00,01,93,
15851351,00000100,false,Rx,0,8,92,A4,00,00,00,00,6D,70,
15852349,00000120,false,Rx,0,8,46,00,00,00,C0,00,5E,BD,
15852351,00000110,false,Rx,0,8,2F,00,00,00,10,00,0A,44,
15853373,00000130,false,Rx,0,8,F8,FF,FF,FF,10,00,0C,53,
15853374,00000100,false,Rx,0,8,92,A4,00,00,10,00,60,B0,
15854470,00000120,false,Rx,0,8,46,00,00,00,D0,00,53,7D,
15854472,00000110,false,Rx,0,8,18,00,00,00,20,00,1A,03,
15855458,00000130,false,Rx,0,8,F8,FF,FF,FF,20,00,18,53,
15855459,00000100,false,Rx,0,8,A9,A4,00,00,20,00,70,3B,
15856459,00000120,false,Rx,0,8,0E,00,00,00,E0,00,48,F5,
15856460,00000110,false,Rx,0,8,18,00,00,00,30,00,17,C3,
15857473,00000130,false,Rx,0,8,18,00,00,00,30,00,17,C3,
15857474,00000100,false,Rx,0,8,92,A4,00,00,30,00,79,70,
15858473,00000120,false,Rx,0,8,0E,00,00,00,F0,00,45,35,
15858475,00000110,false,Rx,0,8,18,00,00,00,40,00,32,03,
15859598,00000130,false,Rx,0,8,F8,FF,FF,FF,40,00,30,53,
15859599,00000100,false,Rx,0,8,92,A4,00,00,40,00,5C,B0,
15860596,00000120,false,Rx,0,8,63,00,00,00,00,00,09,88,
15860598,00000110,false,Rx,0,8,18,00,00,00,50,00,3F,C3,
15861599,00000130,false,Rx,0,8,F8,FF,FF,FF,50,00,3D,93,
15861600,00000100,false,Rx,0,8,A9,A4,00,00,50,00,55,FB,
15861600,00000140,false,Rx,0,8,01,00,FF,FF,60,00,29,EE,
15862587,00000120,false,Rx,0,8,63,00,00,00,10,00,04,48,
15862589,00000110,false,Rx,0,8,46,00,00,00,60,00,26,BD,
15863708,00000130,false,Rx,0,8,18,00,00,00,60,00,2B,C3,
15863709,00000100,false,Rx,0,8,92,A4,00,00,60,00,45,70,
15864724,00000120,false,Rx,0,8,46,00,00,00,20,00,17,7D,
15864725,00000110,false,Rx,0,8,46,00,00,00,70,00,2B,7D,
15865728,00000130,false,Rx,0,8,D9,FF,FF,FF,70,00,22,E2,
15865729,00000100,false,Rx,0,8,92,A4,00,00,70,00,48,B0,
15865729,00000120,false,Rx,0,8,46,00,00,00,30,00,1A,BD,
15866973,00000110,false,Rx,0,8,18,00,00,00,80,00,62,03,
15866974,00000050,false,Rx,0,6,41,5C,FF,FB,DF,FF,00,00,
15866974,00000130,false,Rx,0,8,5D,34,03,00,83,80,DC,46,
15867977,00000100,false,Rx,0,8,A9,A4,00,00,80,00,08,3B,
15867978,00000120,false,Rx,0,8,46,00,00,00,40,00,3F,7D,
15868951,00000110,false,Rx,0,8,18,00,00,00,90,00,6F,C3,
15868952,00000130,false,Rx,0,8,F8,FF,FF,FF,90,00,6D,93,
15870075,00000100,false,Rx,0,8,92,A4,00,00,90,00,01,70,
15870077,00000120,false,Rx,0,8,46,00,00,00,50,00,32,BD,
15871071,00000110,false,Rx,0,8,18,00,00,00,A0,00,7B,C3,
15871072,00000130,false,Rx,0,8,18,00,00,00,A0,00,7B,C3,
15872073,00000100,false,Rx,0,8,A9,A4,00,00,A0,00,11,FB,
15872075,00000120,false,Rx,0,8,46,00,00,00,60,00,26,BD,
15873074,00000110,false,Rx,0,8,18,00,00,00,B0,00,76,03,
15873075,00000130,false,Rx,0,8,F8,FF,FF,FF,B0,00,74,53,
15874198,00000100,false,Rx,0,8,A9,A4,00,00,B0,00,1C,3B,
15874199,00000120,false,Rx,0,8,46,00,00,00,70,00,2B,7D,
15875232,00000110,false,Rx,0,8,01,00,00,00,C0,00,51,CA,
15875234,00000130,false,Rx,0,8,F8,FF,FF,FF,C0,00,51,93,
15876231,00000100,false,Rx,0,8,92,A4,00,00,C0,00,3D,70,
15876233,00000120,false,Rx,0,8,0E,00,00,00,80,00,60,F5,
15877209,00000110,false,Rx,0,8,01,00,00,00,D0,00,5C,0A,
15877210,00000130,false,Rx,0,8,D9,FF,FF,FF,D0,00,5A,E2,
15877211,00000100,false,Rx,0,8,A9,A4,00,00,D0,00,34,3B,
15879182,00000120,false,Rx,0,8,0E,00,00,00,90,00,6D,35,
15879183,00000110,false,Rx,0,8,46,00,00,00,E0,00,47,7D,
15880073,00000130,false,Rx,0,8,F8,FF,FF,FF,E0,00,48,53,
15880074,00000100,false,Rx,0,8,A9,A4,00,00,E0,00,20,3B,
15881072,00000120,false,Rx,0,8,7F,00,00,00,A0,00,73,D4,
15881073,00000110,false,Rx,0,8,46,00,00,00,F0,00,4A,BD,
15882083,00000130,false,Rx,0,8,18,00,00,00,F0,00,47,C3,
15882084,00000100,false,Rx,0,8,A9,A4,00,00,F0,00,2D,FB,
15882085,00000140,false,Rx,0,8,01,00,FF,FF,70,00,24,2E,
15883208,00000120,false,Rx,0,8,7F,00,00,00,B0,00,7E,14,
15883208,00000110,false,Rx,0,8,2F,00,00,00,00,00,07,84,
15884210,00000130,false,Rx,0,8,D9,FF,FF,FF,00,00,07,22,
15884211,00000100,false,Rx,0,8,92,A4,00,00,00,00,6D,70,
15885208,00000120,false,Rx,0,8,2A,00,00,00,C0,00,57,D1,
15885209,00000110,false,Rx,0,8,2F,00,00,00,10,00,0A,44,
15886208,00000130,false,Rx,0,8,18,00,00,00,10,00,0E,03,
15886209,00000100,false,Rx,0,8,A9,A4,00,00,10,00,64,3B,
15886209,00000120,false,Rx,0,8,2A,00,00,00,D0,00,5A,11,
15887442,00000110,false,Rx,0,8,D3,FF,FF,FF,20,00,1E,48,
15887443,00000050,false,Rx,0,6,41,5C,FF,FB,DF,FF,00,00,
15887443,00000130,false,Rx,0,8,FB,95,FF,FF,23,80,01,39,
15888446,00000100,false,Rx,0,8,92,A4,00,00,20,00,74,B0,
15888446,00000120,false,Rx,0,8,46,00,00,00,E0,00,47,7D,
15889590,00000110,false,Rx,0,8,D3,FF,FF,FF,30,00,13,88,
15889591,00000130,false,Rx,0,8,76,00,00,00,30,00,1F,4D,
15890673,00000100,false,Rx,0,8,92,A4,00,00,30,00,79,70,
15890674,00000120,false,Rx,0,8,46,00,00,00,F0,00,4A,BD,
15891586,00000110,false,Rx,0,8,18,00,00,00,40,00,32,03,
15891587,00000170,false,Rx,0,8,00,00,00,5A,50,81,05,6B,
15891587,00000130,false,Rx,0,8,18,00,00,00,40,00,32,03,
15892586,00000100,false,Rx,0,8,92,A4,00,00,40,00,5C,B0,
15892587,00000120,false,Rx,0,8,2A,00,00,00,00,00,07,D1,
15893710,00000110,false,Rx,0,8,18,00,00,00,50,00,3F,C3,
15893711,00000130,false,Rx,0,8,D9,FF,FF,FF,50,00,3B,22,
15893711,00000100,false,Rx,0,8,92,A4,00,00,50,00,51,70,
15895449,00000120,false,Rx,0,8,2A,00,00,00,10,00,0A,11,
15895450,00000110,false,Rx,0,8,18,00,00,00,60,00,2B,C3,
15896444,00000130,false,Rx,0,8,D9,FF,FF,FF,60,00,2F,22,
15896445,00000100,false,Rx,0,8,92,A4,00,00,60,00,45,70,
15897571,00000120,false,Rx,0,8,2A,00,00,00,20,00,1E,11,
15897571,00000110,false,Rx,0,8,18,00,00,00,70,00,26,03,
15898571,00000130,false,Rx,0,8,F8,FF,FF,FF,70,00,24,53,
15898572,00000100,false,Rx,0,8,92,A4,00,00,70,00,48,B0,
15899569,00000120,false,Rx,0,8,2A,00,00,00,30,00,13,D1,
15899570,00000110,false,Rx,0,8,2F,00,00,00,80,00,66,44,
15900569,00000130,false,Rx,0,8,D9,FF,FF,FF,80,00,66,E2,
15900569,00000100,false,Rx,0,8,92,A4,00,00,80,00,0C,B0,
15901693,00000120,false,Rx,0,8,63,00,00,00,40,00,38,48,
15901694,00000110,false,Rx,0,8,2F,00,00,00,90,00,6B,84,
15902698,00000130,false,Rx,0,8,F8,FF,FF,FF,90,00,6D,93,
15902699,00000100,false,Rx,0,8,92,A4,00,00,90,00,01,70,
15902699,00000140,false,Rx,0,8,01,00,FF,FF,80,00,60,2E,
15903709,00000120,false,Rx,0,8,63,00,00,00,50,00,35,88,
15903710,00000110,false,Rx,0,8,2F,00,00,00,A0,00,7F,84,
15904726,00000130,false,Rx,0,8,D9,FF,FF,FF,A0,00,7F,22,
15904727,00000100,false,Rx,0,8,92,A4,00,00,A0,00,15,70,
15905822,00000120,false,Rx,0,8,46,00,00,00,60,00,26,BD,
15905823,00000110,false,Rx,0,8,2F,00,00,00,B0,00,72,44,
15906822,00000130,false,Rx,0,8,F8,FF,FF,FF,B0,00,74,53,
15906823,00000100,false,Rx,0,8,92,A4,00,00,B0,00,18,B0,
15906823,00000120,false,Rx,0,8,46,00,00,00,70,00,2B,7D,
15907966,00000110,false,Rx,0,8,01,00,00,00,C0,00,51,CA,
15907967,00000050,false,Rx,0,6,41,5C,FF,FB,DF,FF,00,00,
15907968,00000130,false,Rx,0,8,16,BC,F5,FF,C3,80,01,9A,
15909076,00000100,false,Rx,0,8,92,A4,00,00,C0,00,3D,70,
15909077,00000120,false,Rx,0,8,63,00,00,00,80,00,68,48,
15910073,00000110,false,Rx,0,8,01,00,00,00,D0,00,5C,0A,
15910073,00000130,false,Rx,0,8,95,00,00,00,D0,00,40,DE,
15911081,00000100,false,Rx,0,8,92,A4,00,00,D0,00,30,B0,
15911082,00000120,false,Rx,0,8,63,00,00,00,90,00,65,88,
15912207,00000110,false,Rx,0,8,18,00,00,00,E0,00,4A,03,
15912208,00000130,false,Rx,0,8,F8,FF,FF,FF,E0,00,48,53,
15913208,00000100,false,Rx,0,8,A9,A4,00,00,E0,00,20,3B,
15913208,00000120,false,Rx,0,8,2A,00,00,00,A0,00,7F,D1,
15914207,00000110,false,Rx,0,8,18,00,00,00,F0,00,47,C3,
15914207,00000130,false,Rx,0,8,37,00,00,00,F0,00,40,5C,
15915210,00000100,false,Rx,0,8,92,A4,00,00,F0,00,29,70,
15915210,00000120,false,Rx,0,8,2A,00,00,00,B0,00,72,11,
15916334,00000110,false,Rx,0,8,18,00,00,00,00,00,03,C3,
15916335,00000130,false,Rx,0,8,18,00,00,00,00,00,03,C3,
15917346,00000100,false,Rx,0,8,92,A4,00,00,00,00,6D,70,
15917347,00000120,false,Rx,0,8,2A,00,00,00,C0,00,57,D1,
15918323,00000110,false,Rx,0,8,18,00,00,00,10,00,0E,03,
15918324,00000130,false,Rx,0,8,18,00,00,00,10,00,0E,03,
15919337,00000100,false,Rx,0,8,92,A4,00,00,10,00,60,B0,
15919338,00000120,false,Rx,0,8,2A,00,00,00,D0,00,5A,11,
15920455,00000110,false,Rx,0,8,5D,00,00,00,20,00,14,96,
15920456,00000130,false,Rx,0,8,18,00,00,00,20,00,1A,03,
15921442,00000100,false,Rx,0,8,92,A4,00,00,20,00,74,B0,
15921452,00000120,false,Rx,0,8,63,00,00,00,E0,00,40,48,
15922446,00000110,false,Rx,0,8,5D,00,00,00,30,00,19,56,
15922447,00000130,false,Rx,0,8,F8,FF,FF,FF,30,00,15,93,
15923458,00000100,false,Rx,0,8,A9,A4,00,00,30,00,7D,FB,
15923459,00000140,false,Rx,0,8,01,00,FF,FF,90,00,6D,EE,
15923460,00000120,false,Rx,0,8,63,00,00,00,F0,00,4D,88,
15924459,00000110,false,Rx,0,8,2F,00,00,00,40,00,36,44,
15924460,00000130,false,Rx,0,8,F8,FF,FF,FF,40,00,30,53,
15925473,00000100,false,Rx,0,8,A9,A4,00,00,40,00,58,3B,
15925473,00000120,false,Rx,0,8,2A,00,00,00,00,00,07,D1,
15926586,00000110,false,Rx,0,8,2F,00,00,00,50,00,3B,84,
15926594,00000130,false,Rx,0,8,F8,FF,FF,FF,50,00,3D,93,
15927582,00000100,false,Rx,0,8,A9,A4,00,00,50,00,55,FB,
15927583,00000120,false,Rx,0,8,2A,00,00,00,10,00,0A,11,
15927584,00000110,false,Rx,0,8,2F,00,00,00,60,00,2F,84,
15928707,00000050,false,Rx,0,6,41,5C,FF,FB,DF,FF,00,00,
15928708,00000130,false,Rx,0,8,48,21,00,00,63,80,9A,C4,
15928708,00000100,false,Rx,0,8,92,A4,00,00,60,00,45,70,
15930335,00000120,false,Rx,0,8,46,00,00,00,20,00,17,7D,
15930336,00000110,false,Rx,0,8,2F,00,00,00,70,00,22,44,
15931448,00000130,false,Rx,0,8,D9,FF,FF,FF,70,00,22,E2,
15931449,00000100,false,Rx,0,8,92,A4,00,00,70,00,48,B0,
15932447,00000120,false,Rx,0,8,46,00,00,00,30,00,1A,BD,
15932448,00000110,false,Rx,0,8,18,00,00,00,80,00,62,03,
15933484,00000130,false,Rx,0,8,D9,FF,FF,FF,80,00,66,E2,
15933485,00000100,false,Rx,0,8,A9,A4,00,00,80,00,08,3B,
15934575,00000120,false,Rx,0,8,2A,00,00,00,40,00,36,11,
15934576,00000110,false,Rx,0,8,18,00,00,00,90,00,6F,C3,
15935594,00000130,false,Rx,0,8,F8,FF,FF,FF,90,00,6D,93,
15935595,00000100,false,Rx,0,8,92,A4,00,00,90,00,01,70,
15936586,00000120,false,Rx,0,8,2A,00,00,00,50,00,3B,D1,
15936586,00000110,false,Rx,0,8,01,00,00,00,A0,00,79,CA,
15937582,00000130,false,Rx,0,8,18,00,00,00,A0,00,7B,C3,
15937583,00000100,false,Rx,0,8,A9,A4,00,00,A0,00,11,FB,
15938698,00000120,false,Rx,0,8,46,00,00,00,60,00,26,BD,
15938698,00000110,false,Rx,0,8,01,00,00,00,B0,00,74,0A,
15939704,00000130,false,Rx,0,8,18,00,00,00,B0,00,76,03,
15939705,00000100,false,Rx,0,8,92,A4,00,00,B0,00,18,B0,
15940710,00000120,false,Rx,0,8,46,00,00,00,70,00,2B,7D,
15940710,00000110,false,Rx,0,8,46,00,00,00,C0,00,5E,BD,
15941690,00000130,false,Rx,0,8,18,00,00,00,C0,00,53,C3,
15941690,00000100,false,Rx,0,8,92,A4,00,00,C0,00,3D,70,
15942695,00000120,false,Rx,0,8,46,00,00,00,80,00,6F,7D,
15942696,00000110,false,Rx,0,8,46,00,00,00,D0,00,53,7D,
15943695,00000130,false,Rx,0,8,D9,FF,FF,FF,D0,00,5A,E2,
15943696,00000100,false,Rx,0,8,A9,A4,00,00,D0,00,34,3B,
15943696,00000140,false,Rx,0,8,01,00,FF,FF,A0,00,79,EE,
15944817,00000120,false,Rx,0,8,46,00,00,00,90,00,62,BD,
15944818,00000110,false,Rx,0,8,18,00,00,00,E0,00,4A,03,
15945817,00000130,false,Rx,0,8,18,00,00,00,E0,00,4A,03,
15945817,00000100,false,Rx,0,8,A9,A4,00,00,E0,00,20,3B,
15946819,00000120,false,Rx,0,8,0E,00,00,00,A0,00,79,35,
15946820,00000110,false,Rx,0,8,18,00,00,00,F0,00,47,C3,
15947818,00000130,false,Rx,0,8,F8,FF,FF,FF,F0,00,45,93,
15947818,00000100,false,Rx,0,8,92,A4,00,00,F0,00,29,70,
15947819,00000120,false,Rx,0,8,0E,00,00,00,B0,00,74,F5,
15949068,00000110,false,Rx,0,8,46,00,00,00,00,00,0E,BD,
15949068,00000050,false,Rx,0,6,41,5C,FF,FB,DF,FF,00,00,
15949069,00000130,false,Rx,0,8,3D,34,03,00,03,80,B4,26,
15950070,00000100,false,Rx,0,8,92,A4,00,00,00,00,6D,70,
15950071,00000120,false,Rx,0,8,46,00,00,00,C0,00,5E,BD,
15951197,00000110,false,Rx,0,8,46,00,00,00,10,00,03,7D,
15951198,00000130,false,Rx,0,8,F8,FF,FF,FF,10,00,0C,53,
15952208,00000100,false,Rx,0,8,92,A4,00,00,10,00,60,B0,
15952209,00000120,false,Rx,0,8,46,00,00,00,D0,00,53,7D,
15953207,00000110,false,Rx,0,8,18,00,00,00,20,00,1A,03,
15953208,00000130,false,Rx,0,8,D9,FF,FF,FF,20,00,1E,E2,
15954348,00000100,false,Rx,0,8,92,A4,00,00,20,00,74,B0,
15954349,00000120,false,Rx,0,8,2A,00,00,00,E0,00,4E,11,
15955321,00000110,false,Rx,0,8,18,00,00,00,30,00,17,C3,
15955321,00000130,false,Rx,0,8,F8,FF,FF,FF,30,00,15,93,
15956319,00000100,false,Rx,0,8,A9,A4,00,00,30,00,7D,FB,
15956320,00000120,false,Rx,0,8,2A,00,00,00,F0,00,43,D1,
15957328,00000110,false,Rx,0,8,01,00,00,00,40,00,30,0A,
15957329,00000130,false,Rx,0,8,F8,FF,FF,FF,40,00,30,53,
15958319,00000100,false,Rx,0,8,92,A4,00,00,40,00,5C,B0,
15958320,00000120,false,Rx,0,8,46,00,00,00,00,00,0E,BD,
15959441,00000110,false,Rx,0,8,01,00,00,00,50,00,3D,CA,
15959442,00000130,false,Rx,0,8,F8,FF,FF,FF,50,00,3D,93,
15960443,00000100,false,Rx,0,8,92,A4,00,00,50,00,51,70,
15960444,00000120,false,Rx,0,8,46,00,00,00,10,00,03,7D,
15961443,00000110,false,Rx,0,8,46,00,00,00,60,00,26,BD,
15961444,00000130,false,Rx,0,8,18,00,00,00,60,00,2B,C3,
15962441,00000100,false,Rx,0,8,92,A4,00,00,60,00,45,70,
15962441,00000120,false,Rx,0,8,46,00,00,00,20,00,17,7D,
15963566,00000110,false,Rx,0,8,46,00,00,00,70,00,2B,7D,
15963566,00000130,false,Rx,0,8,F8,FF,FF,FF,70,00,24,53,
15964568,00000100,false,Rx,0,8,A9,A4,00,00,70,00,4C,3B,
15964569,00000140,false,Rx,0,8,01,00,FF,FF,B0,00,74,2E,
15964569,00000120,false,Rx,0,8,46,00,00,00,30,00,1A,BD,
15965566,00000110,false,Rx,0,8,EA,FF,FF,FF,80,00,63,21,
15965573,00000130,false,Rx,0,8,F8,FF,FF,FF,80,00,60,53,
15966568,00000100,false,Rx,0,8,92,A4,00,00,80,00,0C,B0,
15966568,00000120,false,Rx,0,8,0E,00,00,00,40,00,30,F5,
15967691,00000110,false,Rx,0,8,EA,FF,FF,FF,90,00,6E,E1,
15967691,00000130,false,Rx,0,8,18,00,00,00,90,00,6F,C3,
15967692,00000100,false,Rx,0,8,A9,A4,00,00,90,00,05,FB,
15969441,00000120,false,Rx,0,8,0E,00,00,00,50,00,3D,35,
15969441,00000110,false,Rx,0,8,2F,00,00,00,A0,00,7F,84,
15969441,00000050,false,Rx,0,6,41,5C,FF,FB,DF,FF,00,00,
15970440,00000130,false,Rx,0,8,FB,95,FF,FF,A3,80,60,F9,
15970441,00000100,false,Rx,0,8,92,A4,00,00,A0,00,15,70,
15971445,00000120,false,Rx,0,8,46,00,00,00,60,00,26,BD,
15971445,00000110,false,Rx,0,8,2F,00,00,00,B0,00,72,44,
15972567,00000130,false,Rx,0,8,76,00,00,00,B0,00,7E,8D,
15972568,00000100,false,Rx,0,8,92,A4,00,00,B0,00,18,B0,
15973567,00000120,false,Rx,0,8,46,00,00,00,70,00,2B,7D,
15973567,00000110,false,Rx,0,8,01,00,00,00,C0,00,51,CA,
15974568,00000130,false,Rx,0,8,18,00,00,00,C0,00,53,C3,
15974568,00000100,false,Rx,0,8,A9,A4,00,00,C0,00,39,FB,
15975566,00000120,false,Rx,0,8,2A,00,00,00,80,00,66,11,
15975566,00000110,false,Rx,0,8,01,00,00,00,D0,00,5C,0A,
15976692,00000130,false,Rx,0,8,D9,FF,FF,FF,D0,00,5A,E2,
15976692,00000100,false,Rx,0,8,92,A4,00,00,D0,00,30,B0,
15977690,00000120,false,Rx,0,8,2A,00,00,00,90,00,6B,D1,
15977691,00000110,false,Rx,0,8,01,00,00,00,E0,00,48,0A,
15978692,00000130,false,Rx,0,8,F8,FF,FF,FF,E0,00,48,53,
15978692,00000100,false,Rx,0,8,92,A4,00,00,E0,00,24,B0,
15979692,00000120,false,Rx,0,8,46,00,00,00,A0,00,76,BD,
15979692,00000110,false,Rx,0,8,01,00,00,00,F0,00,45,CA,
15980690,00000130,false,Rx,0,8,B9,FF,FF,FF,F0,00,4A,82,
15980690,00000100,false,Rx,0,8,92,A4,00,00,F0,00,29,70,
15981817,00000120,false,Rx,0,8,46,00,00,00,B0,00,7B,7D,
15981817,00000110,false,Rx,0,8,46,00,00,00,00,00,0E,BD,
15982817,00000130,false,Rx,0,8,18,00,00,00,00,00,03,C3,
15982818,00000100,false,Rx,0,8,92,A4,00,00,00,00,6D,70,
15983817,00000120,false,Rx,0,8,46,00,00,00,C0,00,5E,BD,
15983818,00000110,false,Rx,0,8,46,00,00,00,10,00,03,7D,
15984816,00000130,false,Rx,0,8,D9,FF,FF,FF,10,00,0A,E2,
15984816,00000100,false,Rx,0,8,92,A4,00,00,10,00,60,B0,
15984817,00000140,false,Rx,0,8,01,00,FF,FF,C0,00,51,EE,
15985940,00000120,false,Rx,0,8,46,00,00,00,D0,00,53,7D,
15985940,00000110,false,Rx,0,8,01,00,00,00,20,00,18,0A,
15986941,00000130,false,Rx,0,8,F8,FF,FF,FF,20,00,18,53,
15986941,00000100,false,Rx,0,8,A9,A4,00,00,20,00,70,3B,
15987965,00000120,false,Rx,0,8,0E,00,00,00,E0,00,48,F5,
15987966,00000110,false,Rx,0,8,01,00,00,00,30,00,15,CA,
15988941,00000130,false,Rx,0,8,18,00,00,00,30,00,17,C3,
15988941,00000100,false,Rx,0,8,92,A4,00,00,30,00,79,70,
15988941,00000120,false,Rx,0,8,0E,00,00,00,F0,00,45,35,
15990190,00000110,false,Rx,0,8,2F,00,00,00,40,00,36,44,
15990190,00000050,false,Rx,0,6,41,5C,FF,FB,DF,FF,00,00,
15990190,00000130,false,Rx,0,8,55,BC,F5,FF,43,80,6E,A9,
15991191,00000100,false,Rx,0,8,92,A4,00,00,40,00,5C,B0,
15991191,00000120,false,Rx,0,8,46,00,00,00,00,00,0E,BD,
15992190,00000110,false,Rx,0,8,2F,00,00,00,50,00,3B,84,
15992191,00000130,false,Rx,0,8,76,00,00,00,50,00,37,4D,
15993318,00000100,false,Rx,0,8,92,A4,00,00,50,00,51,70,
15993319,00000120,false,Rx,0,8,46,00,00,00,10,00,03,7D,
15994315,00000110,false,Rx,0,8,18,00,00,00,60,00,2B,C3,
15994315,00000170,false,Rx,0,8,00,00,00,5B,50,81,05,F6,
15994316,00000130,false,Rx,0,8,18,00,00,00,60,00,2B,C3,
15995316,00000100,false,Rx,0,8,92,A4,00,00,60,00,45,70,
15995317,00000120,false,Rx,0,8,46,00,00,00,20,00,17,7D,
15996439,00000110,false,Rx,0,8,18,00,00,00,70,00,26,03,
15996440,00000130,false,Rx,0,8,F8,FF,FF,FF,70,00,24,53,
15997448,00000100,false,Rx,0,8,92,A4,00,00,70,00,48,B0,
15997448,00000120,false,Rx,0,8,46,00,00,00,30,00,1A,BD,
15998443,00000110,false,Rx,0,8,18,00,00,00,80,00,62,03,
15998444,00000130,false,Rx,0,8,F8,FF,FF,FF,80,00,60,53,
15999441,00000100,false,Rx,0,8,A9,A4,00,00,80,00,08,3B,
15999441,00000120,false,Rx,0,8,63,00,00,00,40,00,38,48,
16000565,00000110,false,Rx,0,8,18,00,00,00,90,00,6F,C3,
16000565,00000130,false,Rx,0,8,18,00,00,00,90,00,6F,C3,
16001567,00000100,false,Rx,0,8,A9,A4,00,00,90,00,05,FB,
16001568,00000120,false,Rx,0,8,63,00,00,00,50,00,35,88,
16002565,00000110,false,Rx,0,8,46,00,00,00,A0,00,76,BD,
16002566,00000130,false,Rx,0,8,F8,FF,FF,FF,A0,00,79,93,
16003565,00000100,false,Rx,0,8,A9,A4,00,00,A0,00,11,FB,
16003565,00000120,false,Rx,0,8,2A,00,00,00,60,00,2F,D1,
16004587,00000110,false,Rx,0,8,46,00,00,00,B0,00,7B,7D,
16004588,00000130,false,Rx,0,8,D9,FF,FF,FF,B0,00,72,E2,
16005695,00000100,false,Rx,0,8,92,A4,00,00,B0,00,18,B0,
16005696,00000140,false,Rx,0,8,01,00,FF,FF,D0,00,5C,2E,
16005697,00000120,false,Rx,0,8,2A,00,00,00,70,00,22,11,
16006693,00000110,false,Rx,0,8,EA,FF,FF,FF,C0,00,52,E1,
16006694,00000130,false,Rx,0,8,F8,FF,FF,FF,C0,00,51,93,
16007694,00000100,false,Rx,0,8,92,A4,00,00,C0,00,3D,70,
16007695,00000120,false,Rx,0,8,0E,00,00,00,80,00,60,F5,
16008717,00000110,false,Rx,0,8,EA,FF,FF,FF,D0,00,5F,21,
16008718,00000130,false,Rx,0,8,F8,FF,FF,FF,D0,00,5C,53,
16009719,00000100,false,Rx,0,8,92,A4,00,00,D0,00,30,B0,
16009720,00000120,false,Rx,0,8,0E,00,00,00,90,00,6D,35,
16009720,00000110,false,Rx,0,8,5D,00,00,00,E0,00,44,96,
16010966,00000050,false,Rx,0,6,41,5C,FF,FB,DF,FF,00,00,
16010966,00000130,false,Rx,0,8,48,21,00,00,E3,80,FB,04,
16010967,00000100,false,Rx,0,8,92,A4,00,00,E0,00,24,B0,
16012594,00000120,false,Rx,0,8,63,00,00,00,A0,00,71,88,
16012595,00000110,false,Rx,0,8,5D,00,00,00,F0,00,49,56,
16013586,00000130,false,Rx,0,8,F8,FF,FF,FF,F0,00,45,93,
16013587,00000100,false,Rx,0,8,A9,A4,00,00,F0,00,2D,FB,
16014718,00000120,false,Rx,0,8,63,00,00,00,B0,00,7C,48,
16014719,00000110,false,Rx,0,8,01,00,00,00,00,00,01,CA,
16015719,00000130,false,Rx,0,8,F8,FF,FF,FF,00,00,01,93,
16015720,00000100,false,Rx,0,8,A9,A4,00,00,00,00,69,FB,
16016717,00000120,false,Rx,0,8,0E,00,00,00,C0,00,51,35,
16016718,00000110,false,Rx,0,8,01,00,00,00,10,00,0C,0A,
16017718,00000130,false,Rx,0,8,F8,FF,FF,FF,10,00,0C,53,
16017719,00000100,false,Rx,0,8,92,A4,00,00,10,00,60,B0,
16018720,00000120,false,Rx,0,8,0E,00,00,00,D0,00,5C,F5,
16018721,00000110,false,Rx,0,8,46,00,00,00,20,00,17,7D,
16019845,00000130,false,Rx,0,8,D9,FF,FF,FF,20,00,1E,E2,
16019847,00000100,false,Rx,0,8,92,A4,00,00,20,00,74,B0,
16020844,00000120,false,Rx,0,8,63,00,00,00,E0,00,40,48,
16020845,00000110,false,Rx,0,8,46,00,00,00,30,00,1A,BD,
16021837,00000130,false,Rx,0,8,37,00,00,00,30,00,10,5C,
16021838,00000100,false,Rx,0,8,7A,A4,00,00,30,00,6E,58,
16022845,00000120,false,Rx,0,8,63,00,00,00,F0,00,4D,88,
16022846,00000110,false,Rx,0,8,2F,00,00,00,40,00,36,44,
16023844,00000130,false,Rx,0,8,D9,FF,FF,FF,40,00,36,E2,
16023845,00000100,false,Rx,0,8,92,A4,00,00,40,00,5C,B0,
16024976,00000120,false,Rx,0,8,2A,00,00,00,00,00,07,D1,
16024977,00000110,false,Rx,0,8,2F,00,00,00,50,00,3B,84,
16025972,00000130,false,Rx,0,8,F8,FF,FF,FF,50,00,3D,93,
16025973,00000100,false,Rx,0,8,92,A4,00,00,50,00,51,70,
16025973,00000140,false,Rx,0,8,01,00,FF,FF,E0,00,48,2E,
16026980,00000120,false,Rx,0,8,2A,00,00,00,10,00,0A,11,
16026981,00000110,false,Rx,0,8,EA,FF,FF,FF,60,00,2A,E1,
16028072,00000130,false,Rx,0,8,D9,FF,FF,FF,60,00,2F,22,
16028073,00000100,false,Rx,0,8,92,A4,00,00,60,00,45,70,
16029070,00000120,false,Rx,0,8,46,00,00,00,20,00,17,7D,
16029070,00000110,false,Rx,0,8,EA,FF,FF,FF,70,00,27,21,
16030071,00000130,false,Rx,0,8,18,00,00,00,70,00,26,03,
16030072,00000100,false,Rx,0,8,7A,A4,00,00,70,00,5F,98,
16030072,00000120,false,Rx,0,8,46,00,00,00,30,00,1A,BD,
16031317,00000110,false,Rx,0,8,46,00,00,00,80,00,6F,7D,
16031318,00000050,false,Rx,0,6,41,5C,FF,FB,DF,FF,00,00,
16031319,00000130,false,Rx,0,8,5D,34,03,00,83,80,DC,46,
16032319,00000100,false,Rx,0,8,92,A4,00,00,80,00,0C,B0,
16032320,00000120,false,Rx,0,8,46,00,00,00,40,00,3F,7D,
16033317,00000110,false,Rx,0,8,46,00,00,00,90,00,62,BD,
16033317,00000130,false,Rx,0,8,F8,FF,FF,FF,90,00,6D,93,
16034443,00000100,false,Rx,0,8,92,A4,00,00,90,00,01,70,
16034444,00000120,false,Rx,0,8,46,00,00,00,50,00,32,BD,
16035444,00000110,false,Rx,0,8,01,00,00,00,A0,00,79,CA,
16035445,00000130,false,Rx,0,8,F8,FF,FF,FF,A0,00,79,93,
16036444,00000100,false,Rx,0,8,7A,A4,00,00,A0,00,02,58,
16036445,00000120,false,Rx,0,8,2A,00,00,00,60,00,2F,D1,
16037460,00000110,false,Rx,0,8,01,00,00,00,B0,00,74,0A,
16037461,00000130,false,Rx,0,8,D9,FF,FF,FF,B0,00,72,E2,
16037461,00000100,false,Rx,0,8,92,A4,00,00,B0,00,18,B0,
16039318,00000120,false,Rx,0,8,2A,00,00,00,70,00,22,11,
16039319,00000110,false,Rx,0,8,46,00,00,00,C0,00,5E,BD,
16040318,00000130,false,Rx,0,8,D9,FF,FF,FF,C0,00,57,22,
16040319,00000100,false,Rx,0,8,92,A4,00,00,C0,00,3D,70,
16041317,00000120,false,Rx,0,8,7F,00,00,00,80,00,6A,14,
16041318,00000110,false,Rx,0,8,46,00,00,00,D0,00,53,7D,
16042443,00000130,false,Rx,0,8,F8,FF,FF,FF,D0,00,5C,53,
16042444,00000100,false,Rx,0,8,A9,A4,00,00,D0,00,34,3B,
16043443,00000120,false,Rx,0,8,7F,00,00,00,90,00,67,D4,
16043444,00000110,false,Rx,0,8,18,00,00,00,E0,00,4A,03,
16044442,00000130,false,Rx,0,8,F8,FF,FF,FF,E0,00,48,53,
16044443,00000100,false,Rx,0,8,92,A4,00,00,E0,00,24,B0,
16045453,00000120,false,Rx,0,8,0E,00,00,00,A0,00,79,35,
16045454,00000110,false,Rx,0,8,18,00,00,00,F0,00,47,C3,
16046443,00000130,false,Rx,0,8,18,00,00,00,F0,00,47,C3,
16046444,00000100,false,Rx,0,8,A9,A4,00,00,F0,00,2D,FB,
16046444,00000140,false,Rx,0,8,01,00,FF,FF,F0,00,45,EE,
16047567,00000120,false,Rx,0,8,0E,00,00,00,B0,00,74,F5,
16047568,00000110,false,Rx,0,8,EA,FF,FF,FF,00,00,02,E1,
16048568,00000130,false,Rx,0,8,F8,FF,FF,FF,00,00,01,93,
16048569,00000100,false,Rx,0,8,92,A4,00,00,00,00,6D,70,
16049568,00000120,false,Rx,0,8,46,00,00,00,C0,00,5E,BD,
16049568,00000110,false,Rx,0,8,EA,FF,FF,FF,10,00,0F,21,
16050568,00000130,false,Rx,0,8,F8,FF,FF,FF,10,00,0C,53,
16050568,00000100,false,Rx,0,8,92,A4,00,00,10,00,60,B0,
16050569,00000120,false,Rx,0,8,46,00,00,00,D0,00,53,7D,
16051818,00000110,false,Rx,0,8,18,00,00,00,20,00,1A,03,
16051819,00000050,false,Rx,0,6,41,5C,FF,FB,DF,FF,00,00,
16051819,00000130,false,Rx,0,8,FB,95,FF,FF,23,80,01,39,
16052818,00000100,false,Rx,0,8,A9,A4,00,00,20,00,70,3B,
16052818,00000120,false,Rx,0,8,2A,00,00,00,E0,00,4E,11,
16053943,00000110,false,Rx,0,8,18,00,00,00,30,00,17,C3,
16053944,00000130,false,Rx,0,8,95,00,00,00,30,00,09,1E,
16054942,00000100,false,Rx,0,8,A9,A4,00,00,30,00,7D,FB,
16054943,00000120,false,Rx,0,8,2A,00,00,00,F0,00,43,D1,
16055942,00000110,false,Rx,0,8,01,00,00,00,40,00,30,0A,
16055943,00000130,false,Rx,0,8,D9,FF,FF,FF,40,00,36,E2,
16056942,00000100,false,Rx,0,8,92,A4,00,00,40,00,5C,B0,
16056943,00000120,false,Rx,0,8,0E,00,00,00,00,00,01,35,
16058069,00000110,false,Rx,0,8,01,00,00,00,50,00,3D,CA,
16058069,00000130,false,Rx,0,8,B9,FF,FF,FF,50,00,32,82,
16059068,00000100,false,Rx,0,8,92,A4,00,00,50,00,51,70,
16059068,00000120,false,Rx,0,8,0E,00,00,00,10,00,0C,F5,
16060068,00000110,false,Rx,0,8,46,00,00,00,60,00,26,BD,
16060068,00000130,false,Rx,0,8,F8,FF,FF,FF,60,00,29,93,
16060069,00000100,false,Rx,0,8,92,A4,00,00,60,00,45,70,
16061943,00000120,false,Rx,0,8,7F,00,00,00,20,00,12,14,
16061943,00000110,false,Rx,0,8,46,00,00,00,70,00,2B,7D,
16062944,00000130,false,Rx,0,8,F8,FF,FF,FF,70,00,24,53,
16062945,00000100,false,Rx,0,8,92,A4,00,00,70,00,48,B0,
16063943,00000120,false,Rx,0,8,7F,00,00,00,30,00,1F,D4,
16063944,00000110,false,Rx,0,8,2F,00,00,00,80,00,66,44,
16064944,00000130,false,Rx,0,8,F8,FF,FF,FF,80,00,60,53,
16064945,00000100,false,Rx,0,8,92,A4,00,00,80,00,0C,B0,
16066098,00000120,false,Rx,0,8,0E,00,00,00,40,00,30,F5,
16066100,00000110,false,Rx,0,8,2F,00,00,00,90,00,6B,84,
16067113,00000130,false,Rx,0,8,37,00,00,00,90,00,68,5C,
16067114,00000100,false,Rx,0,8,92,A4,00,00,90,00,01,70,
16067115,00000140,false,Rx,0,8,01,00,FF,FF,00,00,01,EE,
16068080,00000120,false,Rx,0,8,0E,00,00,00,50,00,3D,35,
16068081,00000110,false,Rx,0,8,01,00,00,00,A0,00,79,CA,
16069135,00000130,false,Rx,0,8,F8,FF,FF,FF,A0,00,79,93,
16069135,00000100,false,Rx,0,8,92,A4,00,00,A0,00,15,70,
16070070,00000120,false,Rx,0,8,46,00,00,00,60,00,26,BD,
16070071,00000110,false,Rx,0,8,01,00,00,00,B0,00,74,0A,
16071195,00000130,false,Rx,0,8,F8,FF,FF,FF,B0,00,74,53,
16071196,00000100,false,Rx,0,8,92,A4,00,00,B0,00,18,B0,
16071197,00000120,false,Rx,0,8,46,00,00,00,70,00,2B,7D,
16072319,00000110,false,Rx,0,8,18,00,00,00,C0,00,53,C3,
16072320,00000050,false,Rx,0,6,41,5C,FF,FB,DF,FF,00,00,
16072320,00000130,false,Rx,0,8,36,BC,F5,FF,C3,80,06,FA,
16073444,00000100,false,Rx,0,8,A9,A4,00,00,C0,00,39,FB,
16073445,00000120,false,Rx,0,8,2A,00,00,00,80,00,66,11,
16074445,00000110,false,Rx,0,8,18,00,00,00,D0,00,5E,03,
16074447,00000210,false,Rx,0,8,75,69,00,05,06,5F,01,03,
16074448,00000130,false,Rx,0,8,B5,00,00,00,D0,00,47,BE,
16075444,00000100,false,Rx,0,8,92,A4,00,00,D0,00,30,B0,
16075444,00000120,false,Rx,0,8,2A,00,00,00,90,00,6B,D1,
16076568,00000110,false,Rx,0,8,01,00,00,00,E0,00,48,0A,
16076569,00000130,false,Rx,0,8,F8,FF,FF,FF,E0,00,48,53,
16077568,00000100,false,Rx,0,8,92,A4,00,00,E0,00,24,B0,
16077569,00000120,false,Rx,0,8,46,00,00,00,A0,00,76,BD,
16078568,00000110,false,Rx,0,8,01,00,00,00,F0,00,45,CA,
16078569,00000130,false,Rx,0,8,18,00,00,00,F0,00,47,C3,
16079568,00000100,false,Rx,0,8,92,A4,00,00,F0,00,29,70,
16079569,00000120,false,Rx,0,8,46,00,00,00,B0,00,7B,7D,
16080569,00000110,false,Rx,0,8,46,00,00,00,00,00,0E,BD,
16080570,00000130,false,Rx,0,8,D9,FF,FF,FF,00,00,07,22,
16081694,00000100,false,Rx,0,8,92,A4,00,00,00,00,6D,70,
16081695,00000120,false,Rx,0,8,46,00,00,00,C0,00,5E,BD,
16082693,00000110,false,Rx,0,8,46,00,00,00,10,00,03,7D,
16082694,00000130,false,Rx,0,8,F8,FF,FF,FF,10,00,0C,53,
16083693,00000100,false,Rx,0,8,A9,A4,00,00,10,00,64,3B,
16083694,00000120,false,Rx,0,8,46,00,00,00,D0,00,53,7D,
16084694,00000110,false,Rx,0,8,18,00,00,00,20,00,1A,03,
16084695,00000130,false,Rx,0,8,F8,FF,FF,FF,20,00,18,53,
16085819,00000100,false,Rx,0,8,92,A4,00,00,20,00,74,B0,
16085820,00000120,false,Rx,0,8,0E,00,00,00,E0,00,48,F5,
16086819,00000110,false,Rx,0,8,18,00,00,00,30,00,17,C3,
16086820,00000130,false,Rx,0,8,F8,FF,FF,FF,30,00,15,93,
16087819,00000100,false,Rx,0,8,92,A4,00,00,30,00,79,70,
16087819,00000140,false,Rx,0,8,01,00,FF,FF,10,00,0C,2E,
16087819,00000120,false,Rx,0,8,0E,00,00,00,F0,00,45,35,
16088818,00000110,false,Rx,0,8,01,00,00,00,40,00,30,0A,
16088819,00000130,false,Rx,0,8,18,00,00,00,40,00,32,03,
16089943,00000100,false,Rx,0,8,92,A4,00,00,40,00,5C,B0,
16089944,00000120,false,Rx,0,8,63,00,00,00,00,00,09,88,
16090942,00000110,false,Rx,0,8,01,00,00,00,50,00,3D,CA,
16090943,00000130,false,Rx,0,8,18,00,00,00,50,00,3F,C3,
16091942,00000100,false,Rx,0,8,92,A4,00,00,50,00,51,70,
16091942,00000120,false,Rx,0,8,63,00,00,00,10,00,04,48,
16091943,00000110,false,Rx,0,8,46,00,00,00,60,00,26,BD,
16093066,00000050,false,Rx,0,6,41,5C,FF,FB,DF,FF,00,00,
16093067,00000130,false,Rx,0,8,67,21,00,00,63,80,9D,5B,
16093068,00000100,false,Rx,0,8,92,A4,00,00,60,00,45,70,
16094692,00000120,false,Rx,0,8,46,00,00,00,20,00,17,7D,
16094693,00000110,false,Rx,0,8,46,00,00,00,70,00,2B,7D,
16095817,00000130,false,Rx,0,8,B9,FF,FF,FF,70,00,2B,42,
16095818,00000100,false,Rx,0,8,A9,A4,00,00,70,00,4C,3B,
16096816,00000120,false,Rx,0,8,46,00,00,00,30,00,1A,BD,
16096817,00000110,false,Rx,0,8,01,00,00,00,80,00,60,0A,
16096817,00000170,false,Rx,0,8,00,00,00,5C,50,81,05,02,
16097816,00000130,false,Rx,0,8,D9,FF,FF,FF,80,00,66,E2,
16097817,00000100,false,Rx,0,8,92,A4,00,00,80,00,0C,B0,
16098941,00000120,false,Rx,0,8,63,00,00,00,40,00,38,48,
16098942,00000110,false,Rx,0,8,01,00,00,00,90,00,6D,CA,
16099941,00000130,false,Rx,0,8,D9,FF,FF,FF,90,00,6B,22,
16099941,00000100,false,Rx,0,8,92,A4,00,00,90,00,01,70,
16100941,00000120,false,Rx,0,8,63,00,00,00,50,00,35,88,
16100941,00000110,false,Rx,0,8,46,00,00,00,A0,00,76,BD,
16101949,00000130,false,Rx,0,8,F8,FF,FF,FF,A0,00,79,93,
16101950,00000100,false,Rx,0,8,92,A4,00,00,A0,00,15,70,
16102941,00000120,false,Rx,0,8,63,00,00,00,60,00,21,88,
16102941,00000110,false,Rx,0,8,46,00,00,00,B0,00,7B,7D,
16104065,00000130,false,Rx,0,8,F8,FF,FF,FF,B0,00,74,53,
16104065,00000100,false,Rx,0,8,A9,A4,00,00,B0,00,1C,3B,
16105065,00000120,false,Rx,0,8,63,00,00,00,70,00,2C,48,
16105065,00000110,false,Rx,0,8,01,00,00,00,C0,00,51,CA,
16106066,00000130,false,Rx,0,8,18,00,00,00,C0,00,53,C3,
16106067,00000100,false,Rx,0,8,92,A4,00,00,C0,00,3D,70,
16107103,00000120,false,Rx,0,8,0E,00,00,00,80,00,60,F5,
16107105,00000110,false,Rx,0,8,01,00,00,00,D0,00,5C,0A,
16108227,00000130,false,Rx,0,8,18,00,00,00,D0,00,5E,03,
16108229,00000100,false,Rx,0,8,A9,A4,00,00,D0,00,34,3B,
16108230,00000140,false,Rx,0,8,01,00,FF,FF,20,00,18,2E,
16109235,00000120,false,Rx,0,8,0E,00,00,00,90,00,6D,35,
16109236,00000110,false,Rx,0,8,18,00,00,00,E0,00,4A,03,
16110216,00000130,false,Rx,0,8,B9,FF,FF,FF,E0,00,47,42,
16110216,00000100,false,Rx,0,8,92,A4,00,00,E0,00,24,B0,
16111225,00000120,false,Rx,0,8,46,00,00,00,A0,00,76,BD,
16111226,00000110,false,Rx,0,8,18,00,00,00,F0,00,47,C3,
16112213,00000130,false,Rx,0,8,56,00,00,00,F0,00,48,2D,
16112213,00000100,false,Rx,0,8,92,A4,00,00,F0,00,29,70,
16112214,00000120,false,Rx,0,8,46,00,00,00,B0,00,7B,7D,
16113471,00000110,false,Rx,0,8,46,00,00,00,00,00,0E,BD,
16113472,00000050,false,Rx,0,6,41,5C,FF,FB,DF,FF,00,00,
16113472,00000130,false,Rx,0,8,5D,34,03,00,03,80,BD,86,
16114471,00000100,false,Rx,0,8,92,A4,00,00,00,00,6D,70,
16114472,00000120,false,Rx,0,8,2A,00,00,00,C0,00,57,D1,
16115596,00000110,false,Rx,0,8,46,00,00,00,10,00,03,7D,
16115597,00000130,false,Rx,0,8,B9,FF,FF,FF,10,00,03,42,
16116596,00000100,false,Rx,0,8,92,A4,00,00,10,00,60,B0,
16116597,00000120,false,Rx,0,8,2A,00,00,00,D0,00,5A,11,
16117606,00000110,false,Rx,0,8,EA,FF,FF,FF,20,00,1B,21,
16117607,00000130,false,Rx,0,8,18,00,00,00,20,00,1A,03,
16118709,00000100,false,Rx,0,8,92,A4,00,00,20,00,74,B0,
16118710,00000120,false,Rx,0,8,7F,00,00,00,E0,00,42,14,
16119706,00000110,false,Rx,0,8,EA,FF,FF,FF,30,00,16,E1,
16119707,00000130,false,Rx,0,8,D9,FF,FF,FF,30,00,13,22,
16120704,00000100,false,Rx,0,8,92,A4,00,00,30,00,79,70,
16120704,00000120,false,Rx,0,8,7F,00,00,00,F0,00,4F,D4,
16121703,00000110,false,Rx,0,8,46,00,00,00,40,00,3F,7D,
16121703,00000130,false,Rx,0,8,37,00,00,00,40,00,35,9C,
16122867,00000100,false,Rx,0,8,92,A4,00,00,40,00,5C,B0,
16122868,00000120,false,Rx,0,8,46,00,00,00,00,00,0E,BD,
16123858,00000110,false,Rx,0,8,46,00,00,00,50,00,32,BD,
16123858,00000130,false,Rx,0,8,D9,FF,FF,FF,50,00,3B,22,
16124859,00000100,false,Rx,0,8,92,A4,00,00,50,00,51,70,
16124859,00000120,false,Rx,0,8,46,00,00,00,10,00,03,7D,
16125878,00000110,false,Rx,0,8,01,00,00,00,60,00,29,CA,
16125878,00000130,false,Rx,0,8,F8,FF,FF,FF,60,00,29,93,
16126835,00000100,false,Rx,0,8,92,A4,00,00,60,00,45,70,
16126836,00000120,false,Rx,0,8,0E,00,00,00,20,00,18,F5,
16127969,00000110,false,Rx,0,8,01,00,00,00,70,00,24,0A,
16127970,00000130,false,Rx,0,8,18,00,00,00,70,00,26,03,
16128964,00000100,false,Rx,0,8,92,A4,00,00,70,00,48,B0,
16128964,00000140,false,Rx,0,8,01,00,FF,FF,30,00,15,EE,
16128965,00000120,false,Rx,0,8,0E,00,00,00,30,00,15,35,
16129970,00000110,false,Rx,0,8,2F,00,00,00,80,00,66,44,
16129970,00000130,false,Rx,0,8,18,00,00,00,80,00,62,03,
16131054,00000100,false,Rx,0,8,92,A4,00,00,80,00,0C,B0,
16131054,00000120,false,Rx,0,8,46,00,00,00,40,00,3F,7D,
16131961,00000110,false,Rx,0,8,2F,00,00,00,90,00,6B,84,
16131963,00000130,false,Rx,0,8,F8,FF,FF,FF,90,00,6D,93,
16133079,00000100,false,Rx,0,8,92,A4,00,00,90,00,01,70,
16133080,00000120,false,Rx,0,8,46,00,00,00,50,00,32,BD,
16133080,00000110,false,Rx,0,8,01,00,00,00,A0,00,79,CA,
16134196,00000050,false,Rx,0,6,41,5C,FF,FB,DF,FF,00,00,
16134196,00000130,false,Rx,0,8,FB,95,FF,FF,A3,80,60,F9,
16134196,00000100,false,Rx,0,8,92,A4,00,00,A0,00,15,70,
16135825,00000120,false,Rx,0,8,2A,00,00,00,60,00,2F,D1,
16135825,00000110,false,Rx,0,8,01,00,00,00,B0,00,74,0A,
16136959,00000130,false,Rx,0,8,76,00,00,00,B0,00,7E,8D,
16136960,00000100,false,Rx,0,8,92,A4,00,00,B0,00,18,B0,
16137983,00000120,false,Rx,0,8,2A,00,00,00,70,00,22,11,
16137985,00000110,false,Rx,0,8,18,00,00,00,C0,00,53,C3,
16138969,00000130,false,Rx,0,8,F8,FF,FF,FF,C0,00,51,93,
16138970,00000100,false,Rx,0,8,92,A4,00,00,C0,00,3D,70,
16139985,00000120,false,Rx,0,8,63,00,00,00,80,00,68,48,
16139986,00000110,false,Rx,0,8,18,00,00,00,D0,00,5E,03,
16140984,00000130,false,Rx,0,8,F8,FF,FF,FF,D0,00,5C,53,
16140985,00000100,false,Rx,0,8,A9,A4,00,00,D0,00,34,3B,
16142108,00000120,false,Rx,0,8,63,00,00,00,90,00,65,88,
16142109,00000110,false,Rx,0,8,46,00,00,00,E0,00,47,7D,
16143091,00000130,false,Rx,0,8,D9,FF,FF,FF,E0,00,4E,E2,
16143092,00000100,false,Rx,0,8,92,A4,00,00,E0,00,24,B0,
16144087,00000120,false,Rx,0,8,46,00,00,00,A0,00,76,BD,
16144088,00000110,false,Rx,0,8,46,00,00,00,F0,00,4A,BD,
16145080,00000130,false,Rx,0,8,F8,FF,FF,FF,F0,00,45,93,
16145081,00000100,false,Rx,0,8,A9,A4,00,00,F0,00,2D,FB,
16146246,00000120,false,Rx,0,8,46,00,00,00,B0,00,7B,7D,
16146248,00000110,false,Rx,0,8,01,00,00,00,00,00,01,CA,
16147214,00000130,false,Rx,0,8,D9,FF,FF,FF,00,00,07,22,
16147215,00000100,false,Rx,0,8,92,A4,00,00,00,00,6D,70,
16148221,00000120,false,Rx,0,8,2A,00,00,00,C0,00,57,D1,
16148223,00000110,false,Rx,0,8,01,00,00,00,10,00,0C,0A,
16149227,00000130,false,Rx,0,8,F8,FF,FF,FF,10,00,0C,53,
16149228,00000100,false,Rx,0,8,A9,A4,00,00,10,00,64,3B,
16149229,00000140,false,Rx,0,8,01,00,FF,FF,40,00,30,2E,
16150199,00000120,false,Rx,0,8,2A,00,00,00,D0,00,5A,11,
16150200,00000110,false,Rx,0,8,2F,00,00,00,20,00,1E,44,
16151373,00000130,false,Rx,0,8,F8,FF,FF,FF,20,00,18,53,
16151375,00000100,false,Rx,0,8,A9,A4,00,00,20,00,70,3B,
16152346,00000120,false,Rx,0,8,2A,00,00,00,E0,00,4E,11,
16152348,00000110,false,Rx,0,8,2F,00,00,00,30,00,13,84,
16153332,00000130,false,Rx,0,8,F8,FF,FF,FF,30,00,15,93,
16153333,00000100,false,Rx,0,8,92,A4,00,00,30,00,79,70,
16153334,00000120,false,Rx,0,8,2A,00,00,00,F0,00,43,D1,
16154602,00000110,false,Rx,0,8,01,00,00,00,40,00,30,0A,
16154604,00000050,false,Rx,0,6,41,5C,FF,FB,DF,FF,00,00,
16154604,00000130,false,Rx,0,8,16,BC,F5,FF,43,80,60,5A,
16155605,00000100,false,Rx,0,8,92,A4,00,00,40,00,5C,B0,
16155606,00000120,false,Rx,0,8,46,00,00,00,00,00,0E,BD,
16156576,00000110,false,Rx,0,8,01,00,00,00,50,00,3D,CA,
16156577,00000130,false,Rx,0,8,76,00,00,00,50,00,37,4D,
16157731,00000100,false,Rx,0,8,92,A4,00,00,50,00,51,70,
16157732,00000120,false,Rx,0,8,46,00,00,00,10,00,03,7D,
16158714,00000110,false,Rx,0,8,2F,00,00,00,60,00,2F,84,
16158714,00000130,false,Rx,0,8,18,00,00,00,60,00,2B,C3,
16159705,00000100,false,Rx,0,8,92,A4,00,00,60,00,45,70,
16159706,00000120,false,Rx,0,8,63,00,00,00,20,00,10,48,
16160862,00000110,false,Rx,0,8,2F,00,00,00,70,00,22,44,
16160863,00000130,false,Rx,0,8,18,00,00,00,70,00,26,03,
16161855,00000100,false,Rx,0,8,92,A4,00,00,70,00,48,B0,
16161856,00000120,false,Rx,0,8,63,00,00,00,30,00,1D,88,
16162837,00000110,false,Rx,0,8,2F,00,00,00,80,00,66,44,
16162838,00000130,false,Rx,0,8,D9,FF,FF,FF,80,00,66,E2,
16163840,00000100,false,Rx,0,8,A9,A4,00,00,80,00,08,3B,
16163840,00000120,false,Rx,0,8,2A,00,00,00,40,00,36,11,
16164831,00000110,false,Rx,0,8,2F,00,00,00,90,00,6B,84,
16164832,00000130,false,Rx,0,8,B9,FF,FF,FF,90,00,62,82,
16166037,00000100,false,Rx,0,8,92,A4,00,00,90,00,01,70,
16166038,00000120,false,Rx,0,8,2A,00,00,00,50,00,3B,D1,
16166967,00000110,false,Rx,0,8,EA,FF,FF,FF,A0,00,7A,E1,
16166968,00000130,false,Rx,0,8,18,00,00,00,A0,00,7B,C3,
16167971,00000100,false,Rx,0,8,92,A4,00,00,A0,00,15,70,
16167972,00000120,false,Rx,0,8,46,00,00,00,60,00,26,BD,
16168967,00000110,false,Rx,0,8,EA,FF,FF,FF,B0,00,77,21,
16168967,00000130,false,Rx,0,8,18,00,00,00,B0,00,76,03,
16169965,00000100,false,Rx,0,8,A9,A4,00,00,B0,00,1C,3B,
16169965,00000140,false,Rx,0,8,01,00,FF,FF,50,00,3D,EE,
16169966,00000120,false,Rx,0,8,46,00,00,00,70,00,2B,7D,
16171094,00000110,false,Rx,0,8,2F,00,00,00,C0,00,57,84,
16171095,00000130,false,Rx,0,8,37,00,00,00,C0,00,54,5C,
16172103,00000100,false,Rx,0,8,92,A4,00,00,C0,00,3D,70,
16172104,00000120,false,Rx,0,8,46,00,00,00,80,00,6F,7D,
16172104,00000110,false,Rx,0,8,2F,00,00,00,D0,00,5A,44,
16173824,00000130,false,Rx,0,8,18,00,00,00,D0,00,5E,03,
16173826,00000100,false,Rx,0,8,A9,A4,00,00,D0,00,34,3B,
16173826,00000120,false,Rx,0,8,46,00,00,00,90,00,62,BD,
16175175,00000110,false,Rx,0,8,2F,00,00,00,E0,00,4E,44,
16175175,00000050,false,Rx,0,6,41,5C,FF,FB,DF,FF,00,00,
16175175,00000130,false,Rx,0,8,67,21,00,00,E3,80,FC,9B,
16176197,00000100,false,Rx,0,8,92,A4,00,00,E0,00,24,B0,
16176198,00000120,false,Rx,0,8,2A,00,00,00,A0,00,7F,D1,
16177201,00000110,false,Rx,0,8,2F,00,00,00,F0,00,43,84,
16177202,00000130,false,Rx,0,8,B9,FF,FF,FF,F0,00,4A,82,
16178226,00000100,false,Rx,0,8,A9,A4,00,00,F0,00,2D,FB,
16178228,00000120,false,Rx,0,8,2A,00,00,00,B0,00,72,11,
16179345,00000110,false,Rx,0,8,46,00,00,00,00,00,0E,BD,
16179347,00000130,false,Rx,0,8,18,00,00,00,00,00,03,C3,
16180374,00000100,false,Rx,0,8,92,A4,00,00,00,00,6D,70,
16180376,00000120,false,Rx,0,8,7F,00,00,00,C0,00,5B,D4,
16181367,00000110,false,Rx,0,8,46,00,00,00,10,00,03,7D,
16181369,00000130,false,Rx,0,8,D9,FF,FF,FF,10,00,0A,E2,
16182321,00000100,false,Rx,0,8,A9,A4,00,00,10,00,64,3B,
16182322,00000120,false,Rx,0,8,7F,00,00,00,D0,00,56,14,
16183346,00000110,false,Rx,0,8,2F,00,00,00,20,00,1E,44,
16183347,00000130,false,Rx,0,8,F8,FF,FF,FF,20,00,18,53,
16184501,00000100,false,Rx,0,8,92,A4,00,00,20,00,74,B0,
16184503,00000120,false,Rx,0,8,2A,00,00,00,E0,00,4E,11,
16185500,00000110,false,Rx,0,8,2F,00,00,00,30,00,13,84,
16185502,00000130,false,Rx,0,8,37,00,00,00,30,00,10,5C,
16186477,00000100,false,Rx,0,8,92,A4,00,00,30,00,79,70,
16186478,00000120,false,Rx,0,8,2A,00,00,00,F0,00,43,D1,
16187464,00000110,false,Rx,0,8,D3,FF,FF,FF,40,00,36,48,
16187465,00000130,false,Rx,0,8,37,00,00,00,40,00,35,9C,
16188623,00000100,false,Rx,0,8,92,A4,00,00,40,00,5C,B0,
16188624,00000120,false,Rx,0,8,63,00,00,00,00,00,09,88,
16189517,00000110,false,Rx,0,8,D3,FF,FF,FF,50,00,3B,88,
16189519,00000130,false,Rx,0,8,D9,FF,FF,FF,50,00,3B,22,
16190622,00000100,false,Rx,0,8,92,A4,00,00,50,00,51,70,
16190623,00000140,false,Rx,0,8,01,00,FF,FF,60,00,29,EE,
16190624,00000120,false,Rx,0,8,63,00,00,00,10,00,04,48,
16191585,00000110,false,Rx,0,8,2F,00,00,00,60,00,2F,84,
16191586,00000130,false,Rx,0,8,18,00,00,00,60,00,2B,C3,
16192577,00000100,false,Rx,0,8,92,A4,00,00,60,00,45,70,
16192577,00000120,false,Rx,0,8,2A,00,00,00,20,00,1E,11,
16193737,00000110,false,Rx,0,8,2F,00,00,00,70,00,22,44,
16193738,00000130,false,Rx,0,8,18,00,00,00,70,00,26,03,
16194732,00000100,false,Rx,0,8,A9,A4,00,00,70,00,4C,3B,
16194733,00000120,false,Rx,0,8,2A,00,00,00,30,00,13,D1,
16194743,00000110,false,Rx,0,8,2F,00,00,00,80,00,66,44,
16195837,00000050,false,Rx,0,6,41,5C,FF,FB,DF,FF,00,00,
16195838,00000130,false,Rx,0,8,3D,34,03,00,83,80,D5,E6,
16195839,00000100,false,Rx,0,8,92,A4,00,00,80,00,0C,B0,
16197472,00000120,false,Rx,0,8,2A,00,00,00,40,00,36,11,
16197473,00000110,false,Rx,0,8,2F,00,00,00,90,00,6B,84,
16198567,00000130,false,Rx,0,8,F8,FF,FF,FF,90,00,6D,93,
16198568,00000100,false,Rx,0,8,A9,A4,00,00,90,00,05,FB,
16199608,00000120,false,Rx,0,8,2A,00,00,00,50,00,3B,D1,
16199608,00000110,false,Rx,0,8,46,00,00,00,A0,00,76,BD,
16199609,00000170,false,Rx,0,8,00,00,00,5D,50,81,05,9F,
16200584,00000130,false,Rx,0,8,18,00,00,00,A0,00,7B,C3,
16200585,00000100,false,Rx,0,8,A9,A4,00,00,A0,00,11,FB,
16201576,00000120,false,Rx,0,8,63,00,00,00,60,00,21,88,
16201577,00000110,false,Rx,0,8,46,00,00,00,B0,00,7B,7D,
16202733,00000130,false,Rx,0,8,18,00,00,00,B0,00,76,03,
16202734,00000100,false,Rx,0,8,92,A4,00,00,B0,00,18,B0,
16203732,00000120,false,Rx,0,8,63,00,00,00,70,00,2C,48,
16203733,00000110,false,Rx,0,8,18,00,00,00,C0,00,53,C3,
16204731,00000130,false,Rx,0,8,18,00,00,00,C0,00,53,C3,
16204732,00000100,false,Rx,0,8,92,A4,00,00,C0,00,3D,70,
16205692,00000120,false,Rx,0,8,0E,00,00,00,80,00,60,F5,
16205693,00000110,false,Rx,0,8,18,00,00,00,D0,00,5E,03,
16206862,00000130,false,Rx,0,8,F8,FF,FF,FF,D0,00,5C,53,
16206863,00000100,false,Rx,0,8,A9,A4,00,00,D0,00,34,3B,
16207858,00000120,false,Rx,0,8,0E,00,00,00,90,00,6D,35,
16207858,00000110,false,Rx,0,8,D3,FF,FF,FF,E0,00,4E,48,
16208857,00000130,false,Rx,0,8,18,00,00,00,E0,00,4A,03,
16208858,00000100,false,Rx,0,8,92,A4,00,00,E0,00,24,B0,
16209845,00000120,false,Rx,0,8,46,00,00,00,A0,00,76,BD,
16209846,00000110,false,Rx,0,8,D3,FF,FF,FF,F0,00,43,88,
16210820,00000130,false,Rx,0,8,F8,FF,FF,FF,F0,00,45,93,
16210821,00000100,false,Rx,0,8,92,A4,00,00,F0,00,29,70,
16210822,00000140,false,Rx,0,8,01,00,FF,FF,70,00,24,2E,
16211955,00000120,false,Rx,0,8,46,00,00,00,B0,00,7B,7D,
16211955,00000110,false,Rx,0,8,18,00,00,00,00,00,03,C3,
16213035,00000130,false,Rx,0,8,F8,FF,FF,FF,00,00,01,93,
16213036,00000100,false,Rx,0,8,92,A4,00,00,00,00,6D,70,
16213941,00000120,false,Rx,0,8,2A,00,00,00,C0,00,57,D1,
16213942,00000110,false,Rx,0,8,18,00,00,00,10,00,0E,03,
16214943,00000130,false,Rx,0,8,F8,FF,FF,FF,10,00,0C,53,
16214944,00000100,false,Rx,0,8,92,A4,00,00,10,00,60,B0,
16214945,00000120,false,Rx,0,8,2A,00,00,00,D0,00,5A,11,
16216206,00000110,false,Rx,0,8,EA,FF,FF,FF,20,00,1B,21,
16216207,00000050,false,Rx,0,6,41,5C,FF,FB,DF,FF,00,00,
16216207,00000130,false,Rx,0,8,FB,95,FF,FF,23,80,01,39,
16217192,00000100,false,Rx,0,8,92,A4,00,00,20,00,74,B0,
16217193,00000120,false,Rx,0,8,46,00,00,00,E0,00,47,7D,
16218317,00000110,false,Rx,0,8,EA,FF,FF,FF,30,00,16,E1,
16218318,00000130,false,Rx,0,8,76,00,00,00,30,00,1F,4D,
16219331,00000100,false,Rx,0,8,A9,A4,00,00,30,00,7D,FB,
16219332,00000120,false,Rx,0,8,46,00,00,00,F0,00,4A,BD,
16220330,00000110,false,Rx,0,8,46,00,00,00,40,00,3F,7D,
16220330,00000130,false,Rx,0,8,F8,FF,FF,FF,40,00,30,53,
16221515,00000100,false,Rx,0,8,92,A4,00,00,40,00,5C,B0,
16221516,00000120,false,Rx,0,8,63,00,00,00,00,00,09,88,
16222488,00000110,false,Rx,0,8,46,00,00,00,50,00,32,BD,
16222489,00000130,false,Rx,0,8,18,00,00,00,50,00,3F,C3,
16223440,00000100,false,Rx,0,8,A9,A4,00,00,50,00,55,FB,
16223440,00000120,false,Rx,0,8,63,00,00,00,10,00,04,48,
16224458,00000110,false,Rx,0,8,18,00,00,00,60,00,2B,C3,
16224459,00000130,false,Rx,0,8,F8,FF,FF,FF,60,00,29,93,
16225472,00000100,false,Rx,0,8,92,A4,00,00,60,00,45,70,
16225473,00000120,false,Rx,0,8,0E,00,00,00,20,00,18,F5,
16226583,00000110,false,Rx,0,8,18,00,00,00,70,00,26,03,
16226584,00000130,false,Rx,0,8,18,00,00,00,70,00,26,03,
16227584,00000100,false,Rx,0,8,92,A4,00,00,70,00,48,B0,
16227585,00000120,false,Rx,0,8,0E,00,00,00,30,00,15,35,
16228583,00000110,false,Rx,0,8,18,00,00,00,80,00,62,03,
16228584,00000130,false,Rx,0,8,F8,FF,FF,FF,80,00,60,53,
16229577,00000100,false,Rx,0,8,92,A4,00,00,80,00,0C,B0,
16229578,00000120,false,Rx,0,8,46,00,00,00,40,00,3F,7D,
16230735,00000110,false,Rx,0,8,18,00,00,00,90,00,6F,C3,
16230736,00000130,false,Rx,0,8,F8,FF,FF,FF,90,00,6D,93,
16231692,00000100,false,Rx,0,8,A9,A4,00,00,90,00,05,FB,
16231693,00000140,false,Rx,0,8,01,00,FF,FF,80,00,60,2E,
16231694,00000120,false,Rx,0,8,46,00,00,00,50,00,32,BD,
16232691,00000110,false,Rx,0,8,18,00,00,00,A0,00,7B,C3,
16232692,00000130,false,Rx,0,8,F8,FF,FF,FF,A0,00,79,93,
16233712,00000100,false,Rx,0,8,92,A4,00,00,A0,00,15,70,
16233713,00000120,false,Rx,0,8,2A,00,00,00,60,00,2F,D1,
16234703,00000110,false,Rx,0,8,18,00,00,00,B0,00,76,03,
16234704,00000130,false,Rx,0,8,18,00,00,00,B0,00,76,03,
16235703,00000100,false,Rx,0,8,92,A4,00,00,B0,00,18,B0,
16235704,00000120,false,Rx,0,8,2A,00,00,00,70,00,22,11,
16235705,00000110,false,Rx,0,8,01,00,00,00,C0,00,51,CA,
16236828,00000050,false,Rx,0,6,41,5C,FF,FB,DF,FF,00,00,
16236829,00000130,false,Rx,0,8,36,BC,F5,FF,C3,80,06,FA,
16236829,00000100,false,Rx,0,8,92,A4,00,00,C0,00,3D,70,
16238577,00000120,false,Rx,0,8,63,00,00,00,80,00,68,48,
16238578,00000110,false,Rx,0,8,01,00,00,00,D0,00,5C,0A,
16239576,00000130,false,Rx,0,8,95,00,00,00,D0,00,40,DE,
16239577,00000100,false,Rx,0,8,92,A4,00,00,D0,00,30,B0,
16240729,00000120,false,Rx,0,8,63,00,00,00,90,00,65,88,
16240729,00000110,false,Rx,0,8,46,00,00,00,E0,00,47,7D,
16241737,00000130,false,Rx,0,8,D9,FF,FF,FF,E0,00,4E,E2,
16241737,00000100,false,Rx,0,8,92,A4,00,00,E0,00,24,B0,
16242708,00000120,false,Rx,0,8,2A,00,00,00,A0,00,7F,D1,
16242709,00000110,false,Rx,0,8,46,00,00,00,F0,00,4A,BD,
16243722,00000130,false,Rx,0,8,18,00,00,00,F0,00,47,C3,
16243723,00000100,false,Rx,0,8,92,A4,00,00,F0,00,29,70,
16244858,00000120,false,Rx,0,8,2A,00,00,00,B0,00,72,11,
16244859,00000110,false,Rx,0,8,01,00,00,00,00,00,01,CA,
16245816,00000130,false,Rx,0,8,18,00,00,00,00,00,03,C3,
16245817,00000100,false,Rx,0,8,92,A4,00,00,00,00,6D,70,
16246838,00000120,false,Rx,0,8,0E,00,00,00,C0,00,51,35,
16246839,00000110,false,Rx,0,8,01,00,00,00,10,00,0C,0A,
16247828,00000130,false,Rx,0,8,F8,FF,FF,FF,10,00,0C,53,
16247829,00000100,false,Rx,0,8,92,A4,00,00,10,00,60,B0,
16248965,00000120,false,Rx,0,8,0E,00,00,00,D0,00,5C,F5,
16248965,00000110,false,Rx,0,8,2F,00,00,00,20,00,1E,44,
16249954,00000130,false,Rx,0,8,D9,FF,FF,FF,20,00,1E,E2,
16249955,00000100,false,Rx,0,8,92,A4,00,00,20,00,74,B0,
16250953,00000120,false,Rx,0,8,46,00,00,00,E0,00,47,7D,
16250954,00000110,false,Rx,0,8,2F,00,00,00,30,00,13,84,
16251957,00000130,false,Rx,0,8,F8,FF,FF,FF,30,00,15,93,
16251958,00000100,false,Rx,0,8,92,A4,00,00,30,00,79,70,
16251958,00000140,false,Rx,0,8,01,00,FF,FF,90,00,6D,EE,
16252959,00000120,false,Rx,0,8,46,00,00,00,F0,00,4A,BD,
16252959,00000110,false,Rx,0,8,18,00,00,00,40,00,32,03,
16254077,00000130,false,Rx,0,8,18,00,00,00,40,00,32,03,
16254078,00000100,false,Rx,0,8,92,A4,00,00,40,00,5C,B0,
16255105,00000120,false,Rx,0,8,2A,00,00,00,00,00,07,D1,
16255106,00000110,false,Rx,0,8,18,00,00,00,50,00,3F,C3,
16256102,00000130,false,Rx,0,8,18,00,00,00,50,00,3F,C3,
16256103,00000100,false,Rx,0,8,A9,A4,00,00,50,00,55,FB,
16256103,00000120,false,Rx,0,8,2A,00,00,00,10,00,0A,11,
16257361,00000110,false,Rx,0,8,2F,00,00,00,60,00,2F,84,
16257361,00000050,false,Rx,0,6,41,5C,FF,FB,DF,FF,00,00,
16257362,00000130,false,Rx,0,8,48,21,00,00,63,80,9A,C4,
16257362,00000100,false,Rx,0,8,92,A4,00,00,60,00,45,70,
16259084,00000120,false,Rx,0,8,63,00,00,00,20,00,10,48,
16259084,00000110,false,Rx,0,8,2F,00,00,00,70,00,22,44,
16260237,00000130,false,Rx,0,8,9A,FF,FF,FF,70,00,2C,11,
16260237,00000100,false,Rx,0,8,A9,A4,00,00,70,00,4C,3B,
16261209,00000120,false,Rx,0,8,63,00,00,00,30,00,1D,88,
16261210,00000110,false,Rx,0,8,5D,00,00,00,80,00,6C,96,
16262190,00000130,false,Rx,0,8,D9,FF,FF,FF,80,00,66,E2,
16262191,00000100,false,Rx,0,8,92,A4,00,00,80,00,0C,B0,
16263358,00000120,false,Rx,0,8,46,00,00,00,40,00,3F,7D,
16263359,00000110,false,Rx,0,8,5D,00,00,00,90,00,61,56,
16264356,00000130,false,Rx,0,8,F8,FF,FF,FF,90,00,6D,93,
16264356,00000100,false,Rx,0,8,92,A4,00,00,90,00,01,70,
16265353,00000120,false,Rx,0,8,46,00,00,00,50,00,32,BD,
16265354,00000110,false,Rx,0,8,01,00,00,00,A0,00,79,CA,
16266334,00000130,false,Rx,0,8,D9,FF,FF,FF,A0,00,7F,22,
16266335,00000100,false,Rx,0,8,92,A4,00,00,A0,00,15,70,
16267328,00000120,false,Rx,0,8,F1,FF,FF,FF,60,00,29,0A,
16267329,00000110,false,Rx,0,8,01,00,00,00,B0,00,74,0A,
16268469,00000130,false,Rx,0,8,D9,FF,FF,FF,B0,00,72,E2,
16268470,00000100,false,Rx,0,8,92,A4,00,00,B0,00,18,B0,
16269455,00000120,false,Rx,0,8,F1,FF,FF,FF,70,00,24,CA,
16269456,00000110,false,Rx,0,8,2F,00,00,00,C0,00,57,84,
16270459,00000130,false,Rx,0,8,F8,FF,FF,FF,C0,00,51,93,
16270460,00000100,false,Rx,0,8,92,A4,00,00,C0,00,3D,70,
16271469,00000120,false,Rx,0,8,46,00,00,00,80,00,6F,7D,
16271469,00000110,false,Rx,0,8,2F,00,00,00,D0,00,5A,44,
16272440,00000130,false,Rx,0,8,F8,FF,FF,FF,D0,00,5C,53,
16272441,00000100,false,Rx,0,8,92,A4,00,00,D0,00,30,B0,
16272441,00000140,false,Rx,0,8,01,00,FF,FF,A0,00,79,EE,
16273573,00000120,false,Rx,0,8,46,00,00,00,90,00,62,BD,
16273574,00000110,false,Rx,0,8,18,00,00,00,E0,00,4A,03,
16274579,00000130,false,Rx,0,8,F8,FF,FF,FF,E0,00,48,53,
16274580,00000100,false,Rx,0,8,92,A4,00,00,E0,00,24,B0,
16275565,00000120,false,Rx,0,8,0E,00,00,00,A0,00,79,35,
16275566,00000110,false,Rx,0,8,18,00,00,00,F0,00,47,C3,
16276577,00000130,false,Rx,0,8,18,00,00,00,F0,00,47,C3,
16276578,00000100,false,Rx,0,8,92,A4,00,00,F0,00,29,70,
16276579,00000120,false,Rx,0,8,0E,00,00,00,B0,00,74,F5,
16277827,00000110,false,Rx,0,8,2F,00,00,00,00,00,07,84,
16277828,00000050,false,Rx,0,6,41,5C,FF,FB,DF,FF,00,00,
16277829,00000130,false,Rx,0,8,3D,34,03,00,03,80,B4,26,
16278831,00000100,false,Rx,0,8,92,A4,00,00,00,00,6D,70,
16278832,00000120,false,Rx,0,8,7F,00,00,00,C0,00,5B,D4,
16279953,00000110,false,Rx,0,8,2F,00,00,00,10,00,0A,44,
16279954,00000130,false,Rx,0,8,F8,FF,FF,FF,10,00,0C,53,
16280953,00000100,false,Rx,0,8,92,A4,00,00,10,00,60,B0,
16280954,00000120,false,Rx,0,8,7F,00,00,00,D0,00,56,14,
16281952,00000110,false,Rx,0,8,46,00,00,00,20,00,17,7D,
16281954,00000130,false,Rx,0,8,18,00,00,00,20,00,1A,03,
16282957,00000100,false,Rx,0,8,92,A4,00,00,20,00,74,B0,
16282959,00000120,false,Rx,0,8,2A,00,00,00,E0,00,4E,11,
16284077,00000110,false,Rx,0,8,46,00,00,00,30,00,1A,BD,
16284078,00000130,false,Rx,0,8,F8,FF,FF,FF,30,00,15,93,
16285074,00000100,false,Rx,0,8,A9,A4,00,00,30,00,7D,FB,
16285075,00000120,false,Rx,0,8,2A,00,00,00,F0,00,43,D1,
16286076,00000110,false,Rx,0,8,EA,FF,FF,FF,40,00,33,21,
16286077,00000130,false,Rx,0,8,D9,FF,FF,FF,40,00,36,E2,
16287075,00000100,false,Rx,0,8,92,A4,00,00,40,00,5C,B0,
16287075,00000120,false,Rx,0,8,0E,00,00,00,00,00,01,35,
16288200,00000110,false,Rx,0,8,EA,FF,FF,FF,50,00,3E,E1,
16288200,00000130,false,Rx,0,8,18,00,00,00,50,00,3F,C3,
16289201,00000100,false,Rx,0,8,A9,A4,00,00,50,00,55,FB,
16289202,00000120,false,Rx,0,8,0E,00,00,00,10,00,0C,F5,
16290202,00000110,false,Rx,0,8,2F,00,00,00,60,00,2F,84,
16290202,00000130,false,Rx,0,8,D9,FF,FF,FF,60,00,2F,22,
16291201,00000100,false,Rx,0,8,A9,A4,00,00,60,00,41,FB,
16291202,00000120,false,Rx,0,8,2A,00,00,00,20,00,1E,11,
16292325,00000110,false,Rx,0,8,2F,00,00,00,70,00,22,44,
16292326,00000130,false,Rx,0,8,37,00,00,00,70,00,21,9C,
16293347,00000100,false,Rx,0,8,7A,A4,00,00,70,00,5F,98,
16293348,00000140,false,Rx,0,8,01,00,FF,FF,B0,00,74,2E,
16293348,00000120,false,Rx,0,8,2A,00,00,00,30,00,13,D1,
16294374,00000110,false,Rx,0,8,18,00,00,00,80,00,62,03,
16294375,00000130,false,Rx,0,8,F8,FF,FF,FF,80,00,60,53,
16295327,00000100,false,Rx,0,8,7A,A4,00,00,80,00,1B,98,
16295328,00000120,false,Rx,0,8,2A,00,00,00,40,00,36,11,
16296324,00000110,false,Rx,0,8,18,00,00,00,90,00,6F,C3,
16296325,00000130,false,Rx,0,8,D9,FF,FF,FF,90,00,6B,22,
16297449,00000100,false,Rx,0,8,A9,A4,00,00,90,00,05,FB,
16297450,00000120,false,Rx,0,8,2A,00,00,00,50,00,3B,D1,
16297450,00000110,false,Rx,0,8,18,00,00,00,A0,00,7B,C3,
16298577,00000050,false,Rx,0,6,41,5C,FF,FB,DF,FF,00,00,
16298578,00000130,false,Rx,0,8,FB,95,FF,FF,A3,80,60,F9,
16298578,00000100,false,Rx,0,8,92,A4,00,00,A0,00,15,70,
16300199,00000120,false,Rx,0,8,63,00,00,00,60,00,21,88,
16300200,00000110,false,Rx,0,8,18,00,00,00,B0,00,76,03,
16301341,00000130,false,Rx,0,8,76,00,00,00,B0,00,7E,8D,
16301343,00000100,false,Rx,0,8,A9,A4,00,00,B0,00,1C,3B,
16302345,00000120,false,Rx,0,8,63,00,00,00,70,00,2C,48,
16302346,00000110,false,Rx,0,8,2F,00,00,00,C0,00,57,84,
16302347,00000170,false,Rx,0,8,00,00,00,5E,50,81,05,25,
16303344,00000130,false,Rx,0,8,37,00,00,00,C0,00,54,5C,
16303345,00000100,false,Rx,0,8,A9,A4,00,00,C0,00,39,FB,
16304352,00000120,false,Rx,0,8,46,00,00,00,80,00,6F,7D,
16304353,00000110,false,Rx,0,8,2F,00,00,00,D0,00,5A,44,
16305343,00000130,false,Rx,0,8,D9,FF,FF,FF,D0,00,5A,E2,
16305345,00000100,false,Rx,0,8,92,A4,00,00,D0,00,30,B0,
16306469,00000120,false,Rx,0,8,46,00,00,00,90,00,62,BD,
16306471,00000110,false,Rx,0,8,EA,FF,FF,FF,E0,00,4B,21,
16307469,00000130,false,Rx,0,8,F8,FF,FF,FF,E0,00,48,53,
16307471,00000100,false,Rx,0,8,92,A4,00,00,E0,00,24,B0,
16308469,00000120,false,Rx,0,8,46,00,00,00,A0,00,76,BD,
16308470,00000110,false,Rx,0,8,EA,FF,FF,FF,F0,00,46,E1,
16309466,00000130,false,Rx,0,8,18,00,00,00,F0,00,47,C3,
16309468,00000100,false,Rx,0,8,A9,A4,00,00,F0,00,2D,FB,
16310591,00000120,false,Rx,0,8,46,00,00,00,B0,00,7B,7D,
16310593,00000110,false,Rx,0,8,2F,00,00,00,00,00,07,84,
16311593,00000130,false,Rx,0,8,18,00,00,00,00,00,03,C3,
16311594,00000100,false,Rx,0,8,92,A4,00,00,00,00,6D,70,
16312591,00000120,false,Rx,0,8,2A,00,00,00,C0,00,57,D1,
16312593,00000110,false,Rx,0,8,2F,00,00,00,10,00,0A,44,
16313593,00000130,false,Rx,0,8,18,00,00,00,10,00,0E,03,
16313594,00000100,false,Rx,0,8,92,A4,00,00,10,00,60,B0,
16313594,00000140,false,Rx,0,8,01,00,FF,FF,C0,00,51,EE,
16314717,00000120,false,Rx,0,8,2A,00,00,00,D0,00,5A,11,
16314719,00000110,false,Rx,0,8,01,00,00,00,20,00,18,0A,
16315718,00000130,false,Rx,0,8,F8,FF,FF,FF,20,00,18,53,
16315720,00000100,false,Rx,0,8,92,A4,00,00,20,00,74,B0,
16316716,00000120,false,Rx,0,8,46,00,00,00,E0,00,47,7D,
16316717,00000110,false,Rx,0,8,01,00,00,00,30,00,15,CA,
16317719,00000130,false,Rx,0,8,F8,FF,FF,FF,30,00,15,93,
16317720,00000100,false,Rx,0,8,92,A4,00,00,30,00,79,70,
16317721,00000120,false,Rx,0,8,46,00,00,00,F0,00,4A,BD,
16318977,00000110,false,Rx,0,8,2F,00,00,00,40,00,36,44,
16318978,00000050,false,Rx,0,6,41,5C,FF,FB,DF,FF,00,00,
16318979,00000130,false,Rx,0,8,16,BC,F5,FF,43,80,60,5A,
16319968,00000100,false,Rx,0,8,92,A4,00,00,40,00,5C,B0,
16319969,00000120,false,Rx,0,8,63,00,00,00,00,00,09,88,
16321000,00000110,false,Rx,0,8,2F,00,00,00,50,00,3B,84,
16321001,00000130,false,Rx,0,8,76,00,00,00,50,00,37,4D,
16322091,00000100,false,Rx,0,8,92,A4,00,00,50,00,51,70,
16322092,00000120,false,Rx,0,8,63,00,00,00,10,00,04,48,
16323092,00000110,false,Rx,0,8,2F,00,00,00,60,00,2F,84,
16323093,00000130,false,Rx,0,8,F8,FF,FF,FF,60,00,29,93,
16324092,00000100,false,Rx,0,8,92,A4,00,00,60,00,45,70,
16324093,00000120,false,Rx,0,8,2A,00,00,00,20,00,1E,11,
16325223,00000110,false,Rx,0,8,2F,00,00,00,70,00,22,44,
16325225,00000130,false,Rx,0,8,18,00,00,00,70,00,26,03,
16326211,00000100,false,Rx,0,8,92,A4,00,00,70,00,48,B0,
16326212,00000120,false,Rx,0,8,2A,00,00,00,30,00,13,D1,
16327215,00000110,false,Rx,0,8,D3,FF,FF,FF,80,00,66,48,
16327216,00000130,false,Rx,0,8,F8,FF,FF,FF,80,00,60,53,
16328205,00000100,false,Rx,0,8,92,A4,00,00,80,00,0C,B0,
16328207,00000120,false,Rx,0,8,46,00,00,00,40,00,3F,7D,
16329206,00000110,false,Rx,0,8,D3,FF,FF,FF,90,00,6B,88,
16329208,00000130,false,Rx,0,8,D9,FF,FF,FF,90,00,6B,22,
16330314,00000100,false,Rx,0,8,92,A4,00,00,90,00,01,70,
16330315,00000120,false,Rx,0,8,46,00,00,00,50,00,32,BD,
16331315,00000110,false,Rx,0,8,18,00,00,00,A0,00,7B,C3,
16331316,00000130,false,Rx,0,8,F8,FF,FF,FF,A0,00,79,93,
16332314,00000100,false,Rx,0,8,92,A4,00,00,A0,00,15,70,
16332314,00000120,false,Rx,0,8,46,00,00,00,60,00,26,BD,
16333334,00000110,false,Rx,0,8,18,00,00,00,B0,00,76,03,
16333334,00000130,false,Rx,0,8,37,00,00,00,B0,00,71,9C,
16334328,00000100,false,Rx,0,8,92,A4,00,00,B0,00,18,B0,
16334329,00000140,false,Rx,0,8,01,00,FF,FF,D0,00,5C,2E,
16334330,00000120,false,Rx,0,8,46,00,00,00,70,00,2B,7D,
16335437,00000110,false,Rx,0,8,01,00,00,00,C0,00,51,CA,
16335438,00000130,false,Rx,0,8,D9,FF,FF,FF,C0,00,57,22,
16336436,00000100,false,Rx,0,8,92,A4,00,00,C0,00,3D,70,
16336438,00000120,false,Rx,0,8,2A,00,00,00,80,00,66,11,
16337438,00000110,false,Rx,0,8,01,00,00,00,D0,00,5C,0A,
16337438,00000130,false,Rx,0,8,F8,FF,FF,FF,D0,00,5C,53,
16338439,00000100,false,Rx,0,8,A9,A4,00,00,D0,00,34,3B,
16338440,00000120,false,Rx,0,8,2A,00,00,00,90,00,6B,D1,
16338441,00000110,false,Rx,0,8,5D,00,00,00,E0,00,44,96,
16339701,00000050,false,Rx,0,6,41,5C,FF,FB,DF,FF,00,00,
16339702,00000130,false,Rx,0,8,67,21,00,00,E3,80,FC,9B,
16339702,00000100,false,Rx,0,8,92,A4,00,00,E0,00,24,B0,
16341340,00000120,false,Rx,0,8,63,00,00,00,A0,00,71,88,
16341341,00000110,false,Rx,0,8,5D,00,00,00,F0,00,49,56,
16342330,00000130,false,Rx,0,8,F8,FF,FF,FF,F0,00,45,93,
16342331,00000100,false,Rx,0,8,92,A4,00,00,F0,00,29,70,
16343328,00000120,false,Rx,0,8,63,00,00,00,B0,00,7C,48,
16343329,00000110,false,Rx,0,8,2F,00,00,00,00,00,07,84,
16344451,00000130,false,Rx,0,8,18,00,00,00,00,00,03,C3,
16344452,00000100,false,Rx,0,8,A9,A4,00,00,00,00,69,FB,
16345450,00000120,false,Rx,0,8,2A,00,00,00,C0,00,57,D1,
16345450,00000110,false,Rx,0,8,2F,00,00,00,10,00,0A,44,
16346452,00000130,false,Rx,0,8,18,00,00,00,10,00,0E,03,
16346452,00000100,false,Rx,0,8,92,A4,00,00,10,00,60,B0,
16347575,00000120,false,Rx,0,8,2A,00,00,00,D0,00,5A,11,
16347576,00000110,false,Rx,0,8,EA,FF,FF,FF,20,00,1B,21,
16348573,00000130,false,Rx,0,8,18,00,00,00,20,00,1A,03,
16348574,00000100,false,Rx,0,8,92,A4,00,00,20,00,74,B0,
16349677,00000120,false,Rx,0,8,46,00,00,00,E0,00,47,7D,
16349678,00000110,false,Rx,0,8,EA,FF,FF,FF,30,00,16,E1,
16350574,00000130,false,Rx,0,8,18,00,00,00,30,00,17,C3,
16350575,00000100,false,Rx,0,8,92,A4,00,00,30,00,79,70,
16351575,00000120,false,Rx,0,8,46,00,00,00,F0,00,4A,BD,
16351576,00000110,false,Rx,0,8,18,00,00,00,40,00,32,03,
16352583,00000130,false,Rx,0,8,D9,FF,FF,FF,40,00,36,E2,
16352584,00000100,false,Rx,0,8,A9,A4,00,00,40,00,58,3B,
16353700,00000120,false,Rx,0,8,2A,00,00,00,00,00,07,D1,
16353701,00000110,false,Rx,0,8,18,00,00,00,50,00,3F,C3,
16354699,00000130,false,Rx,0,8,18,00,00,00,50,00,3F,C3,
16354699,00000100,false,Rx,0,8,92,A4,00,00,50,00,51,70,
16354700,00000140,false,Rx,0,8,01,00,FF,FF,E0,00,48,2E,
16355700,00000120,false,Rx,0,8,2A,00,00,00,10,00,0A,11,
16355700,00000110,false,Rx,0,8,01,00,00,00,60,00,29,CA,
16355701,00000130,false,Rx,0,8,D9,FF,FF,FF,60,00,2F,22,
16356952,00000100,false,Rx,0,8,92,A4,00,00,60,00,45,70,
16356952,00000120,false,Rx,0,8,0E,00,00,00,20,00,18,F5,
16357958,00000110,false,Rx,0,8,01,00,00,00,70,00,24,0A,
16357959,00000130,false,Rx,0,8,F8,FF,FF,FF,70,00,24,53,
16359075,00000100,false,Rx,0,8,92,A4,00,00,70,00,48,B0,
16359075,00000120,false,Rx,0,8,0E,00,00,00,30,00,15,35,
16359076,00000110,false,Rx,0,8,74,00,00,00,80,00,6B,6F,
16360199,00000050,false,Rx,0,6,41,5C,FF,FB,DF,FF,00,00,
16360199,00000130,false,Rx,0,8,5D,34,03,00,83,80,DC,46,
16360200,00000100,false,Rx,0,8,92,A4,00,00,80,00,0C,B0,
16361838,00000120,false,Rx,0,8,63,00,00,00,40,00,38,48,
16361839,00000110,false,Rx,0,8,74,00,00,00,90,00,66,AF,
16362940,00000130,false,Rx,0,8,F8,FF,FF,FF,90,00,6D,93,
16362941,00000100,false,Rx,0,8,92,A4,00,00,90,00,01,70,
16363942,00000120,false,Rx,0,8,63,00,00,00,50,00,35,88,
16363943,00000110,false,Rx,0,8,18,00,00,00,A0,00,7B,C3,
16364938,00000130,false,Rx,0,8,18,00,00,00,A0,00,7B,C3,
16364939,00000100,false,Rx,0,8,A9,A4,00,00,A0,00,11,FB,
16365939,00000120,false,Rx,0,8,2A,00,00,00,60,00,2F,D1,
16365940,00000110,false,Rx,0,8,18,00,00,00,B0,00,76,03,
16367065,00000130,false,Rx,0,8,F8,FF,FF,FF,B0,00,74,53,
16367067,00000100,false,Rx,0,8,92,A4,00,00,B0,00,18,B0,
16368064,00000120,false,Rx,0,8,2A,00,00,00,70,00,22,11,
16368065,00000110,false,Rx,0,8,01,00,00,00,C0,00,51,CA,
16369065,00000130,false,Rx,0,8,D9,FF,FF,FF,C0,00,57,22,
16369066,00000100,false,Rx,0,8,92,A4,00,00,C0,00,3D,70,
16370066,00000120,false,Rx,0,8,46,00,00,00,80,00,6F,7D,
16370067,00000110,false,Rx,0,8,01,00,00,00,D0,00,5C,0A,
16371194,00000130,false,Rx,0,8,F8,FF,FF,FF,D0,00,5C,53,
16371195,00000100,false,Rx,0,8,92,A4,00,00,D0,00,30,B0,
16372219,00000120,false,Rx,0,8,46,00,00,00,90,00,62,BD,
16372221,00000110,false,Rx,0,8,18,00,00,00,E0,00,4A,03,
16373206,00000130,false,Rx,0,8,F8,FF,FF,FF,E0,00,48,53,
16373207,00000100,false,Rx,0,8,92,A4,00,00,E0,00,24,B0,
16374191,00000120,false,Rx,0,8,2A,00,00,00,A0,00,7F,D1,
16374192,00000110,false,Rx,0,8,18,00,00,00,F0,00,47,C3,
16375189,00000130,false,Rx,0,8,D9,FF,FF,FF,F0,00,43,22,
16375190,00000100,false,Rx,0,8,92,A4,00,00,F0,00,29,70,
16375190,00000140,false,Rx,0,8,01,00,FF,FF,F0,00,45,EE,
16376326,00000120,false,Rx,0,8,2A,00,00,00,B0,00,72,11,
16376327,00000110,false,Rx,0,8,01,00,00,00,00,00,01,CA,
16377325,00000130,false,Rx,0,8,F8,FF,FF,FF,00,00,01,93,
16377326,00000100,false,Rx,0,8,92,A4,00,00,00,00,6D,70,
16378311,00000120,false,Rx,0,8,63,00,00,00,C0,00,59,88,
16378312,00000110,false,Rx,0,8,01,00,00,00,10,00,0C,0A,
16379321,00000130,false,Rx,0,8,F8,FF,FF,FF,10,00,0C,53,
16379321,00000100,false,Rx,0,8,92,A4,00,00,10,00,60,B0,
16379322,00000120,false,Rx,0,8,63,00,00,00,D0,00,54,48,
16380575,00000110,false,Rx,0,8,2F,00,00,00,20,00,1E,44,
16380575,00000050,false,Rx,0,6,41,5C,FF,FB,DF,FF,00,00,
16380576,00000130,false,Rx,0,8,FB,95,FF,FF,23,80,01,39,
16381574,00000100,false,Rx,0,8,92,A4,00,00,20,00,74,B0,
16381576,00000120,false,Rx,0,8,63,00,00,00,E0,00,40,48,
16382579,00000110,false,Rx,0,8,2F,00,00,00,30,00,13,84,
16382580,00000130,false,Rx,0,8,95,00,00,00,30,00,09,1E,
16383703,00000100,false,Rx,0,8,92,A4,00,00,30,00,79,70,
16383704,00000120,false,Rx,0,8,63,00,00,00,F0,00,4D,88,
16384702,00000110,false,Rx,0,8,01,00,00,00,40,00,30,0A,
16384703,00000130,false,Rx,0,8,D9,FF,FF,FF,40,00,36,E2,
16385688,00000100,false,Rx,0,8,92,A4,00,00,40,00,5C,B0,
16385689,00000120,false,Rx,0,8,F1,FF,FF,FF,00,00,01,0A,
16386828,00000110,false,Rx,0,8,01,00,00,00,50,00,3D,CA,
16386829,00000130,false,Rx,0,8,F8,FF,FF,FF,50,00,3D,93,
16387906,00000100,false,Rx,0,8,92,A4,00,00,50,00,51,70,
16387907,00000120,false,Rx,0,8,F1,FF,FF,FF,10,00,0C,CA,
16388811,00000110,false,Rx,0,8,18,00,00,00,60,00,2B,C3,
16388812,00000130,false,Rx,0,8,D9,FF,FF,FF,60,00,2F,22,
16389809,00000100,false,Rx,0,8,A9,A4,00,00,60,00,41,FB,
16389809,00000120,false,Rx,0,8,46,00,00,00,20,00,17,7D,
16390936,00000110,false,Rx,0,8,18,00,00,00,70,00,26,03,
16390937,00000130,false,Rx,0,8,D9,FF,FF,FF,70,00,22,E2,
16391934,00000100,false,Rx,0,8,92,A4,00,00,70,00,48,B0,
