Time Stamp,ID,Extended,Dir,Bus,LEN,D1,D2,D3,D4,D5,D6,D7,D8
126674797,00000135,false,Rx,0,8,91,00,00,00,10,00,11,5A,
126674806,00000110,false,Rx,0,8,00,00,00,00,13,00,0D,2B,
126675692,00000135,false,Rx,0,8,91,00,00,00,20,00,05,5A,
126675694,00000110,false,Rx,0,8,00,00,00,00,23,00,19,2B,
126676676,00000130,false,Rx,0,8,18,00,00,00,10,00,0E,03,
126676677,00000100,false,Rx,0,8,71,00,00,00,10,00,07,3A,
126677829,00000120,false,Rx,0,8,00,00,00,00,13,00,0D,2B,
126677830,00000110,false,Rx,0,8,EF,FF,FF,FF,30,00,16,B4,
126677831,00000050,false,Rx,0,6,41,54,FF,E9,57,FF,00,00,
126678803,00000130,false,Rx,0,8,4C,BA,F5,FF,23,80,CC,A0,
126678805,00000100,false,Rx,0,8,71,00,00,00,20,00,13,3A,
126679803,00000120,false,Rx,0,8,59,00,00,00,20,00,15,12,
126679804,00000110,false,Rx,0,8,EF,FF,FF,FF,40,00,33,74,
126679805,00000210,false,Rx,0,8,75,69,00,05,06,5F,01,03,
126680819,00000130,false,Rx,0,8,95,00,00,00,30,00,09,1E,
126680820,00000100,false,Rx,0,8,71,00,00,00,30,00,1E,FA,
126681922,00000120,false,Rx,0,8,59,00,00,00,30,00,18,D2,
126681923,00000110,false,Rx,0,8,06,00,00,00,50,00,3C,7D,
126682922,00000130,false,Rx,0,8,F8,FF,FF,FF,40,00,30,53,
126682923,00000100,false,Rx,0,8,71,00,00,00,40,00,3B,3A,
126683922,00000120,false,Rx,0,8,59,00,00,00,40,00,3D,12,
126683923,00000110,false,Rx,0,8,06,00,00,00,60,00,28,7D,
126684909,00000130,false,Rx,0,8,B9,FF,FF,FF,50,00,32,82,
126684911,00000100,false,Rx,0,8,71,00,00,00,50,00,36,FA,
126686079,00000120,false,Rx,0,8,59,00,00,00,50,00,30,D2,
126686080,00000110,false,Rx,0,8,EF,FF,FF,FF,70,00,27,74,
126687079,00000130,false,Rx,0,8,18,00,00,00,60,00,2B,C3,
126687081,00000100,false,Rx,0,8,71,00,00,00,60,00,22,FA,
126688082,00000120,false,Rx,0,8,59,00,00,00,60,00,24,D2,
126688084,00000110,false,Rx,0,8,EF,FF,FF,FF,80,00,63,74,
126689048,00000130,false,Rx,0,8,18,00,00,00,70,00,26,03,
126689050,00000100,false,Rx,0,8,71,00,00,00,70,00,2F,3A,
126690049,00000120,false,Rx,0,8,59,00,00,00,70,00,29,12,
126690050,00000110,false,Rx,0,8,06,00,00,00,90,00,6C,7D,
126691176,00000130,false,Rx,0,8,D9,FF,FF,FF,80,00,66,E2,
126691177,00000100,false,Rx,0,8,71,00,00,00,80,00,6B,3A,
126692180,00000120,false,Rx,0,8,59,00,00,00,80,00,6D,12,
126692181,00000110,false,Rx,0,8,06,00,00,00,A0,00,78,7D,
126693178,00000130,false,Rx,0,8,F8,FF,FF,FF,90,00,6D,93,
126693179,00000100,false,Rx,0,8,71,00,00,00,90,00,66,FA,
126693180,00000140,false,Rx,0,8,00,00,00,00,11,11,CC,47,
126694176,00000120,false,Rx,0,8,59,00,00,00,90,00,60,D2,
126694177,00000110,false,Rx,0,8,EF,FF,FF,FF,B0,00,77,74,
126695168,00000130,false,Rx,0,8,F8,FF,FF,FF,A0,00,79,93,
126695170,00000100,false,Rx,0,8,71,00,00,00,A0,00,72,FA,
126696328,00000120,false,Rx,0,8,59,00,00,00,A0,00,74,D2,
126696329,00000110,false,Rx,0,8,EF,FF,FF,FF,C0,00,52,B4,
126697327,00000130,false,Rx,0,8,F8,FF,FF,FF,B0,00,74,53,
126697329,00000100,false,Rx,0,8,5A,00,00,00,B0,00,79,21,
126698300,00000120,false,Rx,0,8,59,00,00,00,B0,00,79,12,
126698302,00000110,false,Rx,0,8,34,00,00,00,D0,00,59,AF,
126698302,00000050,false,Rx,0,6,41,5C,FF,EB,5F,FF,00,00,
126699296,00000130,false,Rx,0,8,4D,21,00,00,C3,80,E2,91,
126699297,00000100,false,Rx,0,8,71,00,00,00,C0,00,5A,FA,
126700453,00000120,false,Rx,0,8,59,00,00,00,C0,00,5C,D2,
126700454,00000110,false,Rx,0,8,34,00,00,00,E0,00,4D,AF,
126701430,00000130,false,Rx,0,8,D9,FF,FF,FF,D0,00,5A,E2,
126701431,00000100,false,Rx,0,8,5A,00,00,00,D0,00,51,21,
126702430,00000120,false,Rx,0,8,59,00,00,00,D0,00,51,12,
126702431,00000110,false,Rx,0,8,06,00,00,00,F0,00,44,7D,
126703426,00000130,false,Rx,0,8,F8,FF,FF,FF,E0,00,48,53,
126703427,00000100,false,Rx,0,8,71,00,00,00,E0,00,43,3A,
126704552,00000120,false,Rx,0,8,59,00,00,00,E0,00,45,12,
126704553,00000110,false,Rx,0,8,06,00,00,00,00,00,00,7D,
126705554,00000130,false,Rx,0,8,F8,FF,FF,FF,F0,00,45,93,
126705556,00000100,false,Rx,0,8,71,00,00,00,F0,00,4E,FA,
126706548,00000120,false,Rx,0,8,59,00,00,00,F0,00,48,D2,
126706549,00000110,false,Rx,0,8,06,00,00,00,10,00,0D,BD,
126707674,00000130,false,Rx,0,8,F8,FF,FF,FF,00,00,01,93,
126707675,00000100,false,Rx,0,8,71,00,00,00,00,00,0A,FA,
126708679,00000120,false,Rx,0,8,59,00,00,00,00,00,0C,D2,
126708680,00000110,false,Rx,0,8,06,00,00,00,20,00,19,BD,
126709681,00000130,false,Rx,0,8,F8,FF,FF,FF,10,00,0C,53,
126709682,00000100,false,Rx,0,8,71,00,00,00,10,00,07,3A,
126710672,00000120,false,Rx,0,8,59,00,00,00,10,00,01,12,
126710674,00000110,false,Rx,0,8,06,00,00,00,30,00,14,7D,
126711825,00000130,false,Rx,0,8,F8,FF,FF,FF,20,00,18,53,
126711826,00000100,false,Rx,0,8,71,00,00,00,20,00,13,3A,
126712828,00000120,false,Rx,0,8,59,00,00,00,20,00,15,12,
126712829,00000110,false,Rx,0,8,06,00,00,00,40,00,31,BD,
126713804,00000130,false,Rx,0,8,37,00,00,00,30,00,10,5C,
126713806,00000100,false,Rx,0,8,5A,00,00,00,30,00,18,E1,
126713806,00000140,false,Rx,0,8,01,00,FF,FF,20,00,18,2E,
126714794,00000120,false,Rx,0,8,59,00,00,00,30,00,18,D2,
126714796,00000110,false,Rx,0,8,06,00,00,00,50,00,3C,7D,
126715922,00000130,false,Rx,0,8,F8,FF,FF,FF,40,00,30,53,
126715923,00000100,false,Rx,0,8,71,00,00,00,40,00,3B,3A,
126716923,00000120,false,Rx,0,8,3D,00,00,00,40,00,35,36,
126716925,00000110,false,Rx,0,8,06,00,00,00,60,00,28,7D,
126717908,00000130,false,Rx,0,8,37,00,00,00,50,00,38,5C,
126717909,00000100,false,Rx,0,8,5A,00,00,00,50,00,30,E1,
126717910,00000120,false,Rx,0,8,3D,00,00,00,50,00,38,F6,
126719202,00000110,false,Rx,0,8,34,00,00,00,70,00,21,AF,
126719204,00000050,false,Rx,0,6,41,5C,FF,EB,5F,FF,00,00,
126719204,00000130,false,Rx,0,8,D8,34,03,00,63,80,8A,13,
126720206,00000100,false,Rx,0,8,71,00,00,00,60,00,22,FA,
126720207,00000120,false,Rx,0,8,59,00,00,00,60,00,24,D2,
126721179,00000110,false,Rx,0,8,34,00,00,00,80,00,65,AF,
126721181,00000130,false,Rx,0,8,F8,FF,FF,FF,70,00,24,53,
126722327,00000100,false,Rx,0,8,71,00,00,00,70,00,2F,3A,
126722329,00000120,false,Rx,0,8,59,00,00,00,70,00,29,12,
126723300,00000110,false,Rx,0,8,06,00,00,00,90,00,6C,7D,
126723301,00000130,false,Rx,0,8,F8,FF,FF,FF,80,00,60,53,
126724301,00000100,false,Rx,0,8,71,00,00,00,80,00,6B,3A,
126724302,00000120,false,Rx,0,8,59,00,00,00,80,00,6D,12,
126725293,00000110,false,Rx,0,8,06,00,00,00,A0,00,78,7D,
126725295,00000130,false,Rx,0,8,D9,FF,FF,FF,90,00,6B,22,
126726451,00000100,false,Rx,0,8,71,00,00,00,90,00,66,FA,
126726452,00000120,false,Rx,0,8,59,00,00,00,90,00,60,D2,
126727459,00000110,false,Rx,0,8,06,00,00,00,B0,00,75,BD,
126727460,00000130,false,Rx,0,8,F8,FF,FF,FF,A0,00,79,93,
126728421,00000100,false,Rx,0,8,71,00,00,00,A0,00,72,FA,
126728422,00000120,false,Rx,0,8,59,00,00,00,A0,00,74,D2,
126729425,00000110,false,Rx,0,8,06,00,00,00,C0,00,50,7D,
126729426,00000130,false,Rx,0,8,D9,FF,FF,FF,B0,00,72,E2,
126730559,00000100,false,Rx,0,8,71,00,00,00,B0,00,7F,3A,
126730561,00000120,false,Rx,0,8,59,00,00,00,B0,00,79,12,
126731588,00000110,false,Rx,0,8,1D,00,00,00,D0,00,5E,56,
126731589,00000130,false,Rx,0,8,F8,FF,FF,FF,C0,00,51,93,
126732552,00000100,false,Rx,0,8,71,00,00,00,C0,00,5A,FA,
126732553,00000120,false,Rx,0,8,3D,00,00,00,C0,00,54,F6,
126733543,00000110,false,Rx,0,8,1D,00,00,00,E0,00,4A,56,
126733544,00000130,false,Rx,0,8,F8,FF,FF,FF,D0,00,5C,53,
126734702,00000100,false,Rx,0,8,71,00,00,00,D0,00,57,3A,
126734703,00000140,false,Rx,0,8,01,00,FF,FF,30,00,15,EE,
126734704,00000120,false,Rx,0,8,3D,00,00,00,D0,00,59,36,
126735703,00000110,false,Rx,0,8,06,00,00,00,F0,00,44,7D,
126735705,00000130,false,Rx,0,8,F8,FF,FF,FF,E0,00,48,53,
126736677,00000100,false,Rx,0,8,88,00,00,00,E0,00,57,53,
126736679,00000120,false,Rx,0,8,3D,00,00,00,E0,00,4D,36,
126737670,00000110,false,Rx,0,8,06,00,00,00,00,00,00,7D,
126737671,00000130,false,Rx,0,8,F8,FF,FF,FF,F0,00,45,93,
126738677,00000100,false,Rx,0,8,71,00,00,00,F0,00,4E,FA,
126738678,00000120,false,Rx,0,8,3D,00,00,00,F0,00,40,F6,
126738679,00000110,false,Rx,0,8,06,00,00,00,10,00,0D,BD,
126739911,00000050,false,Rx,0,6,41,5C,FF,EB,5F,FF,00,00,
126739912,00000130,false,Rx,0,8,EB,95,FF,FF,03,80,1A,69,
126739913,00000100,false,Rx,0,8,5A,00,00,00,00,00,0C,E1,
126741546,00000120,false,Rx,0,8,3D,00,00,00,00,00,04,F6,
126741548,00000110,false,Rx,0,8,06,00,00,00,20,00,19,BD,
126742545,00000130,false,Rx,0,8,B5,00,00,00,10,00,17,BE,
126742546,00000100,false,Rx,0,8,71,00,00,00,10,00,07,3A,
126743660,00000120,false,Rx,0,8,3D,00,00,00,10,00,09,36,
126743661,00000110,false,Rx,0,8,1D,00,00,00,30,00,17,96,
126744675,00000130,false,Rx,0,8,18,00,00,00,20,00,1A,03,
126744677,00000100,false,Rx,0,8,5A,00,00,00,20,00,15,21,
126745680,00000120,false,Rx,0,8,20,00,00,00,20,00,1E,BB,
126745681,00000110,false,Rx,0,8,1D,00,00,00,40,00,32,56,
126746671,00000130,false,Rx,0,8,18,00,00,00,30,00,17,C3,
126746673,00000100,false,Rx,0,8,71,00,00,00,30,00,1E,FA,
126747827,00000120,false,Rx,0,8,20,00,00,00,30,00,13,7B,
126747828,00000110,false,Rx,0,8,34,00,00,00,50,00,38,6F,
126748803,00000130,false,Rx,0,8,D9,FF,FF,FF,40,00,36,E2,
126748804,00000100,false,Rx,0,8,71,00,00,00,40,00,3B,3A,
126749803,00000120,false,Rx,0,8,20,00,00,00,40,00,36,BB,
126749804,00000110,false,Rx,0,8,34,00,00,00,60,00,2C,6F,
126750815,00000130,false,Rx,0,8,18,00,00,00,50,00,3F,C3,
126750816,00000100,false,Rx,0,8,71,00,00,00,50,00,36,FA,
126751923,00000120,false,Rx,0,8,20,00,00,00,50,00,3B,7B,
126751924,00000110,false,Rx,0,8,34,00,00,00,70,00,21,AF,
126752954,00000130,false,Rx,0,8,F8,FF,FF,FF,60,00,29,93,
126752955,00000100,false,Rx,0,8,71,00,00,00,60,00,22,FA,
126753922,00000120,false,Rx,0,8,20,00,00,00,60,00,2F,7B,
126753923,00000110,false,Rx,0,8,34,00,00,00,80,00,65,AF,
126754919,00000130,false,Rx,0,8,18,00,00,00,70,00,26,03,
126754920,00000100,false,Rx,0,8,71,00,00,00,70,00,2F,3A,
126754920,00000140,false,Rx,0,8,01,00,FF,FF,40,00,30,2E,
126756076,00000120,false,Rx,0,8,20,00,00,00,70,00,22,BB,
126756077,00000110,false,Rx,0,8,4B,00,00,00,90,00,63,A0,
126757071,00000130,false,Rx,0,8,18,00,00,00,80,00,62,03,
126757072,00000100,false,Rx,0,8,71,00,00,00,80,00,6B,3A,
126758073,00000120,false,Rx,0,8,20,00,00,00,80,00,66,BB,
126758075,00000110,false,Rx,0,8,4B,00,00,00,A0,00,77,A0,
126759047,00000130,false,Rx,0,8,F8,FF,FF,FF,90,00,6D,93,
126759048,00000100,false,Rx,0,8,5A,00,00,00,90,00,60,E1,
126759049,00000120,false,Rx,0,8,20,00,00,00,90,00,6B,7B,
126760328,00000110,false,Rx,0,8,34,00,00,00,B0,00,71,AF,
126760329,00000050,false,Rx,0,6,41,5C,FF,FB,5F,FF,00,00,
126760330,00000130,false,Rx,0,8,2C,BA,F5,FF,A3,80,A4,C0,
126761301,00000100,false,Rx,0,8,71,00,00,00,A0,00,72,FA,
126761303,00000120,false,Rx,0,8,20,00,00,00,A0,00,7F,7B,
126762295,00000110,false,Rx,0,8,34,00,00,00,C0,00,54,6F,
126762296,00000130,false,Rx,0,8,95,00,00,00,B0,00,68,DE,
126763423,00000100,false,Rx,0,8,5A,00,00,00,B0,00,79,21,
126763424,00000120,false,Rx,0,8,20,00,00,00,B0,00,72,BB,
126764442,00000110,false,Rx,0,8,1D,00,00,00,D0,00,5E,56,
126764443,00000130,false,Rx,0,8,37,00,00,00,C0,00,54,5C,
126765558,00000100,false,Rx,0,8,71,00,00,00,C0,00,5A,FA,
126765560,00000120,false,Rx,0,8,20,00,00,00,C0,00,57,7B,
126766576,00000110,false,Rx,0,8,1D,00,00,00,E0,00,4A,56,
126766578,00000130,false,Rx,0,8,F8,FF,FF,FF,D0,00,5C,53,
126767548,00000100,false,Rx,0,8,71,00,00,00,D0,00,57,3A,
126767549,00000120,false,Rx,0,8,20,00,00,00,D0,00,5A,BB,
126768555,00000110,false,Rx,0,8,34,00,00,00,F0,00,40,6F,
126768557,00000130,false,Rx,0,8,F8,FF,FF,FF,E0,00,48,53,
126769543,00000100,false,Rx,0,8,71,00,00,00,E0,00,43,3A,
126769544,00000120,false,Rx,0,8,3D,00,00,00,E0,00,4D,36,
126770702,00000110,false,Rx,0,8,34,00,00,00,00,00,04,6F,
126770703,00000130,false,Rx,0,8,F8,FF,FF,FF,F0,00,45,93,
126771704,00000100,false,Rx,0,8,71,00,00,00,F0,00,4E,FA,
126771706,00000120,false,Rx,0,8,3D,00,00,00,F0,00,40,F6,
126772705,00000110,false,Rx,0,8,34,00,00,00,10,00,09,AF,
126772706,00000130,false,Rx,0,8,18,00,00,00,00,00,03,C3,
126773669,00000100,false,Rx,0,8,71,00,00,00,00,00,0A,FA,
126773670,00000120,false,Rx,0,8,3D,00,00,00,00,00,04,F6,
126774830,00000110,false,Rx,0,8,34,00,00,00,20,00,1D,AF,
126774831,00000130,false,Rx,0,8,F8,FF,FF,FF,10,00,0C,53,
126775826,00000100,false,Rx,0,8,5A,00,00,00,10,00,01,21,
126775827,00000140,false,Rx,0,8,01,00,FF,FF,50,00,3D,EE,
126775828,00000150,false,Rx,0,4,FD,F4,40,A7,00,00,00,00,
126775829,00000120,false,Rx,0,8,3D,00,00,00,10,00,09,36,
126776802,00000110,false,Rx,0,8,34,00,00,00,30,00,10,6F,
126776804,00000130,false,Rx,0,8,18,00,00,00,20,00,1A,03,
126777792,00000100,false,Rx,0,8,5A,00,00,00,20,00,15,21,
126777793,00000120,false,Rx,0,8,3D,00,00,00,20,00,1D,36,
126778918,00000110,false,Rx,0,8,34,00,00,00,40,00,35,AF,
126778919,00000130,false,Rx,0,8,18,00,00,00,30,00,17,C3,
126779921,00000100,false,Rx,0,8,71,00,00,00,30,00,1E,FA,
126779922,00000120,false,Rx,0,8,3D,00,00,00,30,00,10,F6,
126779923,00000110,false,Rx,0,8,4B,00,00,00,50,00,33,A0,
126781050,00000050,false,Rx,0,6,41,5C,FF,FF,DF,FF,00,00,
126781051,00000130,false,Rx,0,8,4D,21,00,00,43,80,83,51,
126781052,00000100,false,Rx,0,8,5A,00,00,00,40,00,3D,21,
126782675,00000120,false,Rx,0,8,3D,00,00,00,40,00,35,36,
126782676,00000110,false,Rx,0,8,4B,00,00,00,60,00,27,A0,
126783826,00000130,false,Rx,0,8,F8,FF,FF,FF,50,00,3D,93,
126783828,00000100,false,Rx,0,8,71,00,00,00,50,00,36,FA,
126784800,00000120,false,Rx,0,8,3D,00,00,00,50,00,38,F6,
126784802,00000110,false,Rx,0,8,34,00,00,00,70,00,21,AF,
126785800,00000130,false,Rx,0,8,F8,FF,FF,FF,60,00,29,93,
126785802,00000100,false,Rx,0,8,71,00,00,00,60,00,22,FA,
126786795,00000120,false,Rx,0,8,20,00,00,00,60,00,2F,7B,
126786797,00000110,false,Rx,0,8,34,00,00,00,80,00,65,AF,
126787919,00000130,false,Rx,0,8,D9,FF,FF,FF,70,00,22,E2,
126787921,00000100,false,Rx,0,8,5A,00,00,00,70,00,29,21,
126788953,00000120,false,Rx,0,8,20,00,00,00,70,00,22,BB,
126788954,00000110,false,Rx,0,8,34,00,00,00,90,00,68,6F,
126789921,00000130,false,Rx,0,8,37,00,00,00,80,00,65,9C,
126789922,00000100,false,Rx,0,8,71,00,00,00,80,00,6B,3A,
126790918,00000120,false,Rx,0,8,3D,00,00,00,80,00,65,36,
126790920,00000110,false,Rx,0,8,34,00,00,00,A0,00,7C,6F,
126792076,00000130,false,Rx,0,8,18,00,00,00,90,00,6F,C3,
126792077,00000100,false,Rx,0,8,5A,00,00,00,90,00,60,E1,
126793075,00000120,false,Rx,0,8,3D,00,00,00,90,00,68,F6,
126793076,00000110,false,Rx,0,8,34,00,00,00,B0,00,71,AF,
126794068,00000130,false,Rx,0,8,D9,FF,FF,FF,A0,00,7F,22,
126794069,00000100,false,Rx,0,8,71,00,00,00,A0,00,72,FA,
126795046,00000120,false,Rx,0,8,3D,00,00,00,A0,00,7C,F6,
126795047,00000110,false,Rx,0,8,34,00,00,00,C0,00,54,6F,
126796176,00000130,false,Rx,0,8,F8,FF,FF,FF,B0,00,74,53,
126796178,00000100,false,Rx,0,8,5A,00,00,00,B0,00,79,21,
126796178,00000140,false,Rx,0,8,01,00,FF,FF,60,00,29,EE,
126796179,00000150,false,Rx,0,4,FD,F4,40,A7,00,00,00,00,
126797174,00000120,false,Rx,0,8,3D,00,00,00,B0,00,71,36,
126797175,00000110,false,Rx,0,8,1D,00,00,00,D0,00,5E,56,
126798200,00000130,false,Rx,0,8,F8,FF,FF,FF,C0,00,51,93,
126798202,00000100,false,Rx,0,8,5A,00,00,00,C0,00,5C,E1,
126799179,00000120,false,Rx,0,8,3D,00,00,00,C0,00,54,F6,
126799180,00000110,false,Rx,0,8,1D,00,00,00,E0,00,4A,56,
126800191,00000130,false,Rx,0,8,F8,FF,FF,FF,D0,00,5C,53,
126800192,00000100,false,Rx,0,8,5A,00,00,00,D0,00,51,21,
126800193,00000120,false,Rx,0,8,3D,00,00,00,D0,00,59,36,
126801424,00000110,false,Rx,0,8,62,00,00,00,F0,00,4C,59,
126801425,00000050,false,Rx,0,6,40,54,FF,FF,DF,FF,00,00,
126801425,00000130,false,Rx,0,8,B8,34,03,00,E3,80,E2,73,
126802420,00000100,false,Rx,0,8,71,00,00,00,E0,00,43,3A,
126802421,00000120,false,Rx,0,8,3D,00,00,00,E0,00,4D,36,
126803575,00000110,false,Rx,0,8,62,00,00,00,00,00,08,59,
126803577,00000130,false,Rx,0,8,D9,FF,FF,FF,F0,00,43,22,
126804549,00000100,false,Rx,0,8,71,00,00,00,F0,00,4E,FA,
126804551,00000120,false,Rx,0,8,3D,00,00,00,F0,00,40,F6,
126805699,00000110,false,Rx,0,8,1D,00,00,00,10,00,0E,56,
126805700,00000130,false,Rx,0,8,F8,FF,FF,FF,00,00,01,93,
126806701,00000100,false,Rx,0,8,71,00,00,00,00,00,0A,FA,
126806702,00000120,false,Rx,0,8,3D,00,00,00,00,00,04,F6,
126807677,00000110,false,Rx,0,8,1D,00,00,00,20,00,1A,56,
126807678,00000130,false,Rx,0,8,18,00,00,00,10,00,0E,03,
126808679,00000100,false,Rx,0,8,71,00,00,00,10,00,07,3A,
126808680,00000120,false,Rx,0,8,3D,00,00,00,10,00,09,36,
126809821,00000110,false,Rx,0,8,1D,00,00,00,30,00,17,96,
126809822,00000130,false,Rx,0,8,D9,FF,FF,FF,20,00,1E,E2,
126810826,00000100,false,Rx,0,8,5A,00,00,00,20,00,15,21,
126810828,00000120,false,Rx,0,8,3D,00,00,00,20,00,1D,36,
126811828,00000110,false,Rx,0,8,1D,00,00,00,40,00,32,56,
126811830,00000130,false,Rx,0,8,18,00,00,00,30,00,17,C3,
126812801,00000100,false,Rx,0,8,71,00,00,00,30,00,1E,FA,
126812803,00000120,false,Rx,0,8,3D,00,00,00,30,00,10,F6,
126813792,00000110,false,Rx,0,8,1D,00,00,00,50,00,3F,96,
126813793,00000130,false,Rx,0,8,F8,FF,FF,FF,40,00,30,53,
126814918,00000100,false,Rx,0,8,71,00,00,00,40,00,3B,3A,
126814919,00000120,false,Rx,0,8,3D,00,00,00,40,00,35,36,
126815922,00000110,false,Rx,0,8,1D,00,00,00,60,00,2B,96,
126815923,00000150,false,Rx,0,4,FD,F4,40,A7,00,00,00,00,
126815923,00000130,false,Rx,0,8,F8,FF,FF,FF,50,00,3D,93,
126816922,00000100,false,Rx,0,8,71,00,00,00,50,00,36,FA,
126816923,00000140,false,Rx,0,8,01,00,FF,FF,70,00,24,2E,
126816923,00000120,false,Rx,0,8,3D,00,00,00,50,00,38,F6,
126817922,00000110,false,Rx,0,8,1D,00,00,00,70,00,26,56,
126817923,00000130,false,Rx,0,8,37,00,00,00,60,00,2C,5C,
126819046,00000100,false,Rx,0,8,71,00,00,00,60,00,22,FA,
126819047,00000120,false,Rx,0,8,3D,00,00,00,60,00,2C,F6,
126820055,00000110,false,Rx,0,8,1D,00,00,00,80,00,62,56,
126820056,00000130,false,Rx,0,8,D9,FF,FF,FF,70,00,22,E2,
126821075,00000100,false,Rx,0,8,71,00,00,00,70,00,2F,3A,
126821076,00000120,false,Rx,0,8,3D,00,00,00,70,00,21,36,
126821076,00000110,false,Rx,0,8,1D,00,00,00,90,00,6F,96,
126822171,00000050,false,Rx,0,6,40,54,FF,FF,DF,FF,00,00,
126822172,00000130,false,Rx,0,8,EB,95,FF,FF,83,80,7B,A9,
126822173,00000100,false,Rx,0,8,71,00,00,00,80,00,6B,3A,
126823826,00000120,false,Rx,0,8,20,00,00,00,80,00,66,BB,
126823827,00000110,false,Rx,0,8,1D,00,00,00,A0,00,7B,96,
126824921,00000130,false,Rx,0,8,95,00,00,00,90,00,71,1E,
126824923,00000100,false,Rx,0,8,71,00,00,00,90,00,66,FA,
126825921,00000120,false,Rx,0,8,20,00,00,00,90,00,6B,7B,
126825922,00000110,false,Rx,0,8,34,00,00,00,B0,00,71,AF,
126826919,00000130,false,Rx,0,8,D9,FF,FF,FF,A0,00,7F,22,
126826920,00000100,false,Rx,0,8,5A,00,00,00,A0,00,74,E1,
126828074,00000120,false,Rx,0,8,3D,00,00,00,A0,00,7C,F6,
126828075,00000110,false,Rx,0,8,34,00,00,00,C0,00,54,6F,
126829075,00000130,false,Rx,0,8,F8,FF,FF,FF,B0,00,74,53,
126829076,00000100,false,Rx,0,8,5A,00,00,00,B0,00,79,21,
126830053,00000120,false,Rx,0,8,3D,00,00,00,B0,00,71,36,
126830054,00000110,false,Rx,0,8,1D,00,00,00,D0,00,5E,56,
126831045,00000130,false,Rx,0,8,F8,FF,FF,FF,C0,00,51,93,
126831047,00000100,false,Rx,0,8,5A,00,00,00,C0,00,5C,E1,
126832170,00000120,false,Rx,0,8,3D,00,00,00,C0,00,54,F6,
126832171,00000110,false,Rx,0,8,1D,00,00,00,E0,00,4A,56,
126833174,00000130,false,Rx,0,8,F8,FF,FF,FF,D0,00,5C,53,
126833176,00000100,false,Rx,0,8,71,00,00,00,D0,00,57,3A,
126834179,00000120,false,Rx,0,8,3D,00,00,00,D0,00,59,36,
126834180,00000110,false,Rx,0,8,1D,00,00,00,F0,00,47,96,
126835181,00000130,false,Rx,0,8,D9,FF,FF,FF,E0,00,4E,E2,
126835182,00000100,false,Rx,0,8,71,00,00,00,E0,00,43,3A,
126836166,00000120,false,Rx,0,8,20,00,00,00,E0,00,4E,BB,
126836168,00000110,false,Rx,0,8,1D,00,00,00,00,00,03,96,
126836168,00000150,false,Rx,0,4,FD,F4,40,A7,00,00,00,00,
126837326,00000130,false,Rx,0,8,18,00,00,00,F0,00,47,C3,
126837327,00000100,false,Rx,0,8,71,00,00,00,F0,00,4E,FA,
126837328,00000140,false,Rx,0,8,01,00,FF,FF,80,00,60,2E,
126838325,00000120,false,Rx,0,8,20,00,00,00,F0,00,43,7B,
126838327,00000110,false,Rx,0,8,1D,00,00,00,10,00,0E,56,
126839298,00000130,false,Rx,0,8,D9,FF,FF,FF,00,00,07,22,
126839299,00000100,false,Rx,0,8,71,00,00,00,00,00,0A,FA,
126840292,00000120,false,Rx,0,8,20,00,00,00,00,00,07,7B,
126840293,00000110,false,Rx,0,8,1D,00,00,00,20,00,1A,56,
126841451,00000130,false,Rx,0,8,F8,FF,FF,FF,10,00,0C,53,
126841452,00000100,false,Rx,0,8,71,00,00,00,10,00,07,3A,
126841453,00000120,false,Rx,0,8,20,00,00,00,10,00,0A,BB,
126842544,00000110,false,Rx,0,8,1D,00,00,00,30,00,17,96,
126842546,00000050,false,Rx,0,6,40,54,FF,FF,DF,FF,00,00,
126842546,00000130,false,Rx,0,8,4C,BA,F5,FF,23,80,CC,A0,
126843699,00000100,false,Rx,0,8,71,00,00,00,20,00,13,3A,
126843700,00000120,false,Rx,0,8,3D,00,00,00,20,00,1D,36,
126844683,00000110,false,Rx,0,8,1D,00,00,00,40,00,32,56,
126844684,00000210,false,Rx,0,8,75,69,00,05,06,5F,01,03,
126844685,00000130,false,Rx,0,8,56,00,00,00,30,00,18,2D,
126845670,00000100,false,Rx,0,8,71,00,00,00,30,00,1E,FA,
126845671,00000120,false,Rx,0,8,3D,00,00,00,30,00,10,F6,
126846831,00000110,false,Rx,0,8,1D,00,00,00,50,00,3F,96,
126846832,00000130,false,Rx,0,8,F8,FF,FF,FF,40,00,30,53,
126847798,00000100,false,Rx,0,8,71,00,00,00,40,00,3B,3A,
126847799,00000120,false,Rx,0,8,20,00,00,00,40,00,36,BB,
126848803,00000110,false,Rx,0,8,1D,00,00,00,60,00,2B,96,
126848804,00000130,false,Rx,0,8,F8,FF,FF,FF,50,00,3D,93,
126849793,00000100,false,Rx,0,8,71,00,00,00,50,00,36,FA,
126849795,00000120,false,Rx,0,8,20,00,00,00,50,00,3B,7B,
126850918,00000110,false,Rx,0,8,1D,00,00,00,70,00,26,56,
126850919,00000130,false,Rx,0,8,F8,FF,FF,FF,60,00,29,93,
126851908,00000100,false,Rx,0,8,71,00,00,00,60,00,22,FA,
126851909,00000120,false,Rx,0,8,20,00,00,00,60,00,2F,7B,
126852921,00000110,false,Rx,0,8,1D,00,00,00,80,00,62,56,
126852922,00000130,false,Rx,0,8,F8,FF,FF,FF,70,00,24,53,
126853920,00000100,false,Rx,0,8,71,00,00,00,70,00,2F,3A,
126853921,00000120,false,Rx,0,8,20,00,00,00,70,00,22,BB,
126854921,00000110,false,Rx,0,8,34,00,00,00,90,00,68,6F,
126854922,00000130,false,Rx,0,8,18,00,00,00,80,00,62,03,
126856044,00000100,false,Rx,0,8,71,00,00,00,80,00,6B,3A,
126856046,00000150,false,Rx,0,4,FD,F4,40,A7,00,00,00,00,
126856046,00000120,false,Rx,0,8,3D,00,00,00,80,00,65,36,
126857049,00000110,false,Rx,0,8,34,00,00,00,A0,00,7C,6F,
126857051,00000130,false,Rx,0,8,F8,FF,FF,FF,90,00,6D,93,
126858064,00000100,false,Rx,0,8,71,00,00,00,90,00,66,FA,
126858066,00000140,false,Rx,0,8,01,00,FF,FF,90,00,6D,EE,
126858066,00000120,false,Rx,0,8,3D,00,00,00,90,00,68,F6,
126859048,00000110,false,Rx,0,8,1D,00,00,00,B0,00,76,56,
126859049,00000130,false,Rx,0,8,F8,FF,FF,FF,A0,00,79,93,
126860199,00000100,false,Rx,0,8,71,00,00,00,A0,00,72,FA,
126860200,00000120,false,Rx,0,8,3D,00,00,00,A0,00,7C,F6,
126861200,00000110,false,Rx,0,8,1D,00,00,00,C0,00,53,96,
126861202,00000130,false,Rx,0,8,18,00,00,00,B0,00,76,03,
126862176,00000100,false,Rx,0,8,71,00,00,00,B0,00,7F,3A,
126862177,00000120,false,Rx,0,8,3D,00,00,00,B0,00,71,36,
126862178,00000110,false,Rx,0,8,4B,00,00,00,D0,00,52,60,
126863452,00000050,false,Rx,0,6,40,54,FF,FF,DF,FF,00,00,
126863453,00000130,false,Rx,0,8,6C,21,00,00,C3,80,E4,20,
126863453,00000100,false,Rx,0,8,71,00,00,00,C0,00,5A,FA,
126865075,00000120,false,Rx,0,8,3D,00,00,00,C0,00,54,F6,
126865076,00000110,false,Rx,0,8,4B,00,00,00,E0,00,46,60,
126866048,00000130,false,Rx,0,8,F8,FF,FF,FF,D0,00,5C,53,
126866049,00000100,false,Rx,0,8,71,00,00,00,D0,00,57,3A,
126867045,00000120,false,Rx,0,8,3D,00,00,00,D0,00,59,36,
126867047,00000110,false,Rx,0,8,1D,00,00,00,F0,00,47,96,
126868170,00000130,false,Rx,0,8,F8,FF,FF,FF,E0,00,48,53,
126868171,00000100,false,Rx,0,8,71,00,00,00,E0,00,43,3A,
126869175,00000120,false,Rx,0,8,20,00,00,00,E0,00,4E,BB,
126869176,00000110,false,Rx,0,8,1D,00,00,00,00,00,03,96,
126870193,00000130,false,Rx,0,8,D9,FF,FF,FF,F0,00,43,22,
126870194,00000100,false,Rx,0,8,71,00,00,00,F0,00,4E,FA,
126871190,00000120,false,Rx,0,8,20,00,00,00,F0,00,43,7B,
126871191,00000110,false,Rx,0,8,34,00,00,00,10,00,09,AF,
126872165,00000130,false,Rx,0,8,D9,FF,FF,FF,00,00,07,22,
126872166,00000100,false,Rx,0,8,88,00,00,00,00,00,1E,93,
126873322,00000120,false,Rx,0,8,3D,00,00,00,00,00,04,F6,
126873324,00000110,false,Rx,0,8,34,00,00,00,20,00,1D,AF,
126874299,00000130,false,Rx,0,8,D9,FF,FF,FF,10,00,0A,E2,
126874301,00000100,false,Rx,0,8,71,00,00,00,10,00,07,3A,
126875298,00000120,false,Rx,0,8,3D,00,00,00,10,00,09,36,
126875300,00000110,false,Rx,0,8,1D,00,00,00,30,00,17,96,
126875300,00000150,false,Rx,0,4,FD,F4,40,A7,00,00,00,00,
126876394,00000130,false,Rx,0,8,F8,FF,FF,FF,20,00,18,53,
126876395,00000100,false,Rx,0,8,71,00,00,00,20,00,13,3A,
126876396,00000120,false,Rx,0,8,20,00,00,00,20,00,1E,BB,
126877647,00000110,false,Rx,0,8,1D,00,00,00,40,00,32,56,
126877648,00000130,false,Rx,0,8,D9,FF,FF,FF,30,00,13,22,
126878643,00000100,false,Rx,0,8,71,00,00,00,30,00,1E,FA,
126878644,00000140,false,Rx,0,8,01,00,FF,FF,A0,00,79,EE,
126878644,00000120,false,Rx,0,8,20,00,00,00,30,00,13,7B,
126879639,00000110,false,Rx,0,8,1D,00,00,00,50,00,3F,96,
126879640,00000130,false,Rx,0,8,18,00,00,00,40,00,32,03,
126880639,00000100,false,Rx,0,8,5A,00,00,00,40,00,3D,21,
126880639,00000120,false,Rx,0,8,3D,00,00,00,40,00,35,36,
126881763,00000110,false,Rx,0,8,1D,00,00,00,60,00,2B,96,
126881764,00000130,false,Rx,0,8,D9,FF,FF,FF,50,00,3B,22,
126882764,00000100,false,Rx,0,8,5A,00,00,00,50,00,30,E1,
126882764,00000120,false,Rx,0,8,3D,00,00,00,50,00,38,F6,
126882765,00000110,false,Rx,0,8,4B,00,00,00,70,00,2A,60,
126883891,00000050,false,Rx,0,6,40,54,FF,FF,DF,FF,00,00,
126883892,00000130,false,Rx,0,8,D8,34,03,00,63,80,8A,13,
126883892,00000100,false,Rx,0,8,5A,00,00,00,60,00,24,E1,
126885517,00000120,false,Rx,0,8,3D,00,00,00,60,00,2C,F6,
126885518,00000110,false,Rx,0,8,4B,00,00,00,80,00,6E,60,
126886641,00000130,false,Rx,0,8,D9,FF,FF,FF,70,00,22,E2,
126886642,00000100,false,Rx,0,8,5A,00,00,00,70,00,29,21,
126887641,00000120,false,Rx,0,8,3D,00,00,00,70,00,21,36,
126887642,00000110,false,Rx,0,8,34,00,00,00,90,00,68,6F,
126887642,00000170,false,Rx,0,8,00,00,00,01,00,00,00,68,
126888641,00000130,false,Rx,0,8,18,00,00,00,80,00,62,03,
126888642,00000100,false,Rx,0,8,5A,00,00,00,80,00,6D,21,
126889642,00000120,false,Rx,0,8,3D,00,00,00,80,00,65,36,
126889642,00000110,false,Rx,0,8,34,00,00,00,A0,00,7C,6F,
126890766,00000130,false,Rx,0,8,D9,FF,FF,FF,90,00,6B,22,
126890767,00000100,false,Rx,0,8,71,00,00,00,90,00,66,FA,
126891766,00000120,false,Rx,0,8,3D,00,00,00,90,00,68,F6,
126891767,00000110,false,Rx,0,8,1D,00,00,00,B0,00,76,56,
126892765,00000130,false,Rx,0,8,37,00,00,00,A0,00,7C,5C,
126892766,00000100,false,Rx,0,8,71,00,00,00,A0,00,72,FA,
126893765,00000120,false,Rx,0,8,3D,00,00,00,A0,00,7C,F6,
126893766,00000110,false,Rx,0,8,1D,00,00,00,C0,00,53,96,
126894890,00000130,false,Rx,0,8,18,00,00,00,B0,00,76,03,
126894891,00000100,false,Rx,0,8,71,00,00,00,B0,00,7F,3A,
126895892,00000120,false,Rx,0,8,3D,00,00,00,B0,00,71,36,
126895893,00000110,false,Rx,0,8,1D,00,00,00,D0,00,5E,56,
126895893,00000150,false,Rx,0,4,FD,F4,40,A7,00,00,00,00,
126896889,00000130,false,Rx,0,8,F8,FF,FF,FF,C0,00,51,93,
126896890,00000100,false,Rx,0,8,88,00,00,00,C0,00,4E,93,
126897890,00000120,false,Rx,0,8,20,00,00,00,C0,00,57,7B,
126897890,00000110,false,Rx,0,8,1D,00,00,00,E0,00,4A,56,
126898890,00000130,false,Rx,0,8,F8,FF,FF,FF,D0,00,5C,53,
126898891,00000100,false,Rx,0,8,71,00,00,00,D0,00,57,3A,
126898891,00000140,false,Rx,0,8,01,00,FF,FF,B0,00,74,2E,
126900016,00000120,false,Rx,0,8,20,00,00,00,D0,00,5A,BB,
126900016,00000110,false,Rx,0,8,1D,00,00,00,F0,00,47,96,
126901015,00000130,false,Rx,0,8,18,00,00,00,E0,00,4A,03,
126901016,00000100,false,Rx,0,8,71,00,00,00,E0,00,43,3A,
126902015,00000120,false,Rx,0,8,3D,00,00,00,E0,00,4D,36,
126902016,00000110,false,Rx,0,8,1D,00,00,00,00,00,03,96,
126903015,00000130,false,Rx,0,8,F8,FF,FF,FF,F0,00,45,93,
126903016,00000100,false,Rx,0,8,71,00,00,00,F0,00,4E,FA,
126903016,00000120,false,Rx,0,8,3D,00,00,00,F0,00,40,F6,
126904265,00000110,false,Rx,0,8,1D,00,00,00,10,00,0E,56,
126904266,00000050,false,Rx,0,6,40,54,FF,FF,DF,FF,00,00,
126904266,00000130,false,Rx,0,8,EB,95,FF,FF,03,80,1A,69,
126905390,00000100,false,Rx,0,8,71,00,00,00,00,00,0A,FA,
126905391,00000120,false,Rx,0,8,3D,00,00,00,00,00,04,F6,
126906391,00000110,false,Rx,0,8,1D,00,00,00,20,00,1A,56,
126906391,00000130,false,Rx,0,8,95,00,00,00,10,00,10,DE,
126907391,00000100,false,Rx,0,8,71,00,00,00,10,00,07,3A,
126907392,00000120,false,Rx,0,8,3D,00,00,00,10,00,09,36,
126908515,00000110,false,Rx,0,8,1D,00,00,00,30,00,17,96,
126908516,00000130,false,Rx,0,8,F8,FF,FF,FF,20,00,18,53,
126909515,00000100,false,Rx,0,8,71,00,00,00,20,00,13,3A,
126909516,00000120,false,Rx,0,8,3D,00,00,00,20,00,1D,36,
126910515,00000110,false,Rx,0,8,1D,00,00,00,40,00,32,56,
126910516,00000130,false,Rx,0,8,F8,FF,FF,FF,30,00,15,93,
126911515,00000100,false,Rx,0,8,71,00,00,00,30,00,1E,FA,
126911516,00000120,false,Rx,0,8,3D,00,00,00,30,00,10,F6,
126912515,00000110,false,Rx,0,8,1D,00,00,00,50,00,3F,96,
126912515,00000130,false,Rx,0,8,18,00,00,00,40,00,32,03,
126913640,00000100,false,Rx,0,8,71,00,00,00,40,00,3B,3A,
126913641,00000120,false,Rx,0,8,3D,00,00,00,40,00,35,36,
126914640,00000110,false,Rx,0,8,1D,00,00,00,60,00,2B,96,
126914641,00000130,false,Rx,0,8,D9,FF,FF,FF,50,00,3B,22,
126915640,00000100,false,Rx,0,8,71,00,00,00,50,00,36,FA,
126915641,00000150,false,Rx,0,4,FD,F4,40,A7,00,00,00,00,
126915641,00000120,false,Rx,0,8,3D,00,00,00,50,00,38,F6,
126916640,00000110,false,Rx,0,8,1D,00,00,00,70,00,26,56,
126916640,00000130,false,Rx,0,8,18,00,00,00,60,00,2B,C3,
126917640,00000100,false,Rx,0,8,71,00,00,00,60,00,22,FA,
126917641,00000120,false,Rx,0,8,3D,00,00,00,60,00,2C,F6,
126918765,00000110,false,Rx,0,8,1D,00,00,00,80,00,62,56,
126918766,00000130,false,Rx,0,8,18,00,00,00,70,00,26,03,
126919765,00000100,false,Rx,0,8,5A,00,00,00,70,00,29,21,
126919766,00000140,false,Rx,0,8,01,00,FF,FF,C0,00,51,EE,
126919767,00000120,false,Rx,0,8,3D,00,00,00,70,00,21,36,
126920765,00000110,false,Rx,0,8,1D,00,00,00,90,00,6F,96,
126920766,00000130,false,Rx,0,8,18,00,00,00,80,00,62,03,
126921900,00000100,false,Rx,0,8,71,00,00,00,80,00,6B,3A,
126921901,00000120,false,Rx,0,8,3D,00,00,00,80,00,65,36,
126922887,00000110,false,Rx,0,8,1D,00,00,00,A0,00,7B,96,
126922888,00000130,false,Rx,0,8,F8,FF,FF,FF,90,00,6D,93,
126923889,00000100,false,Rx,0,8,71,00,00,00,90,00,66,FA,
126923890,00000120,false,Rx,0,8,3D,00,00,00,90,00,68,F6,
126923891,00000110,false,Rx,0,8,1D,00,00,00,B0,00,76,56,
126925139,00000050,false,Rx,0,6,40,54,FF,FF,DF,FF,00,00,
126925140,00000130,false,Rx,0,8,ED,B9,F5,FF,A3,80,F0,11,
126925141,00000100,false,Rx,0,8,71,00,00,00,A0,00,72,FA,
126926639,00000120,false,Rx,0,8,3D,00,00,00,A0,00,7C,F6,
126926639,00000110,false,Rx,0,8,1D,00,00,00,C0,00,53,96,
126927764,00000130,false,Rx,0,8,76,00,00,00,B0,00,7E,8D,
126927764,00000100,false,Rx,0,8,71,00,00,00,B0,00,7F,3A,
126928769,00000120,false,Rx,0,8,3D,00,00,00,B0,00,71,36,
126928770,00000110,false,Rx,0,8,1D,00,00,00,D0,00,5E,56,
126929766,00000130,false,Rx,0,8,D9,FF,FF,FF,C0,00,57,22,
126929767,00000100,false,Rx,0,8,71,00,00,00,C0,00,5A,FA,
126930890,00000120,false,Rx,0,8,59,00,00,00,C0,00,5C,D2,
126930891,00000110,false,Rx,0,8,1D,00,00,00,E0,00,4A,56,
126931893,00000130,false,Rx,0,8,F8,FF,FF,FF,D0,00,5C,53,
126931893,00000100,false,Rx,0,8,71,00,00,00,D0,00,57,3A,
126932888,00000120,false,Rx,0,8,59,00,00,00,D0,00,51,12,
126932889,00000110,false,Rx,0,8,1D,00,00,00,F0,00,47,96,
126933888,00000130,false,Rx,0,8,18,00,00,00,E0,00,4A,03,
126933888,00000100,false,Rx,0,8,71,00,00,00,E0,00,43,3A,
126934888,00000120,false,Rx,0,8,3D,00,00,00,E0,00,4D,36,
126934889,00000110,false,Rx,0,8,1D,00,00,00,00,00,03,96,
126936013,00000130,false,Rx,0,8,18,00,00,00,F0,00,47,C3,
126936014,00000100,false,Rx,0,8,71,00,00,00,F0,00,4E,FA,
126936015,00000150,false,Rx,0,4,FD,F4,40,A7,00,00,00,00,
126937014,00000120,false,Rx,0,8,3D,00,00,00,F0,00,40,F6,
126937015,00000110,false,Rx,0,8,1D,00,00,00,10,00,0E,56,
126938013,00000130,false,Rx,0,8,D9,FF,FF,FF,00,00,07,22,
126938014,00000100,false,Rx,0,8,5A,00,00,00,00,00,0C,E1,
126939014,00000120,false,Rx,0,8,20,00,00,00,00,00,07,7B,
126939014,00000110,false,Rx,0,8,1D,00,00,00,20,00,1A,56,
126940138,00000130,false,Rx,0,8,B9,FF,FF,FF,10,00,03,42,
126940139,00000100,false,Rx,0,8,71,00,00,00,10,00,07,3A,
126940139,00000140,false,Rx,0,8,01,00,FF,FF,D0,00,5C,2E,
126941138,00000120,false,Rx,0,8,20,00,00,00,10,00,0A,BB,
126941139,00000110,false,Rx,0,8,1D,00,00,00,30,00,17,96,
126942138,00000130,false,Rx,0,8,F8,FF,FF,FF,20,00,18,53,
126942139,00000100,false,Rx,0,8,5A,00,00,00,20,00,15,21,
126943138,00000120,false,Rx,0,8,20,00,00,00,20,00,1E,BB,
126943138,00000110,false,Rx,0,8,1D,00,00,00,40,00,32,56,
126944263,00000130,false,Rx,0,8,37,00,00,00,30,00,10,5C,
126944263,00000100,false,Rx,0,8,71,00,00,00,30,00,1E,FA,
126944264,00000120,false,Rx,0,8,20,00,00,00,30,00,13,7B,
126945388,00000110,false,Rx,0,8,4B,00,00,00,50,00,33,A0,
126945389,00000050,false,Rx,0,6,40,54,FF,FF,DF,FF,00,00,
126945389,00000130,false,Rx,0,8,4D,21,00,00,43,80,83,51,
126946513,00000100,false,Rx,0,8,5A,00,00,00,40,00,3D,21,
126946514,00000120,false,Rx,0,8,3D,00,00,00,40,00,35,36,
126947513,00000110,false,Rx,0,8,4B,00,00,00,60,00,27,A0,
126947513,00000130,false,Rx,0,8,18,00,00,00,50,00,3F,C3,
126948513,00000100,false,Rx,0,8,5A,00,00,00,50,00,30,E1,
126948513,00000120,false,Rx,0,8,3D,00,00,00,50,00,38,F6,
126949637,00000110,false,Rx,0,8,1D,00,00,00,70,00,26,56,
126949638,00000130,false,Rx,0,8,F8,FF,FF,FF,60,00,29,93,
126950638,00000100,false,Rx,0,8,71,00,00,00,60,00,22,FA,
126950638,00000120,false,Rx,0,8,59,00,00,00,60,00,24,D2,
126951638,00000110,false,Rx,0,8,1D,00,00,00,80,00,62,56,
126951639,00000130,false,Rx,0,8,F8,FF,FF,FF,70,00,24,53,
126952638,00000100,false,Rx,0,8,71,00,00,00,70,00,2F,3A,
126952638,00000120,false,Rx,0,8,59,00,00,00,70,00,29,12,
126953763,00000110,false,Rx,0,8,1D,00,00,00,90,00,6F,96,
126953764,00000130,false,Rx,0,8,F8,FF,FF,FF,80,00,60,53,
126954762,00000100,false,Rx,0,8,71,00,00,00,80,00,6B,3A,
126954763,00000120,false,Rx,0,8,59,00,00,00,80,00,6D,12,
126955762,00000110,false,Rx,0,8,1D,00,00,00,A0,00,7B,96,
126955763,00000150,false,Rx,0,4,FD,F4,40,A7,00,00,00,00,
126955763,00000130,false,Rx,0,8,D9,FF,FF,FF,90,00,6B,22,
126956762,00000100,false,Rx,0,8,71,00,00,00,90,00,66,FA,
126956763,00000120,false,Rx,0,8,59,00,00,00,90,00,60,D2,
126957762,00000110,false,Rx,0,8,1D,00,00,00,B0,00,76,56,
126957763,00000130,false,Rx,0,8,F8,FF,FF,FF,A0,00,79,93,
126958886,00000100,false,Rx,0,8,71,00,00,00,A0,00,72,FA,
126958887,00000120,false,Rx,0,8,20,00,00,00,A0,00,7F,7B,
126959886,00000110,false,Rx,0,8,1D,00,00,00,C0,00,53,96,
126959886,00000130,false,Rx,0,8,F8,FF,FF,FF,B0,00,74,53,
126960886,00000100,false,Rx,0,8,5A,00,00,00,B0,00,79,21,
126960886,00000140,false,Rx,0,8,01,00,FF,FF,E0,00,48,2E,
126960887,00000120,false,Rx,0,8,20,00,00,00,B0,00,72,BB,
126962012,00000110,false,Rx,0,8,06,00,00,00,D0,00,5D,BD,
126962013,00000130,false,Rx,0,8,F8,FF,FF,FF,C0,00,51,93,
126963012,00000100,false,Rx,0,8,71,00,00,00,C0,00,5A,FA,
126963013,00000120,false,Rx,0,8,3D,00,00,00,C0,00,54,F6,
126964011,00000110,false,Rx,0,8,06,00,00,00,E0,00,49,BD,
126964012,00000130,false,Rx,0,8,18,00,00,00,D0,00,5E,03,
126965010,00000100,false,Rx,0,8,5A,00,00,00,D0,00,51,21,
126965011,00000120,false,Rx,0,8,3D,00,00,00,D0,00,59,36,
126965011,00000110,false,Rx,0,8,4B,00,00,00,F0,00,4B,A0,
126966289,00000050,false,Rx,0,6,40,54,FF,FF,DF,FF,00,00,
126966290,00000130,false,Rx,0,8,B8,34,03,00,E3,80,E2,73,
126966290,00000100,false,Rx,0,8,71,00,00,00,E0,00,43,3A,
126967789,00000120,false,Rx,0,8,3D,00,00,00,E0,00,4D,36,
126967790,00000110,false,Rx,0,8,4B,00,00,00,00,00,0F,A0,
126968907,00000130,false,Rx,0,8,F8,FF,FF,FF,F0,00,45,93,
126968908,00000100,false,Rx,0,8,5A,00,00,00,F0,00,48,E1,
126969923,00000120,false,Rx,0,8,3D,00,00,00,F0,00,40,F6,
126969924,00000110,false,Rx,0,8,1D,00,00,00,10,00,0E,56,
126971046,00000130,false,Rx,0,8,F8,FF,FF,FF,00,00,01,93,
126971048,00000100,false,Rx,0,8,71,00,00,00,00,00,0A,FA,
126972042,00000120,false,Rx,0,8,20,00,00,00,00,00,07,7B,
126972044,00000110,false,Rx,0,8,1D,00,00,00,20,00,1A,56,
126973068,00000130,false,Rx,0,8,D9,FF,FF,FF,10,00,0A,E2,
126973070,00000100,false,Rx,0,8,5A,00,00,00,10,00,01,21,
126974014,00000120,false,Rx,0,8,20,00,00,00,10,00,0A,BB,
126974015,00000110,false,Rx,0,8,1D,00,00,00,30,00,17,96,
126975136,00000130,false,Rx,0,8,B9,FF,FF,FF,20,00,17,42,
126975137,00000100,false,Rx,0,8,71,00,00,00,20,00,13,3A,
126976140,00000120,false,Rx,0,8,3D,00,00,00,20,00,1D,36,
126976141,00000110,false,Rx,0,8,1D,00,00,00,40,00,32,56,
126976141,00000150,false,Rx,0,4,FD,F4,40,A7,00,00,00,00,
126977134,00000130,false,Rx,0,8,D9,FF,FF,FF,30,00,13,22,
126977134,00000100,false,Rx,0,8,71,00,00,00,30,00,1E,FA,
126978133,00000120,false,Rx,0,8,3D,00,00,00,30,00,10,F6,
126978133,00000110,false,Rx,0,8,1D,00,00,00,50,00,3F,96,
126979133,00000130,false,Rx,0,8,B9,FF,FF,FF,40,00,3F,42,
126979134,00000100,false,Rx,0,8,71,00,00,00,40,00,3B,3A,
126980259,00000120,false,Rx,0,8,59,00,00,00,40,00,3D,12,
126980259,00000110,false,Rx,0,8,1D,00,00,00,60,00,2B,96,
126981258,00000130,false,Rx,0,8,D9,FF,FF,FF,50,00,3B,22,
126981258,00000100,false,Rx,0,8,5A,00,00,00,50,00,30,E1,
126981259,00000140,false,Rx,0,8,01,00,FF,FF,F0,00,45,EE,
126982258,00000120,false,Rx,0,8,59,00,00,00,50,00,30,D2,
126982259,00000110,false,Rx,0,8,1D,00,00,00,70,00,26,56,
126983259,00000130,false,Rx,0,8,D9,FF,FF,FF,60,00,2F,22,
126983259,00000100,false,Rx,0,8,5A,00,00,00,60,00,24,E1,
126984383,00000120,false,Rx,0,8,3D,00,00,00,60,00,2C,F6,
126984384,00000110,false,Rx,0,8,1D,00,00,00,80,00,62,56,
126985384,00000130,false,Rx,0,8,F8,FF,FF,FF,70,00,24,53,
126985384,00000100,false,Rx,0,8,5A,00,00,00,70,00,29,21,
126985385,00000120,false,Rx,0,8,3D,00,00,00,70,00,21,36,
126986635,00000110,false,Rx,0,8,1D,00,00,00,90,00,6F,96,
126986635,00000050,false,Rx,0,6,40,54,FF,FF,DF,FF,00,00,
126986635,00000130,false,Rx,0,8,EB,95,FF,FF,83,80,7B,A9,
126987633,00000100,false,Rx,0,8,5A,00,00,00,80,00,6D,21,
126987633,00000120,false,Rx,0,8,3D,00,00,00,80,00,65,36,
126988634,00000110,false,Rx,0,8,1D,00,00,00,A0,00,7B,96,
126988635,00000130,false,Rx,0,8,76,00,00,00,90,00,67,4D,
126989813,00000100,false,Rx,0,8,71,00,00,00,90,00,66,FA,
126989815,00000120,false,Rx,0,8,3D,00,00,00,90,00,68,F6,
126990805,00000110,false,Rx,0,8,1D,00,00,00,B0,00,76,56,
126990806,00000170,false,Rx,0,8,00,00,00,52,50,41,05,D4,
126990807,00000130,false,Rx,0,8,D9,FF,FF,FF,A0,00,7F,22,
126991798,00000100,false,Rx,0,8,71,00,00,00,A0,00,72,FA,
126991799,00000120,false,Rx,0,8,3D,00,00,00,A0,00,7C,F6,
126992811,00000110,false,Rx,0,8,1D,00,00,00,C0,00,53,96,
126992812,00000130,false,Rx,0,8,18,00,00,00,B0,00,76,03,
126993917,00000100,false,Rx,0,8,71,00,00,00,B0,00,7F,3A,
126993918,00000120,false,Rx,0,8,3D,00,00,00,B0,00,71,36,
126994926,00000110,false,Rx,0,8,1D,00,00,00,D0,00,5E,56,
126994928,00000130,false,Rx,0,8,F8,FF,FF,FF,C0,00,51,93,
126995914,00000100,false,Rx,0,8,71,00,00,00,C0,00,5A,FA,
126995915,00000150,false,Rx,0,4,FD,F4,40,A7,00,00,00,00,
126995916,00000120,false,Rx,0,8,3D,00,00,00,C0,00,54,F6,
126996920,00000110,false,Rx,0,8,1D,00,00,00,E0,00,4A,56,
126996921,00000130,false,Rx,0,8,F8,FF,FF,FF,D0,00,5C,53,
126997921,00000100,false,Rx,0,8,71,00,00,00,D0,00,57,3A,
126997923,00000120,false,Rx,0,8,3D,00,00,00,D0,00,59,36,
126999070,00000110,false,Rx,0,8,1D,00,00,00,F0,00,47,96,
126999071,00000130,false,Rx,0,8,F8,FF,FF,FF,E0,00,48,53,
127000069,00000100,false,Rx,0,8,71,00,00,00,E0,00,43,3A,
127000070,00000120,false,Rx,0,8,3D,00,00,00,E0,00,4D,36,
127001049,00000110,false,Rx,0,8,1D,00,00,00,00,00,03,96,
127001050,00000130,false,Rx,0,8,F8,FF,FF,FF,F0,00,45,93,
127002040,00000100,false,Rx,0,8,71,00,00,00,F0,00,4E,FA,
127002041,00000140,false,Rx,0,8,01,00,FF,FF,00,00,01,EE,
127002042,00000120,false,Rx,0,8,3D,00,00,00,F0,00,40,F6,
127003195,00000110,false,Rx,0,8,34,00,00,00,10,00,09,AF,
127003197,00000130,false,Rx,0,8,F8,FF,FF,FF,00,00,01,93,
127004202,00000100,false,Rx,0,8,71,00,00,00,00,00,0A,FA,
127004203,00000120,false,Rx,0,8,20,00,00,00,00,00,07,7B,
127005167,00000110,false,Rx,0,8,34,00,00,00,20,00,1D,AF,
127005169,00000130,false,Rx,0,8,D9,FF,FF,FF,10,00,0A,E2,
127006163,00000100,false,Rx,0,8,71,00,00,00,10,00,07,3A,
127006165,00000120,false,Rx,0,8,20,00,00,00,10,00,0A,BB,
127006165,00000110,false,Rx,0,8,1D,00,00,00,30,00,17,96,
127007445,00000050,false,Rx,0,6,40,54,FF,FF,DF,FF,00,00,
127007447,00000130,false,Rx,0,8,2C,BA,F5,FF,23,80,C5,00,
127007447,00000100,false,Rx,0,8,5A,00,00,00,20,00,15,21,
127009071,00000120,false,Rx,0,8,3D,00,00,00,20,00,1D,36,
127009073,00000110,false,Rx,0,8,1D,00,00,00,40,00,32,56,
127009073,00000210,false,Rx,0,8,75,69,00,05,06,5F,01,03,
127010049,00000130,false,Rx,0,8,D5,00,00,00,30,00,07,DE,
127010051,00000100,false,Rx,0,8,71,00,00,00,30,00,1E,FA,
127011199,00000120,false,Rx,0,8,3D,00,00,00,30,00,10,F6,
127011201,00000110,false,Rx,0,8,34,00,00,00,50,00,38,6F,
127012200,00000130,false,Rx,0,8,D9,FF,FF,FF,40,00,36,E2,
127012201,00000100,false,Rx,0,8,71,00,00,00,40,00,3B,3A,
127013172,00000120,false,Rx,0,8,3D,00,00,00,40,00,35,36,
127013173,00000110,false,Rx,0,8,34,00,00,00,60,00,2C,6F,
127014174,00000130,false,Rx,0,8,D9,FF,FF,FF,50,00,3B,22,
127014175,00000100,false,Rx,0,8,71,00,00,00,50,00,36,FA,
127015323,00000120,false,Rx,0,8,3D,00,00,00,50,00,38,F6,
127015324,00000110,false,Rx,0,8,1D,00,00,00,70,00,26,56,
127016324,00000130,false,Rx,0,8,F8,FF,FF,FF,60,00,29,93,
127016326,00000100,false,Rx,0,8,71,00,00,00,60,00,22,FA,
127016326,00000150,false,Rx,0,4,FD,F4,40,A7,00,00,00,00,
127017318,00000120,false,Rx,0,8,3D,00,00,00,60,00,2C,F6,
127017319,00000110,false,Rx,0,8,1D,00,00,00,80,00,62,56,
127018296,00000130,false,Rx,0,8,D9,FF,FF,FF,70,00,22,E2,
127018298,00000100,false,Rx,0,8,71,00,00,00,70,00,2F,3A,
127019292,00000120,false,Rx,0,8,3D,00,00,00,70,00,21,36,
127019294,00000110,false,Rx,0,8,34,00,00,00,90,00,68,6F,
127020447,00000130,false,Rx,0,8,18,00,00,00,80,00,62,03,
127020448,00000100,false,Rx,0,8,71,00,00,00,80,00,6B,3A,
127021447,00000120,false,Rx,0,8,59,00,00,00,80,00,6D,12,
127021448,00000110,false,Rx,0,8,34,00,00,00,A0,00,7C,6F,
127022420,00000130,false,Rx,0,8,18,00,00,00,90,00,6F,C3,
127022422,00000100,false,Rx,0,8,71,00,00,00,90,00,66,FA,
127022422,00000140,false,Rx,0,8,01,00,FF,FF,10,00,0C,2E,
127023418,00000120,false,Rx,0,8,59,00,00,00,90,00,60,D2,
127023420,00000110,false,Rx,0,8,1D,00,00,00,B0,00,76,56,
127024423,00000130,false,Rx,0,8,F8,FF,FF,FF,A0,00,79,93,
127024424,00000100,false,Rx,0,8,5A,00,00,00,A0,00,74,E1,
127025549,00000120,false,Rx,0,8,3D,00,00,00,A0,00,7C,F6,
127025550,00000110,false,Rx,0,8,1D,00,00,00,C0,00,53,96,
127026548,00000130,false,Rx,0,8,F8,FF,FF,FF,B0,00,74,53,
127026550,00000100,false,Rx,0,8,5A,00,00,00,B0,00,79,21,
127026550,00000120,false,Rx,0,8,3D,00,00,00,B0,00,71,36,
127027800,00000110,false,Rx,0,8,4B,00,00,00,D0,00,52,60,
127027801,00000050,false,Rx,0,6,40,54,FF,FF,DF,FF,00,00,
127027802,00000130,false,Rx,0,8,4D,21,00,00,C3,80,E2,91,
127028800,00000100,false,Rx,0,8,71,00,00,00,C0,00,5A,FA,
127028801,00000120,false,Rx,0,8,3D,00,00,00,C0,00,54,F6,
127029789,00000110,false,Rx,0,8,4B,00,00,00,E0,00,46,60,
127029790,00000130,false,Rx,0,8,F8,FF,FF,FF,D0,00,5C,53,
127030917,00000100,false,Rx,0,8,71,00,00,00,D0,00,57,3A,
127030919,00000120,false,Rx,0,8,3D,00,00,00,D0,00,59,36,
127031926,00000110,false,Rx,0,8,1D,00,00,00,F0,00,47,96,
127031927,00000130,false,Rx,0,8,D9,FF,FF,FF,E0,00,4E,E2,
127032916,00000100,false,Rx,0,8,71,00,00,00,E0,00,43,3A,
127032917,00000120,false,Rx,0,8,3D,00,00,00,E0,00,4D,36,
127034074,00000110,false,Rx,0,8,1D,00,00,00,00,00,03,96,
127034075,00000130,false,Rx,0,8,18,00,00,00,F0,00,47,C3,
127035047,00000100,false,Rx,0,8,5A,00,00,00,F0,00,48,E1,
127035049,00000120,false,Rx,0,8,3D,00,00,00,F0,00,40,F6,
127036066,00000110,false,Rx,0,8,1D,00,00,00,10,00,0E,56,
127036068,00000150,false,Rx,0,4,FD,F4,40,A7,00,00,00,00,
127036068,00000130,false,Rx,0,8,D9,FF,FF,FF,00,00,07,22,
127037071,00000100,false,Rx,0,8,5A,00,00,00,00,00,0C,E1,
127037073,00000120,false,Rx,0,8,59,00,00,00,00,00,0C,D2,
127038043,00000110,false,Rx,0,8,1D,00,00,00,20,00,1A,56,
127038045,00000130,false,Rx,0,8,B9,FF,FF,FF,10,00,03,42,
127039193,00000100,false,Rx,0,8,5A,00,00,00,10,00,01,21,
127039194,00000120,false,Rx,0,8,59,00,00,00,10,00,01,12,
127040200,00000110,false,Rx,0,8,34,00,00,00,30,00,10,6F,
127040202,00000130,false,Rx,0,8,D9,FF,FF,FF,20,00,1E,E2,
127041170,00000100,false,Rx,0,8,5A,00,00,00,20,00,15,21,
127041171,00000120,false,Rx,0,8,3D,00,00,00,20,00,1D,36,
127042322,00000110,false,Rx,0,8,34,00,00,00,40,00,35,AF,
127042323,00000130,false,Rx,0,8,F8,FF,FF,FF,30,00,15,93,
127043321,00000100,false,Rx,0,8,71,00,00,00,30,00,1E,FA,
127043322,00000140,false,Rx,0,8,01,00,FF,FF,20,00,18,2E,
127043323,00000120,false,Rx,0,8,3D,00,00,00,30,00,10,F6,
127044298,00000110,false,Rx,0,8,34,00,00,00,50,00,38,6F,
127044300,00000130,false,Rx,0,8,F8,FF,FF,FF,40,00,30,53,
127045290,00000100,false,Rx,0,8,71,00,00,00,40,00,3B,3A,
127045292,00000120,false,Rx,0,8,20,00,00,00,40,00,36,BB,
127046288,00000110,false,Rx,0,8,34,00,00,00,60,00,2C,6F,
127046290,00000130,false,Rx,0,8,18,00,00,00,50,00,3F,C3,
127047294,00000100,false,Rx,0,8,71,00,00,00,50,00,36,FA,
127047295,00000120,false,Rx,0,8,20,00,00,00,50,00,3B,7B,
127047296,00000110,false,Rx,0,8,4B,00,00,00,70,00,2A,60,
127048548,00000050,false,Rx,0,6,40,54,FF,FF,DF,FF,00,00,
127048549,00000130,false,Rx,0,8,B8,34,03,00,63,80,83,B3,
127048550,00000100,false,Rx,0,8,71,00,00,00,60,00,22,FA,
127050196,00000120,false,Rx,0,8,59,00,00,00,60,00,24,D2,
127050197,00000110,false,Rx,0,8,4B,00,00,00,80,00,6E,60,
127051167,00000130,false,Rx,0,8,B9,FF,FF,FF,70,00,2B,42,
127051168,00000100,false,Rx,0,8,71,00,00,00,70,00,2F,3A,
127052321,00000120,false,Rx,0,8,59,00,00,00,70,00,29,12,
127052323,00000110,false,Rx,0,8,1D,00,00,00,90,00,6F,96,
127053296,00000130,false,Rx,0,8,18,00,00,00,80,00,62,03,
127053297,00000100,false,Rx,0,8,5A,00,00,00,80,00,6D,21,
127054314,00000120,false,Rx,0,8,3D,00,00,00,80,00,65,36,
127054316,00000110,false,Rx,0,8,1D,00,00,00,A0,00,7B,96,
127055297,00000130,false,Rx,0,8,18,00,00,00,90,00,6F,C3,
127055299,00000100,false,Rx,0,8,88,00,00,00,90,00,72,93,
127055299,00000150,false,Rx,0,4,FD,F4,40,A7,00,00,00,00,
127056423,00000120,false,Rx,0,8,3D,00,00,00,90,00,68,F6,
127056424,00000110,false,Rx,0,8,1D,00,00,00,B0,00,76,56,
127056425,00000130,false,Rx,0,8,B9,FF,FF,FF,A0,00,76,82,
127057667,00000100,false,Rx,0,8,71,00,00,00,A0,00,72,FA,
127057668,00000120,false,Rx,0,8,3D,00,00,00,A0,00,7C,F6,
127058675,00000110,false,Rx,0,8,1D,00,00,00,C0,00,53,96,
127058676,00000130,false,Rx,0,8,F8,FF,FF,FF,B0,00,74,53,
127059670,00000100,false,Rx,0,8,5A,00,00,00,B0,00,79,21,
127059671,00000120,false,Rx,0,8,3D,00,00,00,B0,00,71,36,
127060819,00000110,false,Rx,0,8,1D,00,00,00,D0,00,5E,56,
127060820,00000130,false,Rx,0,8,F8,FF,FF,FF,C0,00,51,93,
127061790,00000100,false,Rx,0,8,71,00,00,00,C0,00,5A,FA,
127061792,00000120,false,Rx,0,8,3D,00,00,00,C0,00,54,F6,
127062796,00000110,false,Rx,0,8,1D,00,00,00,E0,00,4A,56,
127062798,00000130,false,Rx,0,8,F8,FF,FF,FF,D0,00,5C,53,
127063796,00000100,false,Rx,0,8,71,00,00,00,D0,00,57,3A,
127063798,00000140,false,Rx,0,8,01,00,FF,FF,30,00,15,EE,
127063799,00000120,false,Rx,0,8,3D,00,00,00,D0,00,59,36,
127064917,00000110,false,Rx,0,8,1D,00,00,00,F0,00,47,96,
127064919,00000130,false,Rx,0,8,F8,FF,FF,FF,E0,00,48,53,
127065917,00000100,false,Rx,0,8,71,00,00,00,E0,00,43,3A,
127065918,00000120,false,Rx,0,8,3D,00,00,00,E0,00,4D,36,
127066915,00000110,false,Rx,0,8,1D,00,00,00,00,00,03,96,
127066916,00000130,false,Rx,0,8,F8,FF,FF,FF,F0,00,45,93,
127067925,00000100,false,Rx,0,8,71,00,00,00,F0,00,4E,FA,
127067926,00000120,false,Rx,0,8,3D,00,00,00,F0,00,40,F6,
127067927,00000110,false,Rx,0,8,1D,00,00,00,10,00,0E,56,
127069199,00000050,false,Rx,0,6,40,54,FF,FF,DF,FF,00,00,
127069200,00000130,false,Rx,0,8,EB,95,FF,FF,03,80,1A,69,
127069201,00000100,false,Rx,0,8,5A,00,00,00,00,00,0C,E1,
127070821,00000120,false,Rx,0,8,3D,00,00,00,00,00,04,F6,
127070823,00000110,false,Rx,0,8,1D,00,00,00,20,00,1A,56,
127071795,00000130,false,Rx,0,8,95,00,00,00,10,00,10,DE,
127071796,00000100,false,Rx,0,8,71,00,00,00,10,00,07,3A,
127072797,00000120,false,Rx,0,8,3D,00,00,00,10,00,09,36,
127072798,00000110,false,Rx,0,8,1D,00,00,00,30,00,17,96,
127073914,00000130,false,Rx,0,8,F8,FF,FF,FF,20,00,18,53,
127073916,00000100,false,Rx,0,8,71,00,00,00,20,00,13,3A,
127074916,00000120,false,Rx,0,8,3D,00,00,00,20,00,1D,36,
127074917,00000110,false,Rx,0,8,1D,00,00,00,40,00,32,56,
127075916,00000130,false,Rx,0,8,F8,FF,FF,FF,30,00,15,93,
127075918,00000100,false,Rx,0,8,88,00,00,00,30,00,0A,93,
127075918,00000150,false,Rx,0,4,FD,F4,40,A7,00,00,00,00,
127076916,00000120,false,Rx,0,8,3D,00,00,00,30,00,10,F6,
127076917,00000110,false,Rx,0,8,1D,00,00,00,50,00,3F,96,
127077923,00000130,false,Rx,0,8,F8,FF,FF,FF,40,00,30,53,
127077924,00000100,false,Rx,0,8,71,00,00,00,40,00,3B,3A,
127079069,00000120,false,Rx,0,8,3D,00,00,00,40,00,35,36,
127079070,00000110,false,Rx,0,8,1D,00,00,00,60,00,2B,96,
127080048,00000130,false,Rx,0,8,99,FF,FF,FF,50,00,35,E2,
127080049,00000100,false,Rx,0,8,71,00,00,00,50,00,36,FA,
127081059,00000120,false,Rx,0,8,3D,00,00,00,50,00,38,F6,
127081061,00000110,false,Rx,0,8,1D,00,00,00,70,00,26,56,
127082038,00000130,false,Rx,0,8,F8,FF,FF,FF,60,00,29,93,
127082039,00000100,false,Rx,0,8,71,00,00,00,60,00,22,FA,
127083195,00000120,false,Rx,0,8,3D,00,00,00,60,00,2C,F6,
127083197,00000110,false,Rx,0,8,1D,00,00,00,80,00,62,56,
127084198,00000130,false,Rx,0,8,F8,FF,FF,FF,70,00,24,53,
127084200,00000100,false,Rx,0,8,71,00,00,00,70,00,2F,3A,
127084200,00000140,false,Rx,0,8,01,00,FF,FF,40,00,30,2E,
127085177,00000120,false,Rx,0,8,3D,00,00,00,70,00,21,36,
127085178,00000110,false,Rx,0,8,34,00,00,00,90,00,68,6F,
127086320,00000130,false,Rx,0,8,18,00,00,00,80,00,62,03,
127086321,00000100,false,Rx,0,8,5A,00,00,00,80,00,6D,21,
127087322,00000120,false,Rx,0,8,3D,00,00,00,80,00,65,36,
127087323,00000110,false,Rx,0,8,34,00,00,00,A0,00,7C,6F,
127088318,00000130,false,Rx,0,8,D9,FF,FF,FF,90,00,6B,22,
127088320,00000100,false,Rx,0,8,71,00,00,00,90,00,66,FA,
127088320,00000120,false,Rx,0,8,3D,00,00,00,90,00,68,F6,
127089570,00000110,false,Rx,0,8,06,00,00,00,B0,00,75,BD,
127089571,00000050,false,Rx,0,6,40,54,FF,FF,DF,FF,00,00,
127089572,00000130,false,Rx,0,8,4C,BA,F5,FF,A3,80,AD,60,
127090572,00000100,false,Rx,0,8,71,00,00,00,A0,00,72,FA,
127090574,00000120,false,Rx,0,8,3D,00,00,00,A0,00,7C,F6,
127091547,00000110,false,Rx,0,8,06,00,00,00,C0,00,50,7D,
127091549,00000130,false,Rx,0,8,95,00,00,00,B0,00,68,DE,
127092698,00000100,false,Rx,0,8,71,00,00,00,B0,00,7F,3A,
127092699,00000120,false,Rx,0,8,3D,00,00,00,B0,00,71,36,
127093695,00000110,false,Rx,0,8,1D,00,00,00,D0,00,5E,56,
127093696,00000170,false,Rx,0,8,00,00,00,53,50,81,05,6A,
127093697,00000130,false,Rx,0,8,18,00,00,00,C0,00,53,C3,
127094672,00000100,false,Rx,0,8,71,00,00,00,C0,00,5A,FA,
127094673,00000120,false,Rx,0,8,3D,00,00,00,C0,00,54,F6,
127095665,00000110,false,Rx,0,8,1D,00,00,00,E0,00,4A,56,
127095667,00000150,false,Rx,0,4,FD,F4,40,A7,00,00,00,00,
127095667,00000130,false,Rx,0,8,D9,FF,FF,FF,D0,00,5A,E2,
127096666,00000100,false,Rx,0,8,71,00,00,00,D0,00,57,3A,
127096668,00000120,false,Rx,0,8,3D,00,00,00,D0,00,59,36,
127097791,00000110,false,Rx,0,8,34,00,00,00,F0,00,40,6F,
127097793,00000130,false,Rx,0,8,18,00,00,00,E0,00,4A,03,
127098801,00000100,false,Rx,0,8,71,00,00,00,E0,00,43,3A,
127098803,00000120,false,Rx,0,8,3D,00,00,00,E0,00,4D,36,
127099774,00000110,false,Rx,0,8,34,00,00,00,00,00,04,6F,
127099775,00000130,false,Rx,0,8,F8,FF,FF,FF,F0,00,45,93,
127100918,00000100,false,Rx,0,8,5A,00,00,00,F0,00,48,E1,
127100919,00000120,false,Rx,0,8,3D,00,00,00,F0,00,40,F6,
127101887,00000110,false,Rx,0,8,1D,00,00,00,10,00,0E,56,
127101887,00000130,false,Rx,0,8,D9,FF,FF,FF,00,00,07,22,
127102907,00000100,false,Rx,0,8,71,00,00,00,00,00,0A,FA,
127102907,00000120,false,Rx,0,8,3D,00,00,00,00,00,04,F6,
127103892,00000110,false,Rx,0,8,1D,00,00,00,20,00,1A,56,
127103893,00000130,false,Rx,0,8,37,00,00,00,10,00,09,9C,
127104885,00000100,false,Rx,0,8,71,00,00,00,10,00,07,3A,
127104886,00000140,false,Rx,0,8,01,00,FF,FF,50,00,3D,EE,
127104886,00000120,false,Rx,0,8,3D,00,00,00,10,00,09,36,
127106057,00000110,false,Rx,0,8,1D,00,00,00,30,00,17,96,
127106058,00000130,false,Rx,0,8,18,00,00,00,20,00,1A,03,
127107051,00000100,false,Rx,0,8,71,00,00,00,20,00,13,3A,
127107052,00000120,false,Rx,0,8,3D,00,00,00,20,00,1D,36,
127108031,00000110,false,Rx,0,8,1D,00,00,00,40,00,32,56,
127108032,00000130,false,Rx,0,8,18,00,00,00,30,00,17,C3,
127109045,00000100,false,Rx,0,8,71,00,00,00,30,00,1E,FA,
127109046,00000120,false,Rx,0,8,3D,00,00,00,30,00,10,F6,
127109046,00000110,false,Rx,0,8,4B,00,00,00,50,00,33,A0,
127110301,00000050,false,Rx,0,6,40,54,FF,FF,DF,FF,00,00,
127110301,00000130,false,Rx,0,8,4D,21,00,00,43,80,83,51,
127110302,00000100,false,Rx,0,8,5A,00,00,00,40,00,3D,21,
127111884,00000120,false,Rx,0,8,3D,00,00,00,40,00,35,36,
127111885,00000110,false,Rx,0,8,4B,00,00,00,60,00,27,A0,
127112885,00000130,false,Rx,0,8,D9,FF,FF,FF,50,00,3B,22,
127112885,00000100,false,Rx,0,8,71,00,00,00,50,00,36,FA,
127114031,00000120,false,Rx,0,8,3D,00,00,00,50,00,38,F6,
127114032,00000110,false,Rx,0,8,1D,00,00,00,70,00,26,56,
127115010,00000130,false,Rx,0,8,F8,FF,FF,FF,60,00,29,93,
127115010,00000100,false,Rx,0,8,71,00,00,00,60,00,22,FA,
127116055,00000120,false,Rx,0,8,3D,00,00,00,60,00,2C,F6,
127116056,00000110,false,Rx,0,8,1D,00,00,00,80,00,62,56,
127116056,00000150,false,Rx,0,4,FD,F4,40,A7,00,00,00,00,
127117030,00000130,false,Rx,0,8,18,00,00,00,70,00,26,03,
127117031,00000100,false,Rx,0,8,5A,00,00,00,70,00,29,21,
127118177,00000120,false,Rx,0,8,3D,00,00,00,70,00,21,36,
127118178,00000110,false,Rx,0,8,1D,00,00,00,90,00,6F,96,
127119176,00000130,false,Rx,0,8,18,00,00,00,80,00,62,03,
127119176,00000100,false,Rx,0,8,71,00,00,00,80,00,6B,3A,
127120157,00000120,false,Rx,0,8,3D,00,00,00,80,00,65,36,
127120158,00000110,false,Rx,0,8,1D,00,00,00,A0,00,7B,96,
127121152,00000130,false,Rx,0,8,F8,FF,FF,FF,90,00,6D,93,
127121153,00000100,false,Rx,0,8,71,00,00,00,90,00,66,FA,
127122145,00000120,false,Rx,0,8,3D,00,00,00,90,00,68,F6,
127122146,00000110,false,Rx,0,8,1D,00,00,00,B0,00,76,56,
127123301,00000130,false,Rx,0,8,37,00,00,00,A0,00,7C,5C,
127123302,00000100,false,Rx,0,8,71,00,00,00,A0,00,72,FA,
127124301,00000120,false,Rx,0,8,3D,00,00,00,A0,00,7C,F6,
127124302,00000110,false,Rx,0,8,1D,00,00,00,C0,00,53,96,
127125260,00000130,false,Rx,0,8,D9,FF,FF,FF,B0,00,72,E2,
127125261,00000100,false,Rx,0,8,71,00,00,00,B0,00,7F,3A,
127125262,00000140,false,Rx,0,8,01,00,FF,FF,60,00,29,EE,
127126273,00000120,false,Rx,0,8,3D,00,00,00,B0,00,71,36,
127126274,00000110,false,Rx,0,8,1D,00,00,00,D0,00,5E,56,
127127387,00000130,false,Rx,0,8,18,00,00,00,C0,00,53,C3,
127127388,00000100,false,Rx,0,8,5A,00,00,00,C0,00,5C,E1,
127128386,00000120,false,Rx,0,8,3D,00,00,00,C0,00,54,F6,
127128387,00000110,false,Rx,0,8,1D,00,00,00,E0,00,4A,56,
127129388,00000130,false,Rx,0,8,37,00,00,00,D0,00,59,9C,
127129389,00000100,false,Rx,0,8,5A,00,00,00,D0,00,51,21,
127129389,00000120,false,Rx,0,8,3D,00,00,00,D0,00,59,36,
127130635,00000110,false,Rx,0,8,4B,00,00,00,F0,00,4B,A0,
127130636,00000050,false,Rx,0,6,40,54,FF,FF,DF,FF,00,00,
127130637,00000130,false,Rx,0,8,D8,34,03,00,E3,80,EB,D3,
127131635,00000100,false,Rx,0,8,5A,00,00,00,E0,00,45,21,
127131636,00000120,false,Rx,0,8,59,00,00,00,E0,00,45,12,
127132634,00000110,false,Rx,0,8,4B,00,00,00,00,00,0F,A0,
127132635,00000130,false,Rx,0,8,B9,FF,FF,FF,F0,00,4A,82,
127133759,00000100,false,Rx,0,8,71,00,00,00,F0,00,4E,FA,
127133760,00000120,false,Rx,0,8,59,00,00,00,F0,00,48,D2,
127134762,00000110,false,Rx,0,8,1D,00,00,00,10,00,0E,56,
127134763,00000130,false,Rx,0,8,18,00,00,00,00,00,03,C3,
127135761,00000100,false,Rx,0,8,71,00,00,00,00,00,0A,FA,
127135762,00000150,false,Rx,0,4,FD,F4,40,A7,00,00,00,00,
127135763,00000120,false,Rx,0,8,20,00,00,00,00,00,07,7B,
127136887,00000110,false,Rx,0,8,1D,00,00,00,20,00,1A,56,
127136888,00000130,false,Rx,0,8,F8,FF,FF,FF,10,00,0C,53,
127137887,00000100,false,Rx,0,8,71,00,00,00,10,00,07,3A,
127137888,00000120,false,Rx,0,8,20,00,00,00,10,00,0A,BB,
127138887,00000110,false,Rx,0,8,1D,00,00,00,30,00,17,96,
127138888,00000130,false,Rx,0,8,F8,FF,FF,FF,20,00,18,53,
127139889,00000100,false,Rx,0,8,71,00,00,00,20,00,13,3A,
127139890,00000120,false,Rx,0,8,3D,00,00,00,20,00,1D,36,
127141011,00000110,false,Rx,0,8,1D,00,00,00,40,00,32,56,
127141012,00000130,false,Rx,0,8,F8,FF,FF,FF,30,00,15,93,
127142011,00000100,false,Rx,0,8,71,00,00,00,30,00,1E,FA,
127142012,00000120,false,Rx,0,8,3D,00,00,00,30,00,10,F6,
127143011,00000110,false,Rx,0,8,1D,00,00,00,50,00,3F,96,
127143011,00000130,false,Rx,0,8,37,00,00,00,40,00,35,9C,
127144011,00000100,false,Rx,0,8,71,00,00,00,40,00,3B,3A,
127144012,00000120,false,Rx,0,8,3D,00,00,00,40,00,35,36,
127145011,00000110,false,Rx,0,8,1D,00,00,00,60,00,2B,96,
127145012,00000130,false,Rx,0,8,B9,FF,FF,FF,50,00,32,82,
127146136,00000100,false,Rx,0,8,88,00,00,00,50,00,22,93,
127146137,00000140,false,Rx,0,8,01,00,FF,FF,70,00,24,2E,
127146138,00000120,false,Rx,0,8,3D,00,00,00,50,00,38,F6,
127147136,00000110,false,Rx,0,8,1D,00,00,00,70,00,26,56,
127147136,00000130,false,Rx,0,8,F8,FF,FF,FF,60,00,29,93,
127148136,00000100,false,Rx,0,8,71,00,00,00,60,00,22,FA,
127148137,00000120,false,Rx,0,8,3D,00,00,00,60,00,2C,F6,
127149136,00000110,false,Rx,0,8,1D,00,00,00,80,00,62,56,
127149136,00000130,false,Rx,0,8,D9,FF,FF,FF,70,00,22,E2,
127150261,00000100,false,Rx,0,8,5A,00,00,00,70,00,29,21,
127150261,00000120,false,Rx,0,8,3D,00,00,00,70,00,21,36,
127150262,00000110,false,Rx,0,8,1D,00,00,00,90,00,6F,96,
127151386,00000050,false,Rx,0,6,40,54,FF,FF,DF,FF,00,00,
127151387,00000130,false,Rx,0,8,EB,95,FF,FF,83,80,7B,A9,
127151388,00000100,false,Rx,0,8,71,00,00,00,80,00,6B,3A,
127153011,00000120,false,Rx,0,8,59,00,00,00,80,00,6D,12,
127153012,00000110,false,Rx,0,8,1D,00,00,00,A0,00,7B,96,
127154010,00000130,false,Rx,0,8,95,00,00,00,90,00,71,1E,
127154011,00000100,false,Rx,0,8,71,00,00,00,90,00,66,FA,
127155135,00000120,false,Rx,0,8,59,00,00,00,90,00,60,D2,
127155136,00000110,false,Rx,0,8,1D,00,00,00,B0,00,76,56,
127156136,00000130,false,Rx,0,8,F8,FF,FF,FF,A0,00,79,93,
127156136,00000100,false,Rx,0,8,71,00,00,00,A0,00,72,FA,
127156137,00000150,false,Rx,0,4,FD,F4,40,A7,00,00,00,00,
127157136,00000120,false,Rx,0,8,20,00,00,00,A0,00,7F,7B,
127157137,00000110,false,Rx,0,8,1D,00,00,00,C0,00,53,96,
127158135,00000130,false,Rx,0,8,18,00,00,00,B0,00,76,03,
127158136,00000100,false,Rx,0,8,71,00,00,00,B0,00,7F,3A,
127159260,00000120,false,Rx,0,8,20,00,00,00,B0,00,72,BB,
127159261,00000110,false,Rx,0,8,1D,00,00,00,D0,00,5E,56,
127160260,00000130,false,Rx,0,8,18,00,00,00,C0,00,53,C3,
127160261,00000100,false,Rx,0,8,71,00,00,00,C0,00,5A,FA,
127161261,00000120,false,Rx,0,8,59,00,00,00,C0,00,5C,D2,
127161261,00000110,false,Rx,0,8,1D,00,00,00,E0,00,4A,56,
127162261,00000130,false,Rx,0,8,56,00,00,00,D0,00,51,ED,
127162262,00000100,false,Rx,0,8,71,00,00,00,D0,00,57,3A,
127163386,00000120,false,Rx,0,8,59,00,00,00,D0,00,51,12,
127163386,00000110,false,Rx,0,8,1D,00,00,00,F0,00,47,96,
127164385,00000130,false,Rx,0,8,B9,FF,FF,FF,E0,00,47,42,
127164386,00000100,false,Rx,0,8,71,00,00,00,E0,00,43,3A,
127165385,00000120,false,Rx,0,8,3D,00,00,00,E0,00,4D,36,
127165386,00000110,false,Rx,0,8,1D,00,00,00,00,00,03,96,
127166385,00000130,false,Rx,0,8,18,00,00,00,F0,00,47,C3,
127166386,00000100,false,Rx,0,8,71,00,00,00,F0,00,4E,FA,
127166387,00000140,false,Rx,0,8,01,00,FF,FF,80,00,60,2E,
127167511,00000120,false,Rx,0,8,3D,00,00,00,F0,00,40,F6,
127167511,00000110,false,Rx,0,8,06,00,00,00,10,00,0D,BD,
127168509,00000130,false,Rx,0,8,18,00,00,00,00,00,03,C3,
127168510,00000100,false,Rx,0,8,5A,00,00,00,00,00,0C,E1,
127169510,00000120,false,Rx,0,8,3D,00,00,00,00,00,04,F6,
127169510,00000110,false,Rx,0,8,06,00,00,00,20,00,19,BD,
127170509,00000130,false,Rx,0,8,18,00,00,00,10,00,0E,03,
127170510,00000100,false,Rx,0,8,71,00,00,00,10,00,07,3A,
127170510,00000120,false,Rx,0,8,3D,00,00,00,10,00,09,36,
127171761,00000110,false,Rx,0,8,1D,00,00,00,30,00,17,96,
127171762,00000050,false,Rx,0,6,40,54,FF,FF,DF,FF,00,00,
127171762,00000130,false,Rx,0,8,4C,BA,F5,FF,23,80,CC,A0,
127172779,00000100,false,Rx,0,8,71,00,00,00,20,00,13,3A,
127172781,00000120,false,Rx,0,8,3D,00,00,00,20,00,1D,36,
127173903,00000110,false,Rx,0,8,1D,00,00,00,40,00,32,56,
127173904,00000210,false,Rx,0,8,75,69,00,05,06,5F,01,03,
127173905,00000130,false,Rx,0,8,76,00,00,00,30,00,1F,4D,
127174903,00000100,false,Rx,0,8,71,00,00,00,30,00,1E,FA,
127174904,00000120,false,Rx,0,8,3D,00,00,00,30,00,10,F6,
127175895,00000110,false,Rx,0,8,1D,00,00,00,50,00,3F,96,
127175897,00000150,false,Rx,0,4,FD,F4,40,A7,00,00,00,00,
127175897,00000130,false,Rx,0,8,F8,FF,FF,FF,40,00,30,53,
127177038,00000100,false,Rx,0,8,71,00,00,00,40,00,3B,3A,
127177039,00000120,false,Rx,0,8,59,00,00,00,40,00,3D,12,
127178009,00000110,false,Rx,0,8,1D,00,00,00,60,00,2B,96,
127178010,00000130,false,Rx,0,8,F8,FF,FF,FF,50,00,3D,93,
127179011,00000100,false,Rx,0,8,71,00,00,00,50,00,36,FA,
127179012,00000120,false,Rx,0,8,59,00,00,00,50,00,30,D2,
127180010,00000110,false,Rx,0,8,1D,00,00,00,70,00,26,56,
127180011,00000130,false,Rx,0,8,D9,FF,FF,FF,60,00,2F,22,
127181010,00000100,false,Rx,0,8,5A,00,00,00,60,00,24,E1,
127181011,00000120,false,Rx,0,8,20,00,00,00,60,00,2F,7B,
127182135,00000110,false,Rx,0,8,1D,00,00,00,80,00,62,56,
127182135,00000130,false,Rx,0,8,18,00,00,00,70,00,26,03,
127183136,00000100,false,Rx,0,8,71,00,00,00,70,00,2F,3A,
127183137,00000120,false,Rx,0,8,20,00,00,00,70,00,22,BB,
127184135,00000110,false,Rx,0,8,1D,00,00,00,90,00,6F,96,
127184136,00000130,false,Rx,0,8,F8,FF,FF,FF,80,00,60,53,
127185135,00000100,false,Rx,0,8,71,00,00,00,80,00,6B,3A,
127185136,00000120,false,Rx,0,8,20,00,00,00,80,00,66,BB,
127186260,00000110,false,Rx,0,8,1D,00,00,00,A0,00,7B,96,
127186261,00000130,false,Rx,0,8,F8,FF,FF,FF,90,00,6D,93,
127187259,00000100,false,Rx,0,8,5A,00,00,00,90,00,60,E1,
127187260,00000140,false,Rx,0,8,01,00,FF,FF,90,00,6D,EE,
127187261,00000120,false,Rx,0,8,20,00,00,00,90,00,6B,7B,
127188260,00000110,false,Rx,0,8,1D,00,00,00,B0,00,76,56,
127188260,00000130,false,Rx,0,8,F8,FF,FF,FF,A0,00,79,93,
127189261,00000100,false,Rx,0,8,71,00,00,00,A0,00,72,FA,
127189262,00000120,false,Rx,0,8,3D,00,00,00,A0,00,7C,F6,
127190384,00000110,false,Rx,0,8,1D,00,00,00,C0,00,53,96,
127190384,00000130,false,Rx,0,8,18,00,00,00,B0,00,76,03,
127191384,00000100,false,Rx,0,8,5A,00,00,00,B0,00,79,21,
127191385,00000120,false,Rx,0,8,3D,00,00,00,B0,00,71,36,
127191385,00000110,false,Rx,0,8,4B,00,00,00,D0,00,52,60,
127192509,00000050,false,Rx,0,6,40,54,FF,FF,DF,FF,00,00,
127192510,00000130,false,Rx,0,8,4D,21,00,00,C3,80,E2,91,
127192511,00000100,false,Rx,0,8,71,00,00,00,C0,00,5A,FA,
127194134,00000120,false,Rx,0,8,3D,00,00,00,C0,00,54,F6,
127194135,00000110,false,Rx,0,8,4B,00,00,00,E0,00,46,60,
127195259,00000130,false,Rx,0,8,D9,FF,FF,FF,D0,00,5A,E2,
127195260,00000100,false,Rx,0,8,71,00,00,00,D0,00,57,3A,
127196259,00000120,false,Rx,0,8,3D,00,00,00,D0,00,59,36,
127196260,00000110,false,Rx,0,8,1D,00,00,00,F0,00,47,96,
127196261,00000150,false,Rx,0,4,FD,F4,40,A7,00,00,00,00,
127196262,00000170,false,Rx,0,8,00,00,00,54,50,81,05,9E,
127197259,00000130,false,Rx,0,8,18,00,00,00,E0,00,4A,03,
127197260,00000100,false,Rx,0,8,71,00,00,00,E0,00,43,3A,
127198259,00000120,false,Rx,0,8,20,00,00,00,E0,00,4E,BB,
127198260,00000110,false,Rx,0,8,1D,00,00,00,00,00,03,96,
127199384,00000130,false,Rx,0,8,F8,FF,FF,FF,F0,00,45,93,
127199385,00000100,false,Rx,0,8,71,00,00,00,F0,00,4E,FA,
127200384,00000120,false,Rx,0,8,20,00,00,00,F0,00,43,7B,
127200385,00000110,false,Rx,0,8,1D,00,00,00,10,00,0E,56,
127201383,00000130,false,Rx,0,8,F8,FF,FF,FF,00,00,01,93,
127201384,00000100,false,Rx,0,8,71,00,00,00,00,00,0A,FA,
127202383,00000120,false,Rx,0,8,3D,00,00,00,00,00,04,F6,
127202384,00000110,false,Rx,0,8,1D,00,00,00,20,00,1A,56,
127203509,00000130,false,Rx,0,8,F8,FF,FF,FF,10,00,0C,53,
127203509,00000100,false,Rx,0,8,71,00,00,00,10,00,07,3A,
127204508,00000120,false,Rx,0,8,3D,00,00,00,10,00,09,36,
127204509,00000110,false,Rx,0,8,1D,00,00,00,30,00,17,96,
127205508,00000130,false,Rx,0,8,D9,FF,FF,FF,20,00,1E,E2,
127205508,00000100,false,Rx,0,8,71,00,00,00,20,00,13,3A,
127206508,00000120,false,Rx,0,8,20,00,00,00,20,00,1E,BB,
127206508,00000110,false,Rx,0,8,1D,00,00,00,40,00,32,56,
127207508,00000130,false,Rx,0,8,F8,FF,FF,FF,30,00,15,93,
127207509,00000100,false,Rx,0,8,71,00,00,00,30,00,1E,FA,
127207509,00000140,false,Rx,0,8,01,00,FF,FF,A0,00,79,EE,
127208633,00000120,false,Rx,0,8,20,00,00,00,30,00,13,7B,
127208633,00000110,false,Rx,0,8,1D,00,00,00,50,00,3F,96,
127209633,00000130,false,Rx,0,8,F8,FF,FF,FF,40,00,30,53,
127209633,00000100,false,Rx,0,8,71,00,00,00,40,00,3B,3A,
127210632,00000120,false,Rx,0,8,59,00,00,00,40,00,3D,12,
127210633,00000110,false,Rx,0,8,1D,00,00,00,60,00,2B,96,
127211632,00000130,false,Rx,0,8,37,00,00,00,50,00,38,5C,
127211633,00000100,false,Rx,0,8,71,00,00,00,50,00,36,FA,
127211633,00000120,false,Rx,0,8,59,00,00,00,50,00,30,D2,
127212881,00000110,false,Rx,0,8,4B,00,00,00,70,00,2A,60,
127212882,00000050,false,Rx,0,6,40,54,FF,FF,DF,FF,00,00,
127212882,00000130,false,Rx,0,8,B8,34,03,00,63,80,83,B3,
127214007,00000100,false,Rx,0,8,71,00,00,00,60,00,22,FA,
127214008,00000120,false,Rx,0,8,20,00,00,00,60,00,2F,7B,
127215034,00000110,false,Rx,0,8,4B,00,00,00,80,00,6E,60,
127215035,00000130,false,Rx,0,8,D9,FF,FF,FF,70,00,22,E2,
127216040,00000100,false,Rx,0,8,71,00,00,00,70,00,2F,3A,
127216041,00000150,false,Rx,0,4,FD,F4,40,A7,00,00,00,00,
127216042,00000120,false,Rx,0,8,20,00,00,00,70,00,22,BB,
127217040,00000110,false,Rx,0,8,1D,00,00,00,90,00,6F,96,
127217042,00000130,false,Rx,0,8,F8,FF,FF,FF,80,00,60,53,
127218166,00000100,false,Rx,0,8,71,00,00,00,80,00,6B,3A,
127218167,00000120,false,Rx,0,8,3D,00,00,00,80,00,65,36,
127219163,00000110,false,Rx,0,8,1D,00,00,00,A0,00,7B,96,
127219165,00000130,false,Rx,0,8,F8,FF,FF,FF,90,00,6D,93,
127220165,00000100,false,Rx,0,8,71,00,00,00,90,00,66,FA,
127220167,00000120,false,Rx,0,8,3D,00,00,00,90,00,68,F6,
127221298,00000110,false,Rx,0,8,1D,00,00,00,B0,00,76,56,
127221299,00000130,false,Rx,0,8,F8,FF,FF,FF,A0,00,79,93,
127222294,00000100,false,Rx,0,8,71,00,00,00,A0,00,72,FA,
127222295,00000120,false,Rx,0,8,3D,00,00,00,A0,00,7C,F6,
127223260,00000110,false,Rx,0,8,1D,00,00,00,C0,00,53,96,
127223261,00000130,false,Rx,0,8,F8,FF,FF,FF,B0,00,74,53,
127224260,00000100,false,Rx,0,8,71,00,00,00,B0,00,7F,3A,
127224261,00000120,false,Rx,0,8,3D,00,00,00,B0,00,71,36,
127225258,00000110,false,Rx,0,8,06,00,00,00,D0,00,5D,BD,
127225259,00000130,false,Rx,0,8,D9,FF,FF,FF,C0,00,57,22,
127226382,00000100,false,Rx,0,8,71,00,00,00,C0,00,5A,FA,
127226383,00000120,false,Rx,0,8,3D,00,00,00,C0,00,54,F6,
127227384,00000110,false,Rx,0,8,06,00,00,00,E0,00,49,BD,
127227385,00000130,false,Rx,0,8,18,00,00,00,D0,00,5E,03,
127228381,00000100,false,Rx,0,8,5A,00,00,00,D0,00,51,21,
127228382,00000140,false,Rx,0,8,01,00,FF,FF,B0,00,74,2E,
127228383,00000120,false,Rx,0,8,3D,00,00,00,D0,00,59,36,
127229382,00000110,false,Rx,0,8,1D,00,00,00,F0,00,47,96,
127229382,00000130,false,Rx,0,8,F8,FF,FF,FF,E0,00,48,53,
127230382,00000100,false,Rx,0,8,71,00,00,00,E0,00,43,3A,
127230383,00000120,false,Rx,0,8,20,00,00,00,E0,00,4E,BB,
127231513,00000110,false,Rx,0,8,1D,00,00,00,00,00,03,96,
127231514,00000130,false,Rx,0,8,D9,FF,FF,FF,F0,00,43,22,
127232506,00000100,false,Rx,0,8,5A,00,00,00,F0,00,48,E1,
127232506,00000120,false,Rx,0,8,20,00,00,00,F0,00,43,7B,
127232507,00000110,false,Rx,0,8,1D,00,00,00,10,00,0E,56,
127233631,00000050,false,Rx,0,6,40,54,FF,FF,DF,FF,00,00,
127233632,00000130,false,Rx,0,8,0B,96,FF,FF,03,80,48,09,
127233632,00000100,false,Rx,0,8,71,00,00,00,00,00,0A,FA,
127235257,00000120,false,Rx,0,8,3D,00,00,00,00,00,04,F6,
127235257,00000110,false,Rx,0,8,1D,00,00,00,20,00,1A,56,
127235258,00000150,false,Rx,0,4,FD,F4,40,A7,00,00,00,00,
127236382,00000130,false,Rx,0,8,95,00,00,00,10,00,10,DE,
127236383,00000100,false,Rx,0,8,71,00,00,00,10,00,07,3A,
127236383,00000120,false,Rx,0,8,3D,00,00,00,10,00,09,36,
127237631,00000110,false,Rx,0,8,1D,00,00,00,30,00,17,96,
127237631,00000130,false,Rx,0,8,F8,FF,FF,FF,20,00,18,53,
127238631,00000100,false,Rx,0,8,71,00,00,00,20,00,13,3A,
127238631,00000120,false,Rx,0,8,59,00,00,00,20,00,15,12,
127239760,00000110,false,Rx,0,8,1D,00,00,00,40,00,32,56,
127239761,00000130,false,Rx,0,8,F8,FF,FF,FF,30,00,15,93,
127240760,00000100,false,Rx,0,8,71,00,00,00,30,00,1E,FA,
127240760,00000120,false,Rx,0,8,59,00,00,00,30,00,18,D2,
127241756,00000110,false,Rx,0,8,1D,00,00,00,50,00,3F,96,
127241756,00000130,false,Rx,0,8,F8,FF,FF,FF,40,00,30,53,
127242756,00000100,false,Rx,0,8,71,00,00,00,40,00,3B,3A,
127242756,00000120,false,Rx,0,8,3D,00,00,00,40,00,35,36,
127243883,00000110,false,Rx,0,8,1D,00,00,00,60,00,2B,96,
127243884,00000130,false,Rx,0,8,F8,FF,FF,FF,50,00,3D,93,
127244882,00000100,false,Rx,0,8,5A,00,00,00,50,00,30,E1,
127244883,00000120,false,Rx,0,8,3D,00,00,00,50,00,38,F6,
127245880,00000110,false,Rx,0,8,1D,00,00,00,70,00,26,56,
127245881,00000130,false,Rx,0,8,F8,FF,FF,FF,60,00,29,93,
127246884,00000100,false,Rx,0,8,71,00,00,00,60,00,22,FA,
127246885,00000120,false,Rx,0,8,3D,00,00,00,60,00,2C,F6,
127247883,00000110,false,Rx,0,8,1D,00,00,00,80,00,62,56,
127247884,00000130,false,Rx,0,8,18,00,00,00,70,00,26,03,
127249005,00000100,false,Rx,0,8,71,00,00,00,70,00,2F,3A,
127249006,00000140,false,Rx,0,8,01,00,FF,FF,C0,00,51,EE,
127249007,00000120,false,Rx,0,8,3D,00,00,00,70,00,21,36,
127250007,00000110,false,Rx,0,8,1D,00,00,00,90,00,6F,96,
127250008,00000130,false,Rx,0,8,18,00,00,00,80,00,62,03,
127251006,00000100,false,Rx,0,8,71,00,00,00,80,00,6B,3A,
127251006,00000120,false,Rx,0,8,3D,00,00,00,80,00,65,36,
127252005,00000110,false,Rx,0,8,1D,00,00,00,A0,00,7B,96,
127252006,00000130,false,Rx,0,8,F8,FF,FF,FF,90,00,6D,93,
127253131,00000100,false,Rx,0,8,5A,00,00,00,90,00,60,E1,
127253131,00000120,false,Rx,0,8,3D,00,00,00,90,00,68,F6,
127253132,00000110,false,Rx,0,8,06,00,00,00,B0,00,75,BD,
127254256,00000050,false,Rx,0,6,40,54,FF,FF,DF,FF,00,00,
127254257,00000130,false,Rx,0,8,2C,BA,F5,FF,A3,80,A4,C0,
127254258,00000100,false,Rx,0,8,71,00,00,00,A0,00,72,FA,
127255987,00000120,false,Rx,0,8,20,00,00,00,A0,00,7F,7B,
127255987,00000110,false,Rx,0,8,06,00,00,00,C0,00,50,7D,
127255987,00000150,false,Rx,0,4,FD,F4,40,A7,00,00,00,00,
127256914,00000130,false,Rx,0,8,76,00,00,00,B0,00,7E,8D,
127256915,00000100,false,Rx,0,8,71,00,00,00,B0,00,7F,3A,
127258065,00000120,false,Rx,0,8,20,00,00,00,B0,00,72,BB,
127258067,00000110,false,Rx,0,8,1D,00,00,00,D0,00,5E,56,
127259044,00000130,false,Rx,0,8,18,00,00,00,C0,00,53,C3,
127259045,00000100,false,Rx,0,8,71,00,00,00,C0,00,5A,FA,
127260037,00000120,false,Rx,0,8,20,00,00,00,C0,00,57,7B,
127260038,00000110,false,Rx,0,8,1D,00,00,00,E0,00,4A,56,
127261196,00000130,false,Rx,0,8,18,00,00,00,D0,00,5E,03,
127261197,00000100,false,Rx,0,8,71,00,00,00,D0,00,57,3A,
127262189,00000120,false,Rx,0,8,20,00,00,00,D0,00,5A,BB,
127262191,00000110,false,Rx,0,8,1D,00,00,00,F0,00,47,96,
127263196,00000130,false,Rx,0,8,F8,FF,FF,FF,E0,00,48,53,
127263197,00000100,false,Rx,0,8,71,00,00,00,E0,00,43,3A,
127264168,00000120,false,Rx,0,8,3D,00,00,00,E0,00,4D,36,
127264170,00000110,false,Rx,0,8,1D,00,00,00,00,00,03,96,
127265168,00000130,false,Rx,0,8,F8,FF,FF,FF,F0,00,45,93,
127265169,00000100,false,Rx,0,8,5A,00,00,00,F0,00,48,E1,
127266319,00000120,false,Rx,0,8,3D,00,00,00,F0,00,40,F6,
127266320,00000110,false,Rx,0,8,1D,00,00,00,10,00,0E,56,
127267293,00000130,false,Rx,0,8,B9,FF,FF,FF,00,00,0E,82,
127267295,00000100,false,Rx,0,8,71,00,00,00,00,00,0A,FA,
127268289,00000120,false,Rx,0,8,20,00,00,00,00,00,07,7B,
127268290,00000110,false,Rx,0,8,1D,00,00,00,20,00,1A,56,
127269303,00000130,false,Rx,0,8,F8,FF,FF,FF,10,00,0C,53,
127269305,00000100,false,Rx,0,8,71,00,00,00,10,00,07,3A,
127269305,00000140,false,Rx,0,8,01,00,FF,FF,D0,00,5C,2E,
127270418,00000120,false,Rx,0,8,20,00,00,00,10,00,0A,BB,
127270419,00000110,false,Rx,0,8,1D,00,00,00,30,00,17,96,
127271440,00000130,false,Rx,0,8,D9,FF,FF,FF,20,00,1E,E2,
127271441,00000100,false,Rx,0,8,5A,00,00,00,20,00,15,21,
127272413,00000120,false,Rx,0,8,3D,00,00,00,20,00,1D,36,
127272414,00000110,false,Rx,0,8,1D,00,00,00,40,00,32,56,
127273422,00000130,false,Rx,0,8,18,00,00,00,30,00,17,C3,
127273423,00000100,false,Rx,0,8,71,00,00,00,30,00,1E,FA,
127273424,00000120,false,Rx,0,8,3D,00,00,00,30,00,10,F6,
127274669,00000110,false,Rx,0,8,4B,00,00,00,50,00,33,A0,
127274671,00000050,false,Rx,0,6,40,54,FF,FF,DF,FF,00,00,
127274671,00000130,false,Rx,0,8,6C,21,00,00,43,80,85,E0,
127275675,00000100,false,Rx,0,8,5A,00,00,00,40,00,3D,21,
127275676,00000150,false,Rx,0,4,FD,F4,40,A7,00,00,00,00,
127275677,00000120,false,Rx,0,8,3D,00,00,00,40,00,35,36,
127276818,00000110,false,Rx,0,8,4B,00,00,00,60,00,27,A0,
127276820,00000130,false,Rx,0,8,18,00,00,00,50,00,3F,C3,
127277796,00000100,false,Rx,0,8,71,00,00,00,50,00,36,FA,
127277797,00000120,false,Rx,0,8,3D,00,00,00,50,00,38,F6,
127278806,00000110,false,Rx,0,8,1D,00,00,00,70,00,26,56,
127278807,00000130,false,Rx,0,8,D9,FF,FF,FF,60,00,2F,22,
127279949,00000100,false,Rx,0,8,5A,00,00,00,60,00,24,E1,
127279950,00000120,false,Rx,0,8,59,00,00,00,60,00,24,D2,
127280913,00000110,false,Rx,0,8,1D,00,00,00,80,00,62,56,
127280915,00000130,false,Rx,0,8,D9,FF,FF,FF,70,00,22,E2,
127281915,00000100,false,Rx,0,8,71,00,00,00,70,00,2F,3A,
127281916,00000120,false,Rx,0,8,59,00,00,00,70,00,29,12,
127282920,00000110,false,Rx,0,8,1D,00,00,00,90,00,6F,96,
127282921,00000130,false,Rx,0,8,B9,FF,FF,FF,80,00,6F,42,
127284069,00000100,false,Rx,0,8,71,00,00,00,80,00,6B,3A,
127284070,00000120,false,Rx,0,8,3D,00,00,00,80,00,65,36,
127285071,00000110,false,Rx,0,8,1D,00,00,00,A0,00,7B,96,
127285072,00000130,false,Rx,0,8,F8,FF,FF,FF,90,00,6D,93,
127286044,00000100,false,Rx,0,8,71,00,00,00,90,00,66,FA,
127286045,00000120,false,Rx,0,8,3D,00,00,00,90,00,68,F6,
127287044,00000110,false,Rx,0,8,1D,00,00,00,B0,00,76,56,
127287045,00000130,false,Rx,0,8,D9,FF,FF,FF,A0,00,7F,22,
127288045,00000100,false,Rx,0,8,5A,00,00,00,A0,00,74,E1,
127288046,00000120,false,Rx,0,8,3D,00,00,00,A0,00,7C,F6,
127289217,00000110,false,Rx,0,8,1D,00,00,00,C0,00,53,96,
127289219,00000130,false,Rx,0,8,F8,FF,FF,FF,B0,00,74,53,
127290191,00000100,false,Rx,0,8,71,00,00,00,B0,00,7F,3A,
127290192,00000140,false,Rx,0,8,01,00,FF,FF,E0,00,48,2E,
127290193,00000120,false,Rx,0,8,3D,00,00,00,B0,00,71,36,
127291164,00000110,false,Rx,0,8,1D,00,00,00,D0,00,5E,56,
127291165,00000130,false,Rx,0,8,F8,FF,FF,FF,C0,00,51,93,
127292166,00000100,false,Rx,0,8,71,00,00,00,C0,00,5A,FA,
127292168,00000120,false,Rx,0,8,3D,00,00,00,C0,00,54,F6,
127293287,00000110,false,Rx,0,8,1D,00,00,00,E0,00,4A,56,
127293288,00000130,false,Rx,0,8,F8,FF,FF,FF,D0,00,5C,53,
127294293,00000100,false,Rx,0,8,71,00,00,00,D0,00,57,3A,
127294295,00000120,false,Rx,0,8,3D,00,00,00,D0,00,59,36,
127294295,00000110,false,Rx,0,8,62,00,00,00,F0,00,4C,59,
127295436,00000050,false,Rx,0,6,40,54,FF,FF,DF,FF,00,00,
127295437,00000130,false,Rx,0,8,99,34,03,00,E3,80,E4,C2,
127295438,00000100,false,Rx,0,8,71,00,00,00,E0,00,43,3A,
127295439,00000150,false,Rx,0,4,FD,F4,40,A7,00,00,00,00,
127297047,00000120,false,Rx,0,8,3D,00,00,00,E0,00,4D,36,
127297048,00000110,false,Rx,0,8,62,00,00,00,00,00,08,59,
127298192,00000130,false,Rx,0,8,F8,FF,FF,FF,F0,00,45,93,
127298193,00000100,false,Rx,0,8,71,00,00,00,F0,00,4E,FA,
127299193,00000120,false,Rx,0,8,3D,00,00,00,F0,00,40,F6,
127299195,00000110,false,Rx,0,8,1D,00,00,00,10,00,0E,56,
127299195,00000170,false,Rx,0,8,00,00,00,55,50,81,05,03,
127300167,00000130,false,Rx,0,8,F8,FF,FF,FF,00,00,01,93,
127300168,00000100,false,Rx,0,8,71,00,00,00,00,00,0A,FA,
127301160,00000120,false,Rx,0,8,3D,00,00,00,00,00,04,F6,
127301161,00000110,false,Rx,0,8,1D,00,00,00,20,00,1A,56,
127302316,00000130,false,Rx,0,8,D9,FF,FF,FF,10,00,0A,E2,
127302318,00000100,false,Rx,0,8,71,00,00,00,10,00,07,3A,
127303318,00000120,false,Rx,0,8,3D,00,00,00,10,00,09,36,
127303320,00000110,false,Rx,0,8,06,00,00,00,30,00,14,7D,
127304301,00000130,false,Rx,0,8,D9,FF,FF,FF,20,00,1E,E2,
127304302,00000100,false,Rx,0,8,71,00,00,00,20,00,13,3A,
127305285,00000120,false,Rx,0,8,3D,00,00,00,20,00,1D,36,
127305286,00000110,false,Rx,0,8,06,00,00,00,40,00,31,BD,
127306412,00000130,false,Rx,0,8,F8,FF,FF,FF,30,00,15,93,
127306414,00000100,false,Rx,0,8,88,00,00,00,30,00,0A,93,
127307419,00000120,false,Rx,0,8,3D,00,00,00,30,00,10,F6,
127307421,00000110,false,Rx,0,8,1D,00,00,00,50,00,3F,96,
127308419,00000130,false,Rx,0,8,18,00,00,00,40,00,32,03,
127308421,00000100,false,Rx,0,8,71,00,00,00,40,00,3B,3A,
127309408,00000120,false,Rx,0,8,3D,00,00,00,40,00,35,36,
127309410,00000110,false,Rx,0,8,1D,00,00,00,60,00,2B,96,
127310412,00000130,false,Rx,0,8,F8,FF,FF,FF,50,00,3D,93,
127310413,00000100,false,Rx,0,8,71,00,00,00,50,00,36,FA,
127310413,00000140,false,Rx,0,8,01,00,FF,FF,F0,00,45,EE,
127311567,00000120,false,Rx,0,8,3D,00,00,00,50,00,38,F6,
127311569,00000110,false,Rx,0,8,1D,00,00,00,70,00,26,56,
127312544,00000130,false,Rx,0,8,18,00,00,00,60,00,2B,C3,
127312545,00000100,false,Rx,0,8,5A,00,00,00,60,00,24,E1,
127313541,00000120,false,Rx,0,8,3D,00,00,00,60,00,2C,F6,
127313542,00000110,false,Rx,0,8,1D,00,00,00,80,00,62,56,
127314536,00000130,false,Rx,0,8,D9,FF,FF,FF,70,00,22,E2,
127314537,00000100,false,Rx,0,8,5A,00,00,00,70,00,29,21,
127314537,00000120,false,Rx,0,8,3D,00,00,00,70,00,21,36,
127315792,00000110,false,Rx,0,8,1D,00,00,00,90,00,6F,96,
127315794,00000050,false,Rx,0,6,40,54,FF,FF,DF,FF,00,00,
127315794,00000150,false,Rx,0,4,FD,F4,40,A7,00,00,00,00,
127315795,00000130,false,Rx,0,8,EB,95,FF,FF,83,80,7B,A9,
127316778,00000100,false,Rx,0,8,5A,00,00,00,80,00,6D,21,
127316780,00000120,false,Rx,0,8,3D,00,00,00,80,00,65,36,
127317914,00000110,false,Rx,0,8,1D,00,00,00,A0,00,7B,96,
127317915,00000130,false,Rx,0,8,76,00,00,00,90,00,67,4D,
127318915,00000100,false,Rx,0,8,71,00,00,00,90,00,66,FA,
127318917,00000120,false,Rx,0,8,3D,00,00,00,90,00,68,F6,
127320036,00000110,false,Rx,0,8,1D,00,00,00,B0,00,76,56,
127320038,00000130,false,Rx,0,8,F8,FF,FF,FF,A0,00,79,93,
127321033,00000100,false,Rx,0,8,71,00,00,00,A0,00,72,FA,
127321035,00000120,false,Rx,0,8,3D,00,00,00,A0,00,7C,F6,
127322035,00000110,false,Rx,0,8,1D,00,00,00,C0,00,53,96,
127322036,00000130,false,Rx,0,8,D9,FF,FF,FF,B0,00,72,E2,
127323038,00000100,false,Rx,0,8,71,00,00,00,B0,00,7F,3A,
127323040,00000120,false,Rx,0,8,3D,00,00,00,B0,00,71,36,
127324037,00000110,false,Rx,0,8,1D,00,00,00,D0,00,5E,56,
127324038,00000130,false,Rx,0,8,F8,FF,FF,FF,C0,00,51,93,
127325163,00000100,false,Rx,0,8,5A,00,00,00,C0,00,5C,E1,
127325164,00000120,false,Rx,0,8,3D,00,00,00,C0,00,54,F6,
127326161,00000110,false,Rx,0,8,1D,00,00,00,E0,00,4A,56,
127326163,00000130,false,Rx,0,8,F8,FF,FF,FF,D0,00,5C,53,
127327161,00000100,false,Rx,0,8,71,00,00,00,D0,00,57,3A,
127327163,00000120,false,Rx,0,8,3D,00,00,00,D0,00,59,36,
127328138,00000110,false,Rx,0,8,1D,00,00,00,F0,00,47,96,
127328139,00000130,false,Rx,0,8,F8,FF,FF,FF,E0,00,48,53,
127329287,00000100,false,Rx,0,8,5A,00,00,00,E0,00,45,21,
127329289,00000120,false,Rx,0,8,3D,00,00,00,E0,00,4D,36,
127330283,00000110,false,Rx,0,8,1D,00,00,00,00,00,03,96,
127330286,00000130,false,Rx,0,8,18,00,00,00,F0,00,47,C3,
127331286,00000100,false,Rx,0,8,71,00,00,00,F0,00,4E,FA,
127331288,00000140,false,Rx,0,8,01,00,FF,FF,00,00,01,EE,
127331288,00000120,false,Rx,0,8,3D,00,00,00,F0,00,40,F6,
127332284,00000110,false,Rx,0,8,1D,00,00,00,10,00,0E,56,
127332285,00000130,false,Rx,0,8,B9,FF,FF,FF,00,00,0E,82,
127333413,00000100,false,Rx,0,8,71,00,00,00,00,00,0A,FA,
127333414,00000120,false,Rx,0,8,3D,00,00,00,00,00,04,F6,
127334413,00000110,false,Rx,0,8,1D,00,00,00,20,00,1A,56,
127334415,00000130,false,Rx,0,8,F8,FF,FF,FF,10,00,0C,53,
127335411,00000100,false,Rx,0,8,71,00,00,00,10,00,07,3A,
127335412,00000120,false,Rx,0,8,3D,00,00,00,10,00,09,36,
127335413,00000110,false,Rx,0,8,1D,00,00,00,30,00,17,96,
127336662,00000050,false,Rx,0,6,40,54,FF,FF,DF,FF,00,00,
127336664,00000150,false,Rx,0,4,FD,F4,40,A7,00,00,00,00,
127336665,00000130,false,Rx,0,8,0D,BA,F5,FF,23,80,C3,B1,
127336665,00000100,false,Rx,0,8,88,00,00,00,20,00,07,53,
127338168,00000120,false,Rx,0,8,3D,00,00,00,20,00,1D,36,
127338170,00000110,false,Rx,0,8,1D,00,00,00,40,00,32,56,
127339304,00000130,false,Rx,0,8,95,00,00,00,30,00,09,1E,
127339306,00000100,false,Rx,0,8,71,00,00,00,30,00,1E,FA,
127340292,00000120,false,Rx,0,8,3D,00,00,00,30,00,10,F6,
127340293,00000110,false,Rx,0,8,1D,00,00,00,50,00,3F,96,
127341284,00000130,false,Rx,0,8,F8,FF,FF,FF,40,00,30,53,
127341286,00000100,false,Rx,0,8,5A,00,00,00,40,00,3D,21,
127342439,00000120,false,Rx,0,8,3D,00,00,00,40,00,35,36,
127342441,00000110,false,Rx,0,8,1D,00,00,00,60,00,2B,96,
127343420,00000130,false,Rx,0,8,D9,FF,FF,FF,50,00,3B,22,
127343422,00000100,false,Rx,0,8,71,00,00,00,50,00,36,FA,
127344409,00000120,false,Rx,0,8,3D,00,00,00,50,00,38,F6,
127344411,00000110,false,Rx,0,8,1D,00,00,00,70,00,26,56,
127345420,00000130,false,Rx,0,8,F8,FF,FF,FF,60,00,29,93,
127345422,00000100,false,Rx,0,8,71,00,00,00,60,00,22,FA,
127346549,00000120,false,Rx,0,8,20,00,00,00,60,00,2F,7B,
127346550,00000110,false,Rx,0,8,1D,00,00,00,80,00,62,56,
127347563,00000130,false,Rx,0,8,18,00,00,00,70,00,26,03,
127347565,00000100,false,Rx,0,8,71,00,00,00,70,00,2F,3A,
127348543,00000120,false,Rx,0,8,20,00,00,00,70,00,22,BB,
127348544,00000110,false,Rx,0,8,1D,00,00,00,90,00,6F,96,
127349549,00000130,false,Rx,0,8,F8,FF,FF,FF,80,00,60,53,
127349551,00000100,false,Rx,0,8,71,00,00,00,80,00,6B,3A,
127350566,00000120,false,Rx,0,8,20,00,00,00,80,00,66,BB,
127350568,00000110,false,Rx,0,8,1D,00,00,00,A0,00,7B,96,
127351691,00000130,false,Rx,0,8,18,00,00,00,90,00,6F,C3,
127351692,00000100,false,Rx,0,8,71,00,00,00,90,00,66,FA,
127351693,00000140,false,Rx,0,8,01,00,FF,FF,10,00,0C,2E,
127352686,00000120,false,Rx,0,8,20,00,00,00,90,00,6B,7B,
127352687,00000110,false,Rx,0,8,06,00,00,00,B0,00,75,BD,
127353670,00000130,false,Rx,0,8,18,00,00,00,A0,00,7B,C3,
127353671,00000100,false,Rx,0,8,71,00,00,00,A0,00,72,FA,
127354668,00000120,false,Rx,0,8,3D,00,00,00,A0,00,7C,F6,
127354670,00000110,false,Rx,0,8,06,00,00,00,C0,00,50,7D,
127355834,00000130,false,Rx,0,8,F8,FF,FF,FF,B0,00,74,53,
127355835,00000100,false,Rx,0,8,5A,00,00,00,B0,00,79,21,
127355836,00000150,false,Rx,0,4,FD,F4,40,A7,00,00,00,00,
127355837,00000120,false,Rx,0,8,3D,00,00,00,B0,00,71,36,
127356913,00000110,false,Rx,0,8,4B,00,00,00,D0,00,52,60,
127356914,00000050,false,Rx,0,6,40,54,FF,FF,DF,FF,00,00,
127356915,00000130,false,Rx,0,8,4D,21,00,00,C3,80,E2,91,
127358038,00000100,false,Rx,0,8,71,00,00,00,C0,00,5A,FA,
127358039,00000120,false,Rx,0,8,3D,00,00,00,C0,00,54,F6,
127359046,00000110,false,Rx,0,8,4B,00,00,00,E0,00,46,60,
127359047,00000130,false,Rx,0,8,D9,FF,FF,FF,D0,00,5A,E2,
127360037,00000100,false,Rx,0,8,5A,00,00,00,D0,00,51,21,
127360038,00000120,false,Rx,0,8,3D,00,00,00,D0,00,59,36,
127361193,00000110,false,Rx,0,8,1D,00,00,00,F0,00,47,96,
127361194,00000130,false,Rx,0,8,F8,FF,FF,FF,E0,00,48,53,
127362188,00000100,false,Rx,0,8,5A,00,00,00,E0,00,45,21,
127362190,00000120,false,Rx,0,8,20,00,00,00,E0,00,4E,BB,
127363168,00000110,false,Rx,0,8,1D,00,00,00,00,00,03,96,
127363169,00000130,false,Rx,0,8,F8,FF,FF,FF,F0,00,45,93,
127364168,00000100,false,Rx,0,8,71,00,00,00,F0,00,4E,FA,
127364169,00000120,false,Rx,0,8,20,00,00,00,F0,00,43,7B,
127365317,00000110,false,Rx,0,8,1D,00,00,00,10,00,0E,56,
127365318,00000130,false,Rx,0,8,F8,FF,FF,FF,00,00,01,93,
127366286,00000100,false,Rx,0,8,71,00,00,00,00,00,0A,FA,
127366288,00000120,false,Rx,0,8,20,00,00,00,00,00,07,7B,
127367292,00000110,false,Rx,0,8,1D,00,00,00,20,00,1A,56,
127367293,00000130,false,Rx,0,8,D9,FF,FF,FF,10,00,0A,E2,
127368285,00000100,false,Rx,0,8,71,00,00,00,10,00,07,3A,
127368286,00000120,false,Rx,0,8,20,00,00,00,10,00,0A,BB,
127369442,00000110,false,Rx,0,8,1D,00,00,00,30,00,17,96,
127369443,00000130,false,Rx,0,8,18,00,00,00,20,00,1A,03,
127370439,00000100,false,Rx,0,8,71,00,00,00,20,00,13,3A,
127370441,00000120,false,Rx,0,8,20,00,00,00,20,00,1E,BB,
127371445,00000110,false,Rx,0,8,1D,00,00,00,40,00,32,56,
127371446,00000130,false,Rx,0,8,18,00,00,00,30,00,17,C3,
127372419,00000100,false,Rx,0,8,71,00,00,00,30,00,1E,FA,
127372420,00000140,false,Rx,0,8,01,00,FF,FF,20,00,18,2E,
127372421,00000120,false,Rx,0,8,20,00,00,00,30,00,13,7B,
127373568,00000110,false,Rx,0,8,1D,00,00,00,50,00,3F,96,
127373569,00000130,false,Rx,0,8,F8,FF,FF,FF,40,00,30,53,
127374567,00000100,false,Rx,0,8,71,00,00,00,40,00,3B,3A,
127374569,00000120,false,Rx,0,8,3D,00,00,00,40,00,35,36,
127375541,00000110,false,Rx,0,8,1D,00,00,00,60,00,2B,96,
127375543,00000130,false,Rx,0,8,F8,FF,FF,FF,50,00,3D,93,
127376537,00000100,false,Rx,0,8,71,00,00,00,50,00,36,FA,
127376538,00000150,false,Rx,0,4,FD,F4,40,A7,00,00,00,00,
127376539,00000120,false,Rx,0,8,3D,00,00,00,50,00,38,F6,
127376539,00000110,false,Rx,0,8,4B,00,00,00,70,00,2A,60,
127377759,00000050,false,Rx,0,6,40,54,FF,FF,DF,FF,00,00,
127377760,00000130,false,Rx,0,8,D8,34,03,00,63,80,8A,13,
127377760,00000100,false,Rx,0,8,71,00,00,00,60,00,22,FA,
127379386,00000120,false,Rx,0,8,3D,00,00,00,60,00,2C,F6,
127379387,00000110,false,Rx,0,8,4B,00,00,00,80,00,6E,60,
127380380,00000130,false,Rx,0,8,F8,FF,FF,FF,70,00,24,53,
127380381,00000100,false,Rx,0,8,5A,00,00,00,70,00,29,21,
127381381,00000120,false,Rx,0,8,3D,00,00,00,70,00,21,36,
127381381,00000110,false,Rx,0,8,1D,00,00,00,90,00,6F,96,
127382505,00000130,false,Rx,0,8,F8,FF,FF,FF,80,00,60,53,
127382507,00000100,false,Rx,0,8,71,00,00,00,80,00,6B,3A,
127383506,00000120,false,Rx,0,8,3D,00,00,00,80,00,65,36,
127383507,00000110,false,Rx,0,8,1D,00,00,00,A0,00,7B,96,
127384509,00000130,false,Rx,0,8,18,00,00,00,90,00,6F,C3,
127384510,00000100,false,Rx,0,8,71,00,00,00,90,00,66,FA,
127385508,00000120,false,Rx,0,8,3D,00,00,00,90,00,68,F6,
127385509,00000110,false,Rx,0,8,1D,00,00,00,B0,00,76,56,
127386632,00000130,false,Rx,0,8,B9,FF,FF,FF,A0,00,76,82,
127386633,00000100,false,Rx,0,8,5A,00,00,00,A0,00,74,E1,
127387632,00000120,false,Rx,0,8,3D,00,00,00,A0,00,7C,F6,
127387633,00000110,false,Rx,0,8,1D,00,00,00,C0,00,53,96,
127388632,00000130,false,Rx,0,8,D9,FF,FF,FF,B0,00,72,E2,
127388633,00000100,false,Rx,0,8,71,00,00,00,B0,00,7F,3A,
127389632,00000120,false,Rx,0,8,3D,00,00,00,B0,00,71,36,
127389633,00000110,false,Rx,0,8,1D,00,00,00,D0,00,5E,56,
127390632,00000130,false,Rx,0,8,37,00,00,00,C0,00,54,5C,
127390633,00000100,false,Rx,0,8,71,00,00,00,C0,00,5A,FA,
127391757,00000120,false,Rx,0,8,3D,00,00,00,C0,00,54,F6,
127391758,00000110,false,Rx,0,8,1D,00,00,00,E0,00,4A,56,
127392757,00000130,false,Rx,0,8,F8,FF,FF,FF,D0,00,5C,53,
127392758,00000100,false,Rx,0,8,71,00,00,00,D0,00,57,3A,
127392759,00000140,false,Rx,0,8,01,00,FF,FF,30,00,15,EE,
127393757,00000120,false,Rx,0,8,3D,00,00,00,D0,00,59,36,
127393757,00000110,false,Rx,0,8,1D,00,00,00,F0,00,47,96,
127394757,00000130,false,Rx,0,8,F8,FF,FF,FF,E0,00,48,53,
127394757,00000100,false,Rx,0,8,5A,00,00,00,E0,00,45,21,
127395885,00000120,false,Rx,0,8,20,00,00,00,E0,00,4E,BB,
127395886,00000110,false,Rx,0,8,1D,00,00,00,00,00,03,96,
127395887,00000150,false,Rx,0,4,FD,F4,40,A7,00,00,00,00,
127396885,00000130,false,Rx,0,8,B9,FF,FF,FF,F0,00,4A,82,
127396886,00000100,false,Rx,0,8,71,00,00,00,F0,00,4E,FA,
127396886,00000120,false,Rx,0,8,20,00,00,00,F0,00,43,7B,
127398132,00000110,false,Rx,0,8,06,00,00,00,10,00,0D,BD,
127398132,00000050,false,Rx,0,6,40,54,FF,FF,DF,FF,00,00,
127398133,00000130,false,Rx,0,8,EB,95,FF,FF,03,80,1A,69,
127399132,00000100,false,Rx,0,8,71,00,00,00,00,00,0A,FA,
127399133,00000120,false,Rx,0,8,3D,00,00,00,00,00,04,F6,
127400131,00000110,false,Rx,0,8,06,00,00,00,20,00,19,BD,
127400132,00000130,false,Rx,0,8,95,00,00,00,10,00,10,DE,
127401256,00000100,false,Rx,0,8,71,00,00,00,10,00,07,3A,
127401257,00000120,false,Rx,0,8,3D,00,00,00,10,00,09,36,
127402256,00000110,false,Rx,0,8,1D,00,00,00,30,00,17,96,
127402258,00000170,false,Rx,0,8,00,00,00,56,50,81,05,B9,
127402258,00000130,false,Rx,0,8,D9,FF,FF,FF,20,00,1E,E2,
127403257,00000100,false,Rx,0,8,88,00,00,00,20,00,07,53,
127403257,00000120,false,Rx,0,8,3D,00,00,00,20,00,1D,36,
127404257,00000110,false,Rx,0,8,1D,00,00,00,40,00,32,56,
127404258,00000130,false,Rx,0,8,F8,FF,FF,FF,30,00,15,93,
127405382,00000100,false,Rx,0,8,5A,00,00,00,30,00,18,E1,
127405383,00000120,false,Rx,0,8,3D,00,00,00,30,00,10,F6,
127406381,00000110,false,Rx,0,8,1D,00,00,00,50,00,3F,96,
127406382,00000130,false,Rx,0,8,18,00,00,00,40,00,32,03,
127407382,00000100,false,Rx,0,8,71,00,00,00,40,00,3B,3A,
127407383,00000120,false,Rx,0,8,3D,00,00,00,40,00,35,36,
127408382,00000110,false,Rx,0,8,1D,00,00,00,60,00,2B,96,
127408383,00000130,false,Rx,0,8,F8,FF,FF,FF,50,00,3D,93,
127409381,00000100,false,Rx,0,8,71,00,00,00,50,00,36,FA,
127409382,00000120,false,Rx,0,8,3D,00,00,00,50,00,38,F6,
127410507,00000110,false,Rx,0,8,1D,00,00,00,70,00,26,56,
127410508,00000130,false,Rx,0,8,18,00,00,00,60,00,2B,C3,
127411507,00000100,false,Rx,0,8,71,00,00,00,60,00,22,FA,
127411507,00000120,false,Rx,0,8,59,00,00,00,60,00,24,D2,
127412507,00000110,false,Rx,0,8,1D,00,00,00,80,00,62,56,
127412507,00000130,false,Rx,0,8,F8,FF,FF,FF,70,00,24,53,
127413507,00000100,false,Rx,0,8,71,00,00,00,70,00,2F,3A,
127413507,00000140,false,Rx,0,8,01,00,FF,FF,40,00,30,2E,
127413508,00000120,false,Rx,0,8,59,00,00,00,70,00,29,12,
127414632,00000110,false,Rx,0,8,1D,00,00,00,90,00,6F,96,
127414633,00000130,false,Rx,0,8,F8,FF,FF,FF,80,00,60,53,
127415631,00000100,false,Rx,0,8,71,00,00,00,80,00,6B,3A,
127415632,00000150,false,Rx,0,4,FD,F4,40,A7,00,00,00,00,
127415632,00000120,false,Rx,0,8,3D,00,00,00,80,00,65,36,
127416631,00000110,false,Rx,0,8,1D,00,00,00,A0,00,7B,96,
127416632,00000130,false,Rx,0,8,F8,FF,FF,FF,90,00,6D,93,
127416633,00000100,false,Rx,0,8,71,00,00,00,90,00,66,FA,
127418382,00000120,false,Rx,0,8,3D,00,00,00,90,00,68,F6,
127418383,00000110,false,Rx,0,8,1D,00,00,00,B0,00,76,56,
127418383,00000050,false,Rx,0,6,40,54,FF,FF,DF,FF,00,00,
127419506,00000130,false,Rx,0,8,ED,B9,F5,FF,A3,80,F0,11,
127419507,00000100,false,Rx,0,8,71,00,00,00,A0,00,72,FA,
127420506,00000120,false,Rx,0,8,59,00,00,00,A0,00,74,D2,
127420507,00000110,false,Rx,0,8,1D,00,00,00,C0,00,53,96,
127421506,00000130,false,Rx,0,8,95,00,00,00,B0,00,68,DE,
127421507,00000100,false,Rx,0,8,5A,00,00,00,B0,00,79,21,
127422505,00000120,false,Rx,0,8,59,00,00,00,B0,00,79,12,
127422505,00000110,false,Rx,0,8,1D,00,00,00,D0,00,5E,56,
127423640,00000130,false,Rx,0,8,F8,FF,FF,FF,C0,00,51,93,
127423641,00000100,false,Rx,0,8,71,00,00,00,C0,00,5A,FA,
127424635,00000120,false,Rx,0,8,3D,00,00,00,C0,00,54,F6,
127424636,00000110,false,Rx,0,8,1D,00,00,00,E0,00,4A,56,
127425633,00000130,false,Rx,0,8,18,00,00,00,D0,00,5E,03,
127425634,00000100,false,Rx,0,8,71,00,00,00,D0,00,57,3A,
127426631,00000120,false,Rx,0,8,3D,00,00,00,D0,00,59,36,
127426632,00000110,false,Rx,0,8,1D,00,00,00,F0,00,47,96,
127427760,00000130,false,Rx,0,8,F8,FF,FF,FF,E0,00,48,53,
127427761,00000100,false,Rx,0,8,71,00,00,00,E0,00,43,3A,
127428756,00000120,false,Rx,0,8,3D,00,00,00,E0,00,4D,36,
127428756,00000110,false,Rx,0,8,1D,00,00,00,00,00,03,96,
127429757,00000130,false,Rx,0,8,F8,FF,FF,FF,F0,00,45,93,
127429757,00000100,false,Rx,0,8,5A,00,00,00,F0,00,48,E1,
127430755,00000120,false,Rx,0,8,3D,00,00,00,F0,00,40,F6,
127430756,00000110,false,Rx,0,8,1D,00,00,00,10,00,0E,56,
127431880,00000130,false,Rx,0,8,F8,FF,FF,FF,00,00,01,93,
127431881,00000100,false,Rx,0,8,71,00,00,00,00,00,0A,FA,
127432876,00000120,false,Rx,0,8,59,00,00,00,00,00,0C,D2,
127432877,00000110,false,Rx,0,8,1D,00,00,00,20,00,1A,56,
127433876,00000130,false,Rx,0,8,D9,FF,FF,FF,10,00,0A,E2,
127433876,00000100,false,Rx,0,8,71,00,00,00,10,00,07,3A,
127433877,00000140,false,Rx,0,8,01,00,FF,FF,50,00,3D,EE,
127434882,00000120,false,Rx,0,8,59,00,00,00,10,00,01,12,
127434883,00000110,false,Rx,0,8,1D,00,00,00,30,00,17,96,
127436004,00000130,false,Rx,0,8,F8,FF,FF,FF,20,00,18,53,
127436004,00000100,false,Rx,0,8,71,00,00,00,20,00,13,3A,
127436005,00000150,false,Rx,0,4,FD,F4,40,A7,00,00,00,00,
127437004,00000120,false,Rx,0,8,20,00,00,00,20,00,1E,BB,
127437004,00000110,false,Rx,0,8,1D,00,00,00,40,00,32,56,
127438003,00000130,false,Rx,0,8,56,00,00,00,30,00,18,2D,
127438004,00000100,false,Rx,0,8,71,00,00,00,30,00,1E,FA,
127438004,00000120,false,Rx,0,8,20,00,00,00,30,00,13,7B,
127439253,00000110,false,Rx,0,8,4B,00,00,00,50,00,33,A0,
127439253,00000050,false,Rx,0,6,40,54,FF,FF,DF,FF,00,00,
127439254,00000130,false,Rx,0,8,4D,21,00,00,43,80,83,51,
127440253,00000100,false,Rx,0,8,71,00,00,00,40,00,3B,3A,
127440254,00000120,false,Rx,0,8,59,00,00,00,40,00,3D,12,
127441254,00000110,false,Rx,0,8,4B,00,00,00,60,00,27,A0,
127441254,00000130,false,Rx,0,8,D9,FF,FF,FF,50,00,3B,22,
127442378,00000100,false,Rx,0,8,71,00,00,00,50,00,36,FA,
127442379,00000120,false,Rx,0,8,59,00,00,00,50,00,30,D2,
127443377,00000110,false,Rx,0,8,1D,00,00,00,70,00,26,56,
127443378,00000130,false,Rx,0,8,F8,FF,FF,FF,60,00,29,93,
127444378,00000100,false,Rx,0,8,71,00,00,00,60,00,22,FA,
127444378,00000120,false,Rx,0,8,59,00,00,00,60,00,24,D2,
127445378,00000110,false,Rx,0,8,1D,00,00,00,80,00,62,56,
127445378,00000130,false,Rx,0,8,18,00,00,00,70,00,26,03,
127446503,00000100,false,Rx,0,8,71,00,00,00,70,00,2F,3A,
127446504,00000120,false,Rx,0,8,59,00,00,00,70,00,29,12,
127447502,00000110,false,Rx,0,8,06,00,00,00,90,00,6C,7D,
127447503,00000130,false,Rx,0,8,D9,FF,FF,FF,80,00,66,E2,
127448502,00000100,false,Rx,0,8,5A,00,00,00,80,00,6D,21,
127448503,00000120,false,Rx,0,8,3D,00,00,00,80,00,65,36,
127449503,00000110,false,Rx,0,8,06,00,00,00,A0,00,78,7D,
127449503,00000130,false,Rx,0,8,18,00,00,00,90,00,6F,C3,
127450628,00000100,false,Rx,0,8,71,00,00,00,90,00,66,FA,
127450629,00000120,false,Rx,0,8,3D,00,00,00,90,00,68,F6,
127451629,00000110,false,Rx,0,8,1D,00,00,00,B0,00,76,56,
127451629,00000130,false,Rx,0,8,F8,FF,FF,FF,A0,00,79,93,
127452640,00000100,false,Rx,0,8,71,00,00,00,A0,00,72,FA,
127452641,00000120,false,Rx,0,8,3D,00,00,00,A0,00,7C,F6,
127453633,00000110,false,Rx,0,8,1D,00,00,00,C0,00,53,96,
127453634,00000130,false,Rx,0,8,D9,FF,FF,FF,B0,00,72,E2,
127454790,00000100,false,Rx,0,8,71,00,00,00,B0,00,7F,3A,
127454791,00000140,false,Rx,0,8,01,00,FF,FF,60,00,29,EE,
127454791,00000120,false,Rx,0,8,3D,00,00,00,B0,00,71,36,
127455821,00000110,false,Rx,0,8,1D,00,00,00,D0,00,5E,56,
127455822,00000150,false,Rx,0,4,FD,F4,40,A7,00,00,00,00,
127455823,00000130,false,Rx,0,8,F8,FF,FF,FF,C0,00,51,93,
127456782,00000100,false,Rx,0,8,71,00,00,00,C0,00,5A,FA,
127456783,00000120,false,Rx,0,8,59,00,00,00,C0,00,5C,D2,
127457783,00000110,false,Rx,0,8,1D,00,00,00,E0,00,4A,56,
127457784,00000130,false,Rx,0,8,B9,FF,FF,FF,D0,00,53,42,
127458772,00000100,false,Rx,0,8,5A,00,00,00,D0,00,51,21,
127458773,00000120,false,Rx,0,8,59,00,00,00,D0,00,51,12,
127458774,00000110,false,Rx,0,8,62,00,00,00,F0,00,4C,59,
127460060,00000050,false,Rx,0,6,40,54,FF,FF,DF,FF,00,00,
127460061,00000130,false,Rx,0,8,D8,34,03,00,E3,80,EB,D3,
127460062,00000100,false,Rx,0,8,5A,00,00,00,E0,00,45,21,
127461630,00000120,false,Rx,0,8,3D,00,00,00,E0,00,4D,36,
127461641,00000110,false,Rx,0,8,62,00,00,00,00,00,08,59,
127462659,00000130,false,Rx,0,8,B9,FF,FF,FF,F0,00,4A,82,
127462661,00000100,false,Rx,0,8,71,00,00,00,F0,00,4E,FA,
127463787,00000120,false,Rx,0,8,3D,00,00,00,F0,00,40,F6,
127463788,00000110,false,Rx,0,8,1D,00,00,00,10,00,0E,56,
127464783,00000130,false,Rx,0,8,D9,FF,FF,FF,00,00,07,22,
127464784,00000100,false,Rx,0,8,71,00,00,00,00,00,0A,FA,
127465784,00000120,false,Rx,0,8,3D,00,00,00,00,00,04,F6,
127465785,00000110,false,Rx,0,8,1D,00,00,00,20,00,1A,56,
127466784,00000130,false,Rx,0,8,D9,FF,FF,FF,10,00,0A,E2,
127466786,00000100,false,Rx,0,8,71,00,00,00,10,00,07,3A,
127467911,00000120,false,Rx,0,8,3D,00,00,00,10,00,09,36,
127467912,00000110,false,Rx,0,8,1D,00,00,00,30,00,17,96,
127468909,00000130,false,Rx,0,8,D9,FF,FF,FF,20,00,1E,E2,
127468911,00000100,false,Rx,0,8,71,00,00,00,20,00,13,3A,
127469910,00000120,false,Rx,0,8,3D,00,00,00,20,00,1D,36,
127469911,00000110,false,Rx,0,8,1D,00,00,00,40,00,32,56,
127470912,00000130,false,Rx,0,8,F8,FF,FF,FF,30,00,15,93,
127470914,00000100,false,Rx,0,8,71,00,00,00,30,00,1E,FA,
127472036,00000120,false,Rx,0,8,3D,00,00,00,30,00,10,F6,
127472037,00000110,false,Rx,0,8,1D,00,00,00,50,00,3F,96,
127473062,00000130,false,Rx,0,8,37,00,00,00,40,00,35,9C,
127473064,00000100,false,Rx,0,8,71,00,00,00,40,00,3B,3A,
127474040,00000120,false,Rx,0,8,3D,00,00,00,40,00,35,36,
127474041,00000110,false,Rx,0,8,1D,00,00,00,60,00,2B,96,
127475041,00000130,false,Rx,0,8,37,00,00,00,50,00,38,5C,
127475043,00000100,false,Rx,0,8,71,00,00,00,50,00,36,FA,
127475044,00000140,false,Rx,0,8,01,00,FF,FF,70,00,24,2E,
127476174,00000120,false,Rx,0,8,3D,00,00,00,50,00,38,F6,
127476175,00000110,false,Rx,0,8,34,00,00,00,70,00,21,AF,
127476176,00000150,false,Rx,0,4,FD,F4,40,A7,00,00,00,00,
127477185,00000130,false,Rx,0,8,F8,FF,FF,FF,60,00,29,93,
127477186,00000100,false,Rx,0,8,88,00,00,00,60,00,36,93,
127478160,00000120,false,Rx,0,8,3D,00,00,00,60,00,2C,F6,
127478161,00000110,false,Rx,0,8,34,00,00,00,80,00,65,AF,
127479165,00000130,false,Rx,0,8,18,00,00,00,70,00,26,03,
127479166,00000100,false,Rx,0,8,71,00,00,00,70,00,2F,3A,
127479167,00000120,false,Rx,0,8,3D,00,00,00,70,00,21,36,
127480437,00000110,false,Rx,0,8,1D,00,00,00,90,00,6F,96,
127480438,00000050,false,Rx,0,6,40,54,FF,FF,DF,FF,00,00,
127480439,00000130,false,Rx,0,8,EB,95,FF,FF,83,80,7B,A9,
127481408,00000100,false,Rx,0,8,71,00,00,00,80,00,6B,3A,
127481409,00000120,false,Rx,0,8,3D,00,00,00,80,00,65,36,
127482412,00000110,false,Rx,0,8,1D,00,00,00,A0,00,7B,96,
127482413,00000130,false,Rx,0,8,95,00,00,00,90,00,71,1E,
127483536,00000100,false,Rx,0,8,71,00,00,00,90,00,66,FA,
127483537,00000120,false,Rx,0,8,3D,00,00,00,90,00,68,F6,
127484555,00000110,false,Rx,0,8,34,00,00,00,B0,00,71,AF,
127484556,00000130,false,Rx,0,8,F8,FF,FF,FF,A0,00,79,93,
127485663,00000100,false,Rx,0,8,5A,00,00,00,A0,00,74,E1,
127485665,00000120,false,Rx,0,8,59,00,00,00,A0,00,74,D2,
127486690,00000110,false,Rx,0,8,34,00,00,00,C0,00,54,6F,
127486691,00000130,false,Rx,0,8,37,00,00,00,B0,00,71,9C,
127487668,00000100,false,Rx,0,8,71,00,00,00,B0,00,7F,3A,
127487670,00000120,false,Rx,0,8,59,00,00,00,B0,00,79,12,
127488665,00000110,false,Rx,0,8,1D,00,00,00,D0,00,5E,56,
127488667,00000130,false,Rx,0,8,B9,FF,FF,FF,C0,00,5E,82,
127489658,00000100,false,Rx,0,8,71,00,00,00,C0,00,5A,FA,
127489660,00000120,false,Rx,0,8,20,00,00,00,C0,00,57,7B,
127490814,00000110,false,Rx,0,8,1D,00,00,00,E0,00,4A,56,
127490815,00000130,false,Rx,0,8,F8,FF,FF,FF,D0,00,5C,53,
127491817,00000100,false,Rx,0,8,71,00,00,00,D0,00,57,3A,
127491819,00000120,false,Rx,0,8,20,00,00,00,D0,00,5A,BB,
127492790,00000110,false,Rx,0,8,34,00,00,00,F0,00,40,6F,
127492792,00000130,false,Rx,0,8,D9,FF,FF,FF,E0,00,4E,E2,
127493809,00000100,false,Rx,0,8,71,00,00,00,E0,00,43,3A,
127493810,00000120,false,Rx,0,8,3D,00,00,00,E0,00,4D,36,
127494783,00000110,false,Rx,0,8,34,00,00,00,00,00,04,6F,
127494785,00000130,false,Rx,0,8,F8,FF,FF,FF,F0,00,45,93,
127495889,00000100,false,Rx,0,8,71,00,00,00,F0,00,4E,FA,
127495890,00000140,false,Rx,0,8,01,00,FF,FF,80,00,60,2E,
127495891,00000150,false,Rx,0,4,FD,F4,40,A7,00,00,00,00,
127495891,00000120,false,Rx,0,8,3D,00,00,00,F0,00,40,F6,
127496912,00000110,false,Rx,0,8,1D,00,00,00,10,00,0E,56,
127496913,00000130,false,Rx,0,8,18,00,00,00,00,00,03,C3,
127497912,00000100,false,Rx,0,8,5A,00,00,00,00,00,0C,E1,
127497913,00000120,false,Rx,0,8,3D,00,00,00,00,00,04,F6,
127499068,00000110,false,Rx,0,8,1D,00,00,00,20,00,1A,56,
127499069,00000130,false,Rx,0,8,18,00,00,00,10,00,0E,03,
127500063,00000100,false,Rx,0,8,71,00,00,00,10,00,07,3A,
127500064,00000120,false,Rx,0,8,3D,00,00,00,10,00,09,36,
127500065,00000110,false,Rx,0,8,06,00,00,00,30,00,14,7D,
127501174,00000050,false,Rx,0,6,40,54,FF,FF,DF,FF,00,00,
127501176,00000130,false,Rx,0,8,2C,BA,F5,FF,23,80,C5,00,
127501176,00000100,false,Rx,0,8,71,00,00,00,20,00,13,3A,
127502790,00000120,false,Rx,0,8,3D,00,00,00,20,00,1D,36,
127502791,00000110,false,Rx,0,8,06,00,00,00,40,00,31,BD,
127503896,00000130,false,Rx,0,8,95,00,00,00,30,00,09,1E,
127503907,00000100,false,Rx,0,8,5A,00,00,00,30,00,18,E1,
127504914,00000120,false,Rx,0,8,3D,00,00,00,30,00,10,F6,
127504915,00000110,false,Rx,0,8,1D,00,00,00,50,00,3F,96,
127504916,00000170,false,Rx,0,8,00,00,00,57,50,81,05,24,
127505906,00000130,false,Rx,0,8,D9,FF,FF,FF,40,00,36,E2,
127505907,00000100,false,Rx,0,8,71,00,00,00,40,00,3B,3A,
127506910,00000120,false,Rx,0,8,3D,00,00,00,40,00,35,36,
127506911,00000110,false,Rx,0,8,1D,00,00,00,60,00,2B,96,
127508063,00000130,false,Rx,0,8,D9,FF,FF,FF,50,00,3B,22,
127508064,00000100,false,Rx,0,8,71,00,00,00,50,00,36,FA,
127509062,00000120,false,Rx,0,8,3D,00,00,00,50,00,38,F6,
127509064,00000110,false,Rx,0,8,1D,00,00,00,70,00,26,56,
